Time [s],Packet ID,Address,Data,Read/Write,ACK/NAK
6.018008625000000,0,0x3C,0x00,Write,ACK
6.018031187500000,0,0x3C,0xAE,Write,ACK
6.018078937500000,1,0x1E,0x00,Write,ACK
6.018101437500000,1,0x1E,0x6A,Write,NAK
6.018154250000000,2,0x3C,0x00,Write,ACK
6.018176875000000,2,0x3C,0x80,Write,ACK
6.018227125000000,3,0x3C,0x00,Write,ACK
6.018249687500000,3,0x3C,0xA8,Write,ACK
6.018297437500000,4,0x1E,0x00,Write,ACK
6.018319937500000,4,0x1E,0x0F,Write,NAK
6.018372812500000,5,0x3C,0x00,Write,ACK
6.018395375000000,5,0x3C,0xD3,Write,ACK
6.018445625000000,6,0x3C,0x00,Write,ACK
6.018468187500000,6,0x3C,0x00,Write,ACK
6.018518437500000,7,0x3C,0x00,Write,ACK
6.018541000000000,7,0x3C,0x40,Write,ACK
6.018591312500000,8,0x3C,0x00,Write,ACK
6.018613875000000,8,0x3C,0x8D,Write,ACK
6.018664125000000,9,0x3C,0x00,Write,ACK
6.018686687500000,9,0x3C,0x14,Write,ACK
6.018736937500000,10,0x3C,0x00,Write,ACK
6.018759500000000,10,0x3C,0x20,Write,ACK
6.018809812500000,11,0x3C,0x00,Write,ACK
6.018832375000000,11,0x3C,0x02,Write,ACK
6.018882625000000,12,0x3C,0x00,Write,ACK
6.018905187500000,12,0x3C,0xA1,Write,ACK
6.018955437500000,13,0x3C,0x00,Write,ACK
6.018978000000000,13,0x3C,0xC0,Write,ACK
6.019028312500000,14,0x3C,0x00,Write,ACK
6.019050875000000,14,0x3C,0xDA,Write,ACK
6.019101125000000,15,0x3C,0x00,Write,ACK
6.019123687500000,15,0x3C,0x12,Write,ACK
6.019173937500000,16,0x3C,0x00,Write,ACK
6.019196500000000,16,0x3C,0x81,Write,ACK
6.019246812500000,17,0x3C,0x00,Write,ACK
6.019269375000000,17,0x3C,0xFF,Write,ACK
6.019317125000000,18,0x1E,0x00,Write,ACK
6.019339625000000,18,0x1E,0x6C,Write,NAK
6.019392500000000,19,0x3C,0x00,Write,ACK
6.019415062500000,19,0x3C,0x22,Write,ACK
6.019465312500000,20,0x3C,0x00,Write,ACK
6.019487875000000,20,0x3C,0xDB,Write,ACK
6.019538125000000,21,0x3C,0x00,Write,ACK
6.019560687500000,21,0x3C,0x20,Write,ACK
6.019611000000000,22,0x3C,0x00,Write,ACK
6.019633562500000,22,0x3C,0xA4,Write,ACK
6.019683812500000,23,0x3C,0x00,Write,ACK
6.019706375000000,23,0x3C,0xA6,Write,ACK
6.019756625000000,24,0x3C,0x00,Write,ACK
6.019779187500000,24,0x3C,0xAF,Write,ACK
6.019855937500000,25,0x3C,0x00,Write,ACK
6.019878500000000,25,0x3C,0xAE,Write,ACK
6.019926250000000,26,0x1E,0x00,Write,ACK
6.019948750000000,26,0x1E,0x6A,Write,NAK
6.020001562500000,27,0x3C,0x00,Write,ACK
6.020024187500000,27,0x3C,0x80,Write,ACK
6.020074437500000,28,0x3C,0x00,Write,ACK
6.020097000000000,28,0x3C,0xA8,Write,ACK
6.020144750000000,29,0x1E,0x00,Write,ACK
6.020167250000000,29,0x1E,0x0F,Write,NAK
6.020220125000000,30,0x3C,0x00,Write,ACK
6.020242687500000,30,0x3C,0xD3,Write,ACK
6.020292937500000,31,0x3C,0x00,Write,ACK
6.020315500000000,31,0x3C,0x00,Write,ACK
6.020365750000000,32,0x3C,0x00,Write,ACK
6.020388312500000,32,0x3C,0x40,Write,ACK
6.020438625000000,33,0x3C,0x00,Write,ACK
6.020461187500000,33,0x3C,0x8D,Write,ACK
6.020511437500000,34,0x3C,0x00,Write,ACK
6.020534000000000,34,0x3C,0x14,Write,ACK
6.020584250000000,35,0x3C,0x00,Write,ACK
6.020606812500000,35,0x3C,0x20,Write,ACK
6.020657125000000,36,0x3C,0x00,Write,ACK
6.020679687500000,36,0x3C,0x02,Write,ACK
6.020729937500000,37,0x3C,0x00,Write,ACK
6.020752500000000,37,0x3C,0xA1,Write,ACK
6.020802750000000,38,0x3C,0x00,Write,ACK
6.020825312500000,38,0x3C,0xC0,Write,ACK
6.020875625000000,39,0x3C,0x00,Write,ACK
6.020898187500000,39,0x3C,0xDA,Write,ACK
6.020948437500000,40,0x3C,0x00,Write,ACK
6.020971000000000,40,0x3C,0x12,Write,ACK
6.021021250000000,41,0x3C,0x00,Write,ACK
6.021043812500000,41,0x3C,0x81,Write,ACK
6.021094125000000,42,0x3C,0x00,Write,ACK
6.021116687500000,42,0x3C,0xFF,Write,ACK
6.021164437500000,43,0x1E,0x00,Write,ACK
6.021186937500000,43,0x1E,0x6C,Write,NAK
6.021239750000000,44,0x3C,0x00,Write,ACK
6.021262375000000,44,0x3C,0x22,Write,ACK
6.021312625000000,45,0x3C,0x00,Write,ACK
6.021335187500000,45,0x3C,0xDB,Write,ACK
6.021382937500000,46,0x1E,0x00,Write,ACK
6.021405437500000,46,0x1E,0x10,Write,ACK
6.021458312500000,47,0x3C,0x00,Write,ACK
6.021480875000000,47,0x3C,0xA4,Write,ACK
6.021531125000000,48,0x3C,0x00,Write,ACK
6.021553687500000,48,0x3C,0xA6,Write,ACK
6.021603937500000,49,0x3C,0x00,Write,ACK
6.021626500000000,49,0x3C,0xAF,Write,ACK
6.021905000000000,50,0x3C,0x00,Write,ACK
6.021927562500000,50,0x3C,0xAE,Write,ACK
6.080438625000000,51,0x18,0x14,Write,ACK
6.080461187500000,51,0x18,0xB6,Write,ACK
6.082511937500000,52,0x18,0x11,Write,ACK
6.082534562500000,52,0x18,0x00,Write,ACK
6.083210625000000,53,0x18,0x11,Write,ACK
6.083233187500000,53,0x18,0x56,Write,ACK
6.083908937500000,54,0x18,0x12,Write,ACK
6.083931500000000,54,0x18,0x60,Write,ACK
6.084607312500000,55,0x18,0x0F,Write,ACK
6.084629875000000,55,0x18,0x05,Write,ACK
6.085305937500000,56,0x18,0x10,Write,ACK
6.085328500000000,56,0x18,0x0D,Write,ACK
6.086004250000000,57,0x18,0x20,Write,ACK
6.086026875000000,57,0x18,0x00,Write,ACK
6.086710000000000,58,0x18,0x02,Write,ACK
6.086732500000000,58,0x18,0x8C,Write,ACK
6.086753062500000,58,0x18,0x80,Write,ACK
6.086775562500000,58,0x18,0xBE,Write,ACK
6.086798062500000,58,0x18,0x80,Write,ACK
6.086820562500000,58,0x18,0x82,Write,NAK
6.086843062500000,58,0x18,0x80,Write,ACK
6.086865562500000,58,0x18,0x8F,Write,ACK
6.086921437500000,59,0x18,0x20,Write,ACK
6.086944000000000,59,0x18,0x00,Write,ACK
6.087619750000000,60,0x18,0x11,Write,ACK
6.087642312500000,60,0x18,0x20,Write,ACK
6.088365250000000,61,0x18,0x14,Write,ACK
6.088387812500000,61,0x18,0xB6,Write,ACK
6.090438562500000,62,0x18,0x11,Write,ACK
6.090461125000000,62,0x18,0x00,Write,ACK
6.091137187500000,63,0x18,0x11,Write,ACK
6.091159750000000,63,0x18,0x56,Write,ACK
6.091835562500000,64,0x18,0x12,Write,ACK
6.091858125000000,64,0x18,0x60,Write,ACK
6.092533875000000,65,0x18,0x0F,Write,ACK
6.092556437500000,65,0x18,0x05,Write,ACK
6.093232562500000,66,0x18,0x10,Write,ACK
6.093255125000000,66,0x18,0x0D,Write,ACK
6.093930875000000,67,0x18,0x20,Write,ACK
6.093953437500000,67,0x18,0x00,Write,ACK
6.094630125000000,68,0x18,0x3E,Write,ACK
6.094652687500000,68,0x18,0x40,Write,ACK
6.095920812500000,69,0x3C,0x00,Write,ACK
6.095943375000000,69,0x3C,0xAE,Write,ACK
6.095993625000000,70,0x3C,0x00,Write,ACK
6.096016187500000,70,0x3C,0xD5,Write,ACK
6.096066437500000,71,0x3C,0x00,Write,ACK
6.096089000000000,71,0x3C,0x80,Write,ACK
6.096139312500000,72,0x3C,0x00,Write,ACK
6.096161875000000,72,0x3C,0xA8,Write,ACK
6.096212125000000,73,0x3C,0x00,Write,ACK
6.096234687500000,73,0x3C,0x1F,Write,ACK
6.096284937500000,74,0x3C,0x00,Write,ACK
6.096307500000000,74,0x3C,0xD3,Write,ACK
6.096357812500000,75,0x3C,0x00,Write,ACK
6.096380375000000,75,0x3C,0x00,Write,ACK
6.096428125000000,76,0x1E,0x00,Write,ACK
6.096450625000000,76,0x1E,0x20,Write,ACK
6.096503437500000,77,0x3C,0x00,Write,ACK
6.096526062500000,77,0x3C,0x8D,Write,ACK
6.096576312500000,78,0x3C,0x00,Write,ACK
6.096598875000000,78,0x3C,0x14,Write,ACK
6.096646625000000,79,0x1E,0x00,Write,ACK
6.096669125000000,79,0x1E,0x10,Write,ACK
6.096722000000000,80,0x3C,0x00,Write,ACK
6.096744562500000,80,0x3C,0x02,Write,ACK
6.096794812500000,81,0x3C,0x00,Write,ACK
6.096817375000000,81,0x3C,0xA1,Write,ACK
6.096867625000000,82,0x3C,0x00,Write,ACK
6.096890187500000,82,0x3C,0xC0,Write,ACK
6.096940500000000,83,0x3C,0x00,Write,ACK
6.096963062500000,83,0x3C,0xDA,Write,ACK
6.097013312500000,84,0x3C,0x00,Write,ACK
6.097035875000000,84,0x3C,0x12,Write,ACK
6.097086125000000,85,0x3C,0x00,Write,ACK
6.097108687500000,85,0x3C,0x81,Write,ACK
6.097159000000000,86,0x3C,0x00,Write,ACK
6.097181562500000,86,0x3C,0xFF,Write,ACK
6.097231812500000,87,0x3C,0x00,Write,ACK
6.097254375000000,87,0x3C,0xD9,Write,ACK
6.097304625000000,88,0x3C,0x00,Write,ACK
6.097327187500000,88,0x3C,0x22,Write,ACK
6.097377500000000,89,0x3C,0x00,Write,ACK
6.097400062500000,89,0x3C,0xDB,Write,ACK
6.097450312500000,90,0x3C,0x00,Write,ACK
6.097472875000000,90,0x3C,0x20,Write,ACK
6.097523125000000,91,0x3C,0x00,Write,ACK
6.097545687500000,91,0x3C,0xA4,Write,ACK
6.097596000000000,92,0x3C,0x00,Write,ACK
6.097618562500000,92,0x3C,0xA6,Write,ACK
6.097666312500000,93,0x1E,0x00,Write,ACK
6.097688812500000,93,0x1E,0x57,Write,NAK
6.101829500000000,94,0x3C,0x00,Write,ACK
6.101852062500000,94,0x3C,0xB0,Write,ACK
6.101902375000000,95,0x3C,0x00,Write,ACK
6.101924937500000,95,0x3C,0x10,Write,ACK
6.101975187500000,96,0x3C,0x00,Write,ACK
6.101997750000000,96,0x3C,0x00,Write,ACK
6.102048250000000,97,0x3C,0x40,Write,ACK
6.102070875000000,97,0x3C,0x00,Write,ACK
6.102121562500000,98,0x3C,0x40,Write,ACK
6.102144125000000,98,0x3C,0x00,Write,ACK
6.102192312500000,99,0x1E,0x20,Write,ACK
6.102214812500000,99,0x1E,0x00,Write,ACK
6.102268062500000,100,0x3C,0x40,Write,ACK
6.102290687500000,100,0x3C,0x00,Write,ACK
6.102341375000000,101,0x3C,0x40,Write,ACK
6.102363937500000,101,0x3C,0x00,Write,ACK
6.102414625000000,102,0x3C,0x40,Write,ACK
6.102437187500000,102,0x3C,0x00,Write,ACK
6.102487937500000,103,0x3C,0x40,Write,ACK
6.102510500000000,103,0x3C,0x00,Write,ACK
6.102561187500000,104,0x3C,0x40,Write,ACK
6.102583750000000,104,0x3C,0x00,Write,ACK
6.102634437500000,105,0x3C,0x40,Write,ACK
6.102657000000000,105,0x3C,0x00,Write,ACK
6.102707750000000,106,0x3C,0x40,Write,ACK
6.102730312500000,106,0x3C,0x00,Write,ACK
6.102781000000000,107,0x3C,0x40,Write,ACK
6.102803562500000,107,0x3C,0x00,Write,ACK
6.102854250000000,108,0x3C,0x40,Write,ACK
6.102876812500000,108,0x3C,0x00,Write,ACK
6.102927562500000,109,0x3C,0x40,Write,ACK
6.102950125000000,109,0x3C,0x00,Write,ACK
6.103000812500000,110,0x3C,0x40,Write,ACK
6.103023375000000,110,0x3C,0x00,Write,ACK
6.103074062500000,111,0x3C,0x40,Write,ACK
6.103096687500000,111,0x3C,0x00,Write,ACK
6.103147375000000,112,0x3C,0x40,Write,ACK
6.103169937500000,112,0x3C,0x00,Write,ACK
6.103218125000000,113,0x1E,0x20,Write,ACK
6.103240625000000,113,0x1E,0x00,Write,ACK
6.103293875000000,114,0x3C,0x40,Write,ACK
6.103316500000000,114,0x3C,0x00,Write,ACK
6.103367187500000,115,0x3C,0x40,Write,ACK
6.103389750000000,115,0x3C,0x00,Write,ACK
6.103440437500000,116,0x3C,0x40,Write,ACK
6.103463000000000,116,0x3C,0x00,Write,ACK
6.103513750000000,117,0x3C,0x40,Write,ACK
6.103536312500000,117,0x3C,0x00,Write,ACK
6.103587000000000,118,0x3C,0x40,Write,ACK
6.103609562500000,118,0x3C,0x00,Write,ACK
6.103660250000000,119,0x3C,0x40,Write,ACK
6.103682812500000,119,0x3C,0x00,Write,ACK
6.103733562500000,120,0x3C,0x40,Write,ACK
6.103756125000000,120,0x3C,0x00,Write,ACK
6.103806812500000,121,0x3C,0x40,Write,ACK
6.103829375000000,121,0x3C,0x00,Write,ACK
6.103880062500000,122,0x3C,0x40,Write,ACK
6.103902625000000,122,0x3C,0x00,Write,ACK
6.103953375000000,123,0x3C,0x40,Write,ACK
6.103975937500000,123,0x3C,0x00,Write,ACK
6.104026625000000,124,0x3C,0x40,Write,ACK
6.104049187500000,124,0x3C,0x00,Write,ACK
6.104099875000000,125,0x3C,0x40,Write,ACK
6.104122500000000,125,0x3C,0x00,Write,ACK
6.104173187500000,126,0x3C,0x40,Write,ACK
6.104195750000000,126,0x3C,0x00,Write,ACK
6.104243937500000,127,0x1E,0x20,Write,ACK
6.104266437500000,127,0x1E,0x00,Write,ACK
6.104319687500000,128,0x3C,0x40,Write,ACK
6.104342312500000,128,0x3C,0x00,Write,ACK
6.104393000000000,129,0x3C,0x40,Write,ACK
6.104415562500000,129,0x3C,0x00,Write,ACK
6.104463750000000,130,0x1E,0x20,Write,ACK
6.104486250000000,130,0x1E,0x00,Write,ACK
6.104539562500000,131,0x3C,0x40,Write,ACK
6.104562125000000,131,0x3C,0x00,Write,ACK
6.104612812500000,132,0x3C,0x40,Write,ACK
6.104635375000000,132,0x3C,0x00,Write,ACK
6.104686062500000,133,0x3C,0x40,Write,ACK
6.104708625000000,133,0x3C,0x00,Write,ACK
6.104759375000000,134,0x3C,0x40,Write,ACK
6.104781937500000,134,0x3C,0x00,Write,ACK
6.104832625000000,135,0x3C,0x40,Write,ACK
6.104855187500000,135,0x3C,0x00,Write,ACK
6.104905875000000,136,0x3C,0x40,Write,ACK
6.104928437500000,136,0x3C,0x00,Write,ACK
6.104979187500000,137,0x3C,0x40,Write,ACK
6.105001750000000,137,0x3C,0x00,Write,ACK
6.105052437500000,138,0x3C,0x40,Write,ACK
6.105075000000000,138,0x3C,0x00,Write,ACK
6.105125687500000,139,0x3C,0x40,Write,ACK
6.105148312500000,139,0x3C,0x00,Write,ACK
6.105199000000000,140,0x3C,0x40,Write,ACK
6.105221562500000,140,0x3C,0x00,Write,ACK
6.105269750000000,141,0x1E,0x20,Write,ACK
6.105292250000000,141,0x1E,0x00,Write,ACK
6.105345500000000,142,0x3C,0x40,Write,ACK
6.105368125000000,142,0x3C,0x00,Write,ACK
6.105418812500000,143,0x3C,0x40,Write,ACK
6.105441375000000,143,0x3C,0x00,Write,ACK
6.105489562500000,144,0x1E,0x20,Write,ACK
6.105512062500000,144,0x1E,0x00,Write,ACK
6.105565375000000,145,0x3C,0x40,Write,ACK
6.105587937500000,145,0x3C,0x00,Write,ACK
6.105638625000000,146,0x3C,0x40,Write,ACK
6.105661187500000,146,0x3C,0x00,Write,ACK
6.105711875000000,147,0x3C,0x40,Write,ACK
6.105734437500000,147,0x3C,0x00,Write,ACK
6.105785187500000,148,0x3C,0x40,Write,ACK
6.105807750000000,148,0x3C,0x00,Write,ACK
6.105858437500000,149,0x3C,0x40,Write,ACK
6.105881000000000,149,0x3C,0x00,Write,ACK
6.105931687500000,150,0x3C,0x40,Write,ACK
6.105954250000000,150,0x3C,0x00,Write,ACK
6.106005000000000,151,0x3C,0x40,Write,ACK
6.106027562500000,151,0x3C,0x00,Write,ACK
6.106078250000000,152,0x3C,0x40,Write,ACK
6.106100812500000,152,0x3C,0x00,Write,ACK
6.106151500000000,153,0x3C,0x40,Write,ACK
6.106174062500000,153,0x3C,0x00,Write,ACK
6.106224812500000,154,0x3C,0x40,Write,ACK
6.106247375000000,154,0x3C,0x00,Write,ACK
6.106298062500000,155,0x3C,0x40,Write,ACK
6.106320625000000,155,0x3C,0x00,Write,ACK
6.106371312500000,156,0x3C,0x40,Write,ACK
6.106393937500000,156,0x3C,0x00,Write,ACK
6.106444625000000,157,0x3C,0x40,Write,ACK
6.106467187500000,157,0x3C,0x00,Write,ACK
6.106515375000000,158,0x1E,0x20,Write,ACK
6.106537875000000,158,0x1E,0x00,Write,ACK
6.106591125000000,159,0x3C,0x40,Write,ACK
6.106613750000000,159,0x3C,0x00,Write,ACK
6.106664437500000,160,0x3C,0x40,Write,ACK
6.106687000000000,160,0x3C,0x00,Write,ACK
6.106737687500000,161,0x3C,0x40,Write,ACK
6.106760250000000,161,0x3C,0x00,Write,ACK
6.106811000000000,162,0x3C,0x40,Write,ACK
6.106833562500000,162,0x3C,0x00,Write,ACK
6.106884250000000,163,0x3C,0x40,Write,ACK
6.106906812500000,163,0x3C,0x00,Write,ACK
6.106957500000000,164,0x3C,0x40,Write,ACK
6.106980062500000,164,0x3C,0x00,Write,ACK
6.107030812500000,165,0x3C,0x40,Write,ACK
6.107053375000000,165,0x3C,0x00,Write,ACK
6.107104062500000,166,0x3C,0x40,Write,ACK
6.107126625000000,166,0x3C,0x00,Write,ACK
6.107177312500000,167,0x3C,0x40,Write,ACK
6.107199875000000,167,0x3C,0x00,Write,ACK
6.107250625000000,168,0x3C,0x40,Write,ACK
6.107273187500000,168,0x3C,0x00,Write,ACK
6.107323875000000,169,0x3C,0x40,Write,ACK
6.107346437500000,169,0x3C,0x00,Write,ACK
6.107397125000000,170,0x3C,0x40,Write,ACK
6.107419750000000,170,0x3C,0x00,Write,ACK
6.107470437500000,171,0x3C,0x40,Write,ACK
6.107493000000000,171,0x3C,0x00,Write,ACK
6.107541187500000,172,0x1E,0x20,Write,ACK
6.107563687500000,172,0x1E,0x00,Write,ACK
6.107617000000000,173,0x3C,0x40,Write,ACK
6.107639562500000,173,0x3C,0x00,Write,ACK
6.107690250000000,174,0x3C,0x40,Write,ACK
6.107712812500000,174,0x3C,0x00,Write,ACK
6.107763500000000,175,0x3C,0x40,Write,ACK
6.107786062500000,175,0x3C,0x00,Write,ACK
6.107836812500000,176,0x3C,0x40,Write,ACK
6.107859375000000,176,0x3C,0x00,Write,ACK
6.107910062500000,177,0x3C,0x40,Write,ACK
6.107932625000000,177,0x3C,0x00,Write,ACK
6.107983312500000,178,0x3C,0x40,Write,ACK
6.108005875000000,178,0x3C,0x00,Write,ACK
6.108056625000000,179,0x3C,0x40,Write,ACK
6.108079187500000,179,0x3C,0x00,Write,ACK
6.108129875000000,180,0x3C,0x40,Write,ACK
6.108152437500000,180,0x3C,0x00,Write,ACK
6.108203125000000,181,0x3C,0x40,Write,ACK
6.108225687500000,181,0x3C,0x00,Write,ACK
6.108276437500000,182,0x3C,0x40,Write,ACK
6.108299000000000,182,0x3C,0x00,Write,ACK
6.108349687500000,183,0x3C,0x40,Write,ACK
6.108372250000000,183,0x3C,0x00,Write,ACK
6.108422937500000,184,0x3C,0x40,Write,ACK
6.108445562500000,184,0x3C,0x00,Write,ACK
6.108496250000000,185,0x3C,0x40,Write,ACK
6.108518812500000,185,0x3C,0x00,Write,ACK
6.108567000000000,186,0x1E,0x20,Write,ACK
6.108589500000000,186,0x1E,0x00,Write,ACK
6.108642812500000,187,0x3C,0x40,Write,ACK
6.108665375000000,187,0x3C,0x00,Write,ACK
6.108716062500000,188,0x3C,0x40,Write,ACK
6.108738625000000,188,0x3C,0x00,Write,ACK
6.108789312500000,189,0x3C,0x40,Write,ACK
6.108811875000000,189,0x3C,0x00,Write,ACK
6.108862625000000,190,0x3C,0x40,Write,ACK
6.108885187500000,190,0x3C,0x00,Write,ACK
6.108935875000000,191,0x3C,0x40,Write,ACK
6.108958437500000,191,0x3C,0x00,Write,ACK
6.109009125000000,192,0x3C,0x40,Write,ACK
6.109031687500000,192,0x3C,0x00,Write,ACK
6.109082437500000,193,0x3C,0x40,Write,ACK
6.109105000000000,193,0x3C,0x00,Write,ACK
6.109155687500000,194,0x3C,0x40,Write,ACK
6.109178250000000,194,0x3C,0x00,Write,ACK
6.109228937500000,195,0x3C,0x40,Write,ACK
6.109251500000000,195,0x3C,0x00,Write,ACK
6.109302250000000,196,0x3C,0x40,Write,ACK
6.109324812500000,196,0x3C,0x00,Write,ACK
6.109375500000000,197,0x3C,0x40,Write,ACK
6.109398062500000,197,0x3C,0x00,Write,ACK
6.109448750000000,198,0x3C,0x40,Write,ACK
6.109471375000000,198,0x3C,0x00,Write,ACK
6.109522062500000,199,0x3C,0x40,Write,ACK
6.109544625000000,199,0x3C,0x00,Write,ACK
6.109592812500000,200,0x1E,0x20,Write,ACK
6.109615312500000,200,0x1E,0x00,Write,ACK
6.109668562500000,201,0x3C,0x40,Write,ACK
6.109691187500000,201,0x3C,0x00,Write,ACK
6.109741875000000,202,0x3C,0x40,Write,ACK
6.109764437500000,202,0x3C,0x00,Write,ACK
6.109815125000000,203,0x3C,0x40,Write,ACK
6.109837687500000,203,0x3C,0x00,Write,ACK
6.109888437500000,204,0x3C,0x40,Write,ACK
6.109911000000000,204,0x3C,0x00,Write,ACK
6.109961687500000,205,0x3C,0x40,Write,ACK
6.109984250000000,205,0x3C,0x00,Write,ACK
6.110034937500000,206,0x3C,0x40,Write,ACK
6.110057500000000,206,0x3C,0x00,Write,ACK
6.110108250000000,207,0x3C,0x40,Write,ACK
6.110130812500000,207,0x3C,0x00,Write,ACK
6.110181500000000,208,0x3C,0x40,Write,ACK
6.110204062500000,208,0x3C,0x00,Write,ACK
6.110254750000000,209,0x3C,0x40,Write,ACK
6.110277312500000,209,0x3C,0x00,Write,ACK
6.110328062500000,210,0x3C,0x40,Write,ACK
6.110350625000000,210,0x3C,0x00,Write,ACK
6.110401312500000,211,0x3C,0x40,Write,ACK
6.110423875000000,211,0x3C,0x00,Write,ACK
6.110474562500000,212,0x3C,0x40,Write,ACK
6.110497187500000,212,0x3C,0x00,Write,ACK
6.110547875000000,213,0x3C,0x40,Write,ACK
6.110570437500000,213,0x3C,0x00,Write,ACK
6.110618625000000,214,0x1E,0x20,Write,ACK
6.110641125000000,214,0x1E,0x00,Write,ACK
6.110694375000000,215,0x3C,0x40,Write,ACK
6.110717000000000,215,0x3C,0x00,Write,ACK
6.110767687500000,216,0x3C,0x40,Write,ACK
6.110790250000000,216,0x3C,0x00,Write,ACK
6.110838437500000,217,0x1E,0x20,Write,ACK
6.110860937500000,217,0x1E,0x00,Write,ACK
6.110914250000000,218,0x3C,0x40,Write,ACK
6.110936812500000,218,0x3C,0x00,Write,ACK
6.110987500000000,219,0x3C,0x40,Write,ACK
6.111010062500000,219,0x3C,0x00,Write,ACK
6.111060750000000,220,0x3C,0x40,Write,ACK
6.111083312500000,220,0x3C,0x00,Write,ACK
6.111134062500000,221,0x3C,0x40,Write,ACK
6.111156625000000,221,0x3C,0x00,Write,ACK
6.111207312500000,222,0x3C,0x40,Write,ACK
6.111229875000000,222,0x3C,0x00,Write,ACK
6.111280562500000,223,0x3C,0x40,Write,ACK
6.111303125000000,223,0x3C,0x00,Write,ACK
6.111353875000000,224,0x3C,0x40,Write,ACK
6.111376437500000,224,0x3C,0x00,Write,ACK
6.111427437500000,225,0x3C,0x00,Write,ACK
6.111450000000000,225,0x3C,0xB1,Write,ACK
6.111500250000000,226,0x3C,0x00,Write,ACK
6.111522875000000,226,0x3C,0x10,Write,ACK
6.111573125000000,227,0x3C,0x00,Write,ACK
6.111595687500000,227,0x3C,0x00,Write,ACK
6.111643687500000,228,0x1E,0x20,Write,ACK
6.111666187500000,228,0x1E,0x00,Write,ACK
6.111719437500000,229,0x3C,0x40,Write,ACK
6.111742062500000,229,0x3C,0x00,Write,ACK
6.111792750000000,230,0x3C,0x40,Write,ACK
6.111815312500000,230,0x3C,0x00,Write,ACK
6.111863500000000,231,0x1E,0x20,Write,ACK
6.111886000000000,231,0x1E,0x00,Write,ACK
6.111939250000000,232,0x3C,0x40,Write,ACK
6.111961875000000,232,0x3C,0x00,Write,ACK
6.112012562500000,233,0x3C,0x40,Write,ACK
6.112035125000000,233,0x3C,0x00,Write,ACK
6.112085812500000,234,0x3C,0x40,Write,ACK
6.112108375000000,234,0x3C,0x00,Write,ACK
6.112159125000000,235,0x3C,0x40,Write,ACK
6.112181687500000,235,0x3C,0x00,Write,ACK
6.112232375000000,236,0x3C,0x40,Write,ACK
6.112254937500000,236,0x3C,0x00,Write,ACK
6.112305625000000,237,0x3C,0x40,Write,ACK
6.112328187500000,237,0x3C,0x00,Write,ACK
6.112378937500000,238,0x3C,0x40,Write,ACK
6.112401500000000,238,0x3C,0x00,Write,ACK
6.112452187500000,239,0x3C,0x40,Write,ACK
6.112474750000000,239,0x3C,0x03,Write,ACK
6.112525437500000,240,0x3C,0x40,Write,ACK
6.112548062500000,240,0x3C,0x3F,Write,ACK
6.112598750000000,241,0x3C,0x40,Write,ACK
6.112621312500000,241,0x3C,0xFC,Write,ACK
6.112672000000000,242,0x3C,0x40,Write,ACK
6.112694562500000,242,0x3C,0xC0,Write,ACK
6.112745250000000,243,0x3C,0x40,Write,ACK
6.112767875000000,243,0x3C,0x00,Write,ACK
6.112818562500000,244,0x3C,0x40,Write,ACK
6.112841125000000,244,0x3C,0x00,Write,ACK
6.112889312500000,245,0x1E,0x20,Write,ACK
6.112911812500000,245,0x1E,0x00,Write,ACK
6.112965125000000,246,0x3C,0x40,Write,ACK
6.112987687500000,246,0x3C,0xF0,Write,ACK
6.113038375000000,247,0x3C,0x40,Write,ACK
6.113060937500000,247,0x3C,0x7F,Write,ACK
6.113111625000000,248,0x3C,0x40,Write,ACK
6.113134187500000,248,0x3C,0x07,Write,ACK
6.113184937500000,249,0x3C,0x40,Write,ACK
6.113207500000000,249,0x3C,0x7F,Write,ACK
6.113258187500000,250,0x3C,0x40,Write,ACK
6.113280750000000,250,0x3C,0xF0,Write,ACK
6.113331437500000,251,0x3C,0x40,Write,ACK
6.113354000000000,251,0x3C,0x00,Write,ACK
6.113404750000000,252,0x3C,0x40,Write,ACK
6.113427312500000,252,0x3C,0x00,Write,ACK
6.113478000000000,253,0x3C,0x40,Write,ACK
6.113500562500000,253,0x3C,0x00,Write,ACK
6.113551250000000,254,0x3C,0x40,Write,ACK
6.113573812500000,254,0x3C,0xC0,Write,ACK
6.113624562500000,255,0x3C,0x40,Write,ACK
6.113647125000000,255,0x3C,0xFC,Write,ACK
6.113697812500000,256,0x3C,0x40,Write,ACK
6.113720375000000,256,0x3C,0x3F,Write,ACK
6.113771062500000,257,0x3C,0x40,Write,ACK
6.113793687500000,257,0x3C,0x03,Write,ACK
6.113844375000000,258,0x3C,0x40,Write,ACK
6.113866937500000,258,0x3C,0x00,Write,ACK
6.113915125000000,259,0x1E,0x20,Write,ACK
6.113937625000000,259,0x1E,0x00,Write,ACK
6.113990937500000,260,0x3C,0x40,Write,ACK
6.114013500000000,260,0x3C,0x00,Write,ACK
6.114064187500000,261,0x3C,0x40,Write,ACK
6.114086750000000,261,0x3C,0xFF,Write,ACK
6.114137437500000,262,0x3C,0x40,Write,ACK
6.114160000000000,262,0x3C,0xFF,Write,ACK
6.114210750000000,263,0x3C,0x40,Write,ACK
6.114233312500000,263,0x3C,0xC3,Write,ACK
6.114284000000000,264,0x3C,0x40,Write,ACK
6.114306562500000,264,0x3C,0xC3,Write,ACK
6.114357250000000,265,0x3C,0x40,Write,ACK
6.114379812500000,265,0x3C,0xC3,Write,ACK
6.114430562500000,266,0x3C,0x40,Write,ACK
6.114453125000000,266,0x3C,0xC3,Write,ACK
6.114503812500000,267,0x3C,0x40,Write,ACK
6.114526375000000,267,0x3C,0xC3,Write,ACK
6.114577062500000,268,0x3C,0x40,Write,ACK
6.114599625000000,268,0x3C,0xC3,Write,ACK
6.114650375000000,269,0x3C,0x40,Write,ACK
6.114672937500000,269,0x3C,0xC3,Write,ACK
6.114723625000000,270,0x3C,0x40,Write,ACK
6.114746187500000,270,0x3C,0xC3,Write,ACK
6.114796875000000,271,0x3C,0x40,Write,ACK
6.114819500000000,271,0x3C,0x00,Write,ACK
6.114870187500000,272,0x3C,0x40,Write,ACK
6.114892750000000,272,0x3C,0x00,Write,ACK
6.114940937500000,273,0x1E,0x20,Write,ACK
6.114963437500000,273,0x1E,0x00,Write,ACK
6.115016687500000,274,0x3C,0x40,Write,ACK
6.115039312500000,274,0x3C,0xFF,Write,ACK
6.115090000000000,275,0x3C,0x40,Write,ACK
6.115112562500000,275,0x3C,0xFF,Write,ACK
6.115163250000000,276,0x3C,0x40,Write,ACK
6.115185812500000,276,0x3C,0x00,Write,ACK
6.115236562500000,277,0x3C,0x40,Write,ACK
6.115259125000000,277,0x3C,0x00,Write,ACK
6.115309812500000,278,0x3C,0x40,Write,ACK
6.115332375000000,278,0x3C,0x00,Write,ACK
6.115383062500000,279,0x3C,0x40,Write,ACK
6.115405625000000,279,0x3C,0x00,Write,ACK
6.115456375000000,280,0x3C,0x40,Write,ACK
6.115478937500000,280,0x3C,0x00,Write,ACK
6.115529625000000,281,0x3C,0x40,Write,ACK
6.115552187500000,281,0x3C,0x00,Write,ACK
6.115602875000000,282,0x3C,0x40,Write,ACK
6.115625437500000,282,0x3C,0x00,Write,ACK
6.115676187500000,283,0x3C,0x40,Write,ACK
6.115698750000000,283,0x3C,0x00,Write,ACK
6.115749437500000,284,0x3C,0x40,Write,ACK
6.115772000000000,284,0x3C,0x00,Write,ACK
6.115822687500000,285,0x3C,0x40,Write,ACK
6.115845250000000,285,0x3C,0xE0,Write,ACK
6.115896000000000,286,0x3C,0x40,Write,ACK
6.115918562500000,286,0x3C,0xF8,Write,ACK
6.115966750000000,287,0x1E,0x20,Write,ACK
6.115989250000000,287,0x1E,0x0E,Write,ACK
6.116042500000000,288,0x3C,0x40,Write,ACK
6.116065125000000,288,0x3C,0x0E,Write,ACK
6.116115812500000,289,0x3C,0x40,Write,ACK
6.116138375000000,289,0x3C,0x06,Write,ACK
6.116189062500000,290,0x3C,0x40,Write,ACK
6.116211625000000,290,0x3C,0x03,Write,ACK
6.116262375000000,291,0x3C,0x40,Write,ACK
6.116284937500000,291,0x3C,0x03,Write,ACK
6.116335625000000,292,0x3C,0x40,Write,ACK
6.116358187500000,292,0x3C,0x03,Write,ACK
6.116408875000000,293,0x3C,0x40,Write,ACK
6.116431437500000,293,0x3C,0x03,Write,ACK
6.116482187500000,294,0x3C,0x40,Write,ACK
6.116504750000000,294,0x3C,0x03,Write,ACK
6.116555437500000,295,0x3C,0x40,Write,ACK
6.116578000000000,295,0x3C,0x07,Write,ACK
6.116628687500000,296,0x3C,0x40,Write,ACK
6.116651250000000,296,0x3C,0x06,Write,ACK
6.116702000000000,297,0x3C,0x40,Write,ACK
6.116724562500000,297,0x3C,0x0E,Write,ACK
6.116775250000000,298,0x3C,0x40,Write,ACK
6.116797812500000,298,0x3C,0x00,Write,ACK
6.116848500000000,299,0x3C,0x40,Write,ACK
6.116871125000000,299,0x3C,0x00,Write,ACK
6.116921812500000,300,0x3C,0x40,Write,ACK
6.116944375000000,300,0x3C,0xE0,Write,ACK
6.116992562500000,301,0x1E,0x20,Write,ACK
6.117015062500000,301,0x1E,0x7C,Write,ACK
6.117068312500000,302,0x3C,0x40,Write,ACK
6.117090937500000,302,0x3C,0x1C,Write,ACK
6.117141625000000,303,0x3C,0x40,Write,ACK
6.117164187500000,303,0x3C,0x0E,Write,ACK
6.117212375000000,304,0x1E,0x20,Write,ACK
6.117234875000000,304,0x1E,0x03,Write,ACK
6.117288187500000,305,0x3C,0x40,Write,ACK
6.117310750000000,305,0x3C,0x03,Write,ACK
6.117361437500000,306,0x3C,0x40,Write,ACK
6.117384000000000,306,0x3C,0x03,Write,ACK
6.117434687500000,307,0x3C,0x40,Write,ACK
6.117457250000000,307,0x3C,0x03,Write,ACK
6.117508000000000,308,0x3C,0x40,Write,ACK
6.117530562500000,308,0x3C,0x03,Write,ACK
6.117581250000000,309,0x3C,0x40,Write,ACK
6.117603812500000,309,0x3C,0x03,Write,ACK
6.117654500000000,310,0x3C,0x40,Write,ACK
6.117677062500000,310,0x3C,0x07,Write,ACK
6.117727812500000,311,0x3C,0x40,Write,ACK
6.117750375000000,311,0x3C,0x0E,Write,ACK
6.117801062500000,312,0x3C,0x40,Write,ACK
6.117823625000000,312,0x3C,0x1C,Write,ACK
6.117874312500000,313,0x3C,0x40,Write,ACK
6.117896875000000,313,0x3C,0xF8,Write,ACK
6.117947625000000,314,0x3C,0x40,Write,ACK
6.117970187500000,314,0x3C,0xE0,Write,ACK
6.118018375000000,315,0x1E,0x20,Write,ACK
6.118040875000000,315,0x1E,0x00,Write,ACK
6.118094125000000,316,0x3C,0x40,Write,ACK
6.118116750000000,316,0x3C,0x00,Write,ACK
6.118167437500000,317,0x3C,0x40,Write,ACK
6.118190000000000,317,0x3C,0x00,Write,ACK
6.118238187500000,318,0x1E,0x20,Write,ACK
6.118260687500000,318,0x1E,0x7F,Write,NAK
6.118314000000000,319,0x3C,0x40,Write,ACK
6.118336562500000,319,0x3C,0xFF,Write,ACK
6.118387250000000,320,0x3C,0x40,Write,ACK
6.118409812500000,320,0x3C,0x07,Write,ACK
6.118460500000000,321,0x3C,0x40,Write,ACK
6.118483062500000,321,0x3C,0x3E,Write,ACK
6.118533812500000,322,0x3C,0x40,Write,ACK
6.118556375000000,322,0x3C,0xF8,Write,ACK
6.118607062500000,323,0x3C,0x40,Write,ACK
6.118629625000000,323,0x3C,0xC0,Write,ACK
6.118680312500000,324,0x3C,0x40,Write,ACK
6.118702875000000,324,0x3C,0x00,Write,ACK
6.118753625000000,325,0x3C,0x40,Write,ACK
6.118776187500000,325,0x3C,0x00,Write,ACK
6.118826875000000,326,0x3C,0x40,Write,ACK
6.118849437500000,326,0x3C,0xC0,Write,ACK
6.118900125000000,327,0x3C,0x40,Write,ACK
6.118922687500000,327,0x3C,0xF0,Write,ACK
6.118973437500000,328,0x3C,0x40,Write,ACK
6.118996000000000,328,0x3C,0x3C,Write,ACK
6.119046687500000,329,0x3C,0x40,Write,ACK
6.119069250000000,329,0x3C,0x07,Write,ACK
6.119119937500000,330,0x3C,0x40,Write,ACK
6.119142500000000,330,0x3C,0xFF,Write,ACK
6.119193250000000,331,0x3C,0x40,Write,ACK
6.119215812500000,331,0x3C,0xFF,Write,ACK
6.119264000000000,332,0x1E,0x20,Write,ACK
6.119286500000000,332,0x1E,0x00,Write,ACK
6.119339812500000,333,0x3C,0x40,Write,ACK
6.119362375000000,333,0x3C,0x00,Write,ACK
6.119413062500000,334,0x3C,0x40,Write,ACK
6.119435625000000,334,0x3C,0x00,Write,ACK
6.119486312500000,335,0x3C,0x40,Write,ACK
6.119508875000000,335,0x3C,0x00,Write,ACK
6.119559625000000,336,0x3C,0x40,Write,ACK
6.119582187500000,336,0x3C,0xFF,Write,ACK
6.119632875000000,337,0x3C,0x40,Write,ACK
6.119655437500000,337,0x3C,0xFF,Write,ACK
6.119706125000000,338,0x3C,0x40,Write,ACK
6.119728687500000,338,0x3C,0xC3,Write,ACK
6.119779437500000,339,0x3C,0x40,Write,ACK
6.119802000000000,339,0x3C,0xC3,Write,ACK
6.119852687500000,340,0x3C,0x40,Write,ACK
6.119875250000000,340,0x3C,0xC3,Write,ACK
6.119925937500000,341,0x3C,0x40,Write,ACK
6.119948500000000,341,0x3C,0xC3,Write,ACK
6.119999250000000,342,0x3C,0x40,Write,ACK
6.120021812500000,342,0x3C,0xC3,Write,ACK
6.120072500000000,343,0x3C,0x40,Write,ACK
6.120095062500000,343,0x3C,0xC3,Write,ACK
6.120145750000000,344,0x3C,0x40,Write,ACK
6.120168312500000,344,0x3C,0xC3,Write,ACK
6.120219062500000,345,0x3C,0x40,Write,ACK
6.120241625000000,345,0x3C,0xC3,Write,ACK
6.120289812500000,346,0x1E,0x20,Write,ACK
6.120312312500000,346,0x1E,0x00,Write,ACK
6.120365625000000,347,0x3C,0x40,Write,ACK
6.120388187500000,347,0x3C,0x00,Write,ACK
6.120438875000000,348,0x3C,0x40,Write,ACK
6.120461437500000,348,0x3C,0x00,Write,ACK
6.120512125000000,349,0x3C,0x40,Write,ACK
6.120534687500000,349,0x3C,0x00,Write,ACK
6.120585437500000,350,0x3C,0x40,Write,ACK
6.120608000000000,350,0x3C,0x00,Write,ACK
6.120658687500000,351,0x3C,0x40,Write,ACK
6.120681250000000,351,0x3C,0x00,Write,ACK
6.120731937500000,352,0x3C,0x40,Write,ACK
6.120754500000000,352,0x3C,0x00,Write,ACK
6.120805250000000,353,0x3C,0x40,Write,ACK
6.120827812500000,353,0x3C,0x00,Write,ACK
6.120878500000000,354,0x3C,0x40,Write,ACK
6.120901062500000,354,0x3C,0x00,Write,ACK
6.120951750000000,355,0x3C,0x40,Write,ACK
6.120974312500000,355,0x3C,0x00,Write,ACK
6.121025375000000,356,0x3C,0x00,Write,ACK
6.121047937500000,356,0x3C,0xB2,Write,ACK
6.121098187500000,357,0x3C,0x00,Write,ACK
6.121120750000000,357,0x3C,0x10,Write,ACK
6.121171000000000,358,0x3C,0x00,Write,ACK
6.121193625000000,358,0x3C,0x00,Write,ACK
6.121244125000000,359,0x3C,0x40,Write,ACK
6.121266687500000,359,0x3C,0x00,Write,ACK
6.121314875000000,360,0x1E,0x20,Write,ACK
6.121337375000000,360,0x1E,0x00,Write,ACK
6.121390625000000,361,0x3C,0x40,Write,ACK
6.121413250000000,361,0x3C,0x00,Write,ACK
6.121463937500000,362,0x3C,0x40,Write,ACK
6.121486500000000,362,0x3C,0x00,Write,ACK
6.121537187500000,363,0x3C,0x40,Write,ACK
6.121559750000000,363,0x3C,0x00,Write,ACK
6.121610500000000,364,0x3C,0x40,Write,ACK
6.121633062500000,364,0x3C,0x00,Write,ACK
6.121683750000000,365,0x3C,0x40,Write,ACK
6.121706312500000,365,0x3C,0x00,Write,ACK
6.121757000000000,366,0x3C,0x40,Write,ACK
6.121779562500000,366,0x3C,0x00,Write,ACK
6.121830312500000,367,0x3C,0x40,Write,ACK
6.121852875000000,367,0x3C,0x00,Write,ACK
6.121903562500000,368,0x3C,0x40,Write,ACK
6.121926125000000,368,0x3C,0x00,Write,ACK
6.121976812500000,369,0x3C,0x40,Write,ACK
6.121999375000000,369,0x3C,0x00,Write,ACK
6.122050125000000,370,0x3C,0x40,Write,ACK
6.122072687500000,370,0x3C,0x00,Write,ACK
6.122123375000000,371,0x3C,0x40,Write,ACK
6.122145937500000,371,0x3C,0x00,Write,ACK
6.122196625000000,372,0x3C,0x40,Write,ACK
6.122219250000000,372,0x3C,0x03,Write,ACK
6.122269937500000,373,0x3C,0x40,Write,ACK
6.122292500000000,373,0x3C,0x3F,Write,ACK
6.122340687500000,374,0x1E,0x20,Write,ACK
6.122363187500000,374,0x1E,0x7E,Write,ACK
6.122416437500000,375,0x3C,0x40,Write,ACK
6.122439062500000,375,0x3C,0xE0,Write,ACK
6.122489750000000,376,0x3C,0x40,Write,ACK
6.122512312500000,376,0x3C,0x7F,Write,ACK
6.122560500000000,377,0x1E,0x20,Write,ACK
6.122583000000000,377,0x1E,0x03,Write,NAK
6.122636312500000,378,0x3C,0x40,Write,ACK
6.122658875000000,378,0x3C,0x00,Write,ACK
6.122709562500000,379,0x3C,0x40,Write,ACK
6.122732125000000,379,0x3C,0x00,Write,ACK
6.122782812500000,380,0x3C,0x40,Write,ACK
6.122805375000000,380,0x3C,0x00,Write,ACK
6.122856125000000,381,0x3C,0x40,Write,ACK
6.122878687500000,381,0x3C,0x07,Write,ACK
6.122929375000000,382,0x3C,0x40,Write,ACK
6.122951937500000,382,0x3C,0x7F,Write,ACK
6.123002625000000,383,0x3C,0x40,Write,ACK
6.123025187500000,383,0x3C,0xF0,Write,ACK
6.123075937500000,384,0x3C,0x40,Write,ACK
6.123098500000000,384,0x3C,0xFC,Write,ACK
6.123149187500000,385,0x3C,0x40,Write,ACK
6.123171750000000,385,0x3C,0x3F,Write,ACK
6.123222437500000,386,0x3C,0x40,Write,ACK
6.123245000000000,386,0x3C,0x03,Write,ACK
6.123295750000000,387,0x3C,0x40,Write,ACK
6.123318312500000,387,0x3C,0x00,Write,ACK
6.123366500000000,388,0x1E,0x20,Write,ACK
6.123389000000000,388,0x1E,0x00,Write,ACK
6.123442250000000,389,0x3C,0x40,Write,ACK
6.123464875000000,389,0x3C,0x00,Write,ACK
6.123515562500000,390,0x3C,0x40,Write,ACK
6.123538125000000,390,0x3C,0x00,Write,ACK
6.123586312500000,391,0x1E,0x20,Write,ACK
6.123608812500000,391,0x1E,0x00,Write,ACK
6.123662125000000,392,0x3C,0x40,Write,ACK
6.123684687500000,392,0x3C,0xFF,Write,ACK
6.123735375000000,393,0x3C,0x40,Write,ACK
6.123757937500000,393,0x3C,0xFF,Write,ACK
6.123808625000000,394,0x3C,0x40,Write,ACK
6.123831187500000,394,0x3C,0xC0,Write,ACK
6.123881937500000,395,0x3C,0x40,Write,ACK
6.123904500000000,395,0x3C,0xC0,Write,ACK
6.123955187500000,396,0x3C,0x40,Write,ACK
6.123977750000000,396,0x3C,0xC0,Write,ACK
6.124028437500000,397,0x3C,0x40,Write,ACK
6.124051000000000,397,0x3C,0xC0,Write,ACK
6.124101750000000,398,0x3C,0x40,Write,ACK
6.124124312500000,398,0x3C,0xC0,Write,ACK
6.124175000000000,399,0x3C,0x40,Write,ACK
6.124197562500000,399,0x3C,0xC0,Write,ACK
6.124248250000000,400,0x3C,0x40,Write,ACK
6.124270812500000,400,0x3C,0xC0,Write,ACK
6.124321562500000,401,0x3C,0x40,Write,ACK
6.124344125000000,401,0x3C,0xC0,Write,ACK
6.124394812500000,402,0x3C,0x40,Write,ACK
6.124417375000000,402,0x3C,0x00,Write,ACK
6.124468062500000,403,0x3C,0x40,Write,ACK
6.124490687500000,403,0x3C,0x00,Write,ACK
6.124541375000000,404,0x3C,0x40,Write,ACK
6.124563937500000,404,0x3C,0x00,Write,ACK
6.124612125000000,405,0x1E,0x20,Write,ACK
6.124634625000000,405,0x1E,0x7F,Write,NAK
6.124687937500000,406,0x3C,0x40,Write,ACK
6.124710500000000,406,0x3C,0xFF,Write,ACK
6.124761187500000,407,0x3C,0x40,Write,ACK
6.124783750000000,407,0x3C,0xC0,Write,ACK
6.124834437500000,408,0x3C,0x40,Write,ACK
6.124857000000000,408,0x3C,0xC0,Write,ACK
6.124907750000000,409,0x3C,0x40,Write,ACK
6.124930312500000,409,0x3C,0xC0,Write,ACK
6.124981000000000,410,0x3C,0x40,Write,ACK
6.125003562500000,410,0x3C,0xC0,Write,ACK
6.125054250000000,411,0x3C,0x40,Write,ACK
6.125076812500000,411,0x3C,0xC0,Write,ACK
6.125127562500000,412,0x3C,0x40,Write,ACK
6.125150125000000,412,0x3C,0xC0,Write,ACK
6.125200812500000,413,0x3C,0x40,Write,ACK
6.125223375000000,413,0x3C,0xC0,Write,ACK
6.125274062500000,414,0x3C,0x40,Write,ACK
6.125296625000000,414,0x3C,0xC0,Write,ACK
6.125347375000000,415,0x3C,0x40,Write,ACK
6.125369937500000,415,0x3C,0x00,Write,ACK
6.125420625000000,416,0x3C,0x40,Write,ACK
6.125443187500000,416,0x3C,0x07,Write,ACK
6.125493875000000,417,0x3C,0x40,Write,ACK
6.125516500000000,417,0x3C,0x1F,Write,ACK
6.125567187500000,418,0x3C,0x40,Write,ACK
6.125589750000000,418,0x3C,0x38,Write,ACK
6.125637937500000,419,0x1E,0x20,Write,ACK
6.125660437500000,419,0x1E,0x38,Write,ACK
6.125713750000000,420,0x3C,0x40,Write,ACK
6.125736312500000,420,0x3C,0xE0,Write,ACK
6.125787000000000,421,0x3C,0x40,Write,ACK
6.125809562500000,421,0x3C,0xC0,Write,ACK
6.125860250000000,422,0x3C,0x40,Write,ACK
6.125882812500000,422,0x3C,0xC0,Write,ACK
6.125933562500000,423,0x3C,0x40,Write,ACK
6.125956125000000,423,0x3C,0xC0,Write,ACK
6.126006812500000,424,0x3C,0x40,Write,ACK
6.126029375000000,424,0x3C,0xC0,Write,ACK
6.126080062500000,425,0x3C,0x40,Write,ACK
6.126102625000000,425,0x3C,0xC0,Write,ACK
6.126153375000000,426,0x3C,0x40,Write,ACK
6.126175937500000,426,0x3C,0xE0,Write,ACK
6.126226625000000,427,0x3C,0x40,Write,ACK
6.126249187500000,427,0x3C,0x60,Write,ACK
6.126299875000000,428,0x3C,0x40,Write,ACK
6.126322437500000,428,0x3C,0x70,Write,ACK
6.126373187500000,429,0x3C,0x40,Write,ACK
6.126395750000000,429,0x3C,0x00,Write,ACK
6.126446437500000,430,0x3C,0x40,Write,ACK
6.126469000000000,430,0x3C,0x00,Write,ACK
6.126519687500000,431,0x3C,0x40,Write,ACK
6.126542312500000,431,0x3C,0x07,Write,ACK
6.126593000000000,432,0x3C,0x40,Write,ACK
6.126615562500000,432,0x3C,0x1F,Write,ACK
6.126663750000000,433,0x1E,0x20,Write,ACK
6.126686250000000,433,0x1E,0x1C,Write,ACK
6.126739500000000,434,0x3C,0x40,Write,ACK
6.126762125000000,434,0x3C,0x70,Write,ACK
6.126812812500000,435,0x3C,0x40,Write,ACK
6.126835375000000,435,0x3C,0x60,Write,ACK
6.126886062500000,436,0x3C,0x40,Write,ACK
6.126908625000000,436,0x3C,0xC0,Write,ACK
6.126959375000000,437,0x3C,0x40,Write,ACK
6.126981937500000,437,0x3C,0xC0,Write,ACK
6.127032625000000,438,0x3C,0x40,Write,ACK
6.127055187500000,438,0x3C,0xC0,Write,ACK
6.127105875000000,439,0x3C,0x40,Write,ACK
6.127128437500000,439,0x3C,0xC0,Write,ACK
6.127179187500000,440,0x3C,0x40,Write,ACK
6.127201750000000,440,0x3C,0xC0,Write,ACK
6.127252437500000,441,0x3C,0x40,Write,ACK
6.127275000000000,441,0x3C,0xE0,Write,ACK
6.127325687500000,442,0x3C,0x40,Write,ACK
6.127348250000000,442,0x3C,0x70,Write,ACK
6.127399000000000,443,0x3C,0x40,Write,ACK
6.127421562500000,443,0x3C,0x38,Write,ACK
6.127472250000000,444,0x3C,0x40,Write,ACK
6.127494812500000,444,0x3C,0x1F,Write,ACK
6.127545500000000,445,0x3C,0x40,Write,ACK
6.127568125000000,445,0x3C,0x07,Write,ACK
6.127618812500000,446,0x3C,0x40,Write,ACK
6.127641375000000,446,0x3C,0x00,Write,ACK
6.127689562500000,447,0x1E,0x20,Write,ACK
6.127712062500000,447,0x1E,0x00,Write,ACK
6.127765375000000,448,0x3C,0x40,Write,ACK
6.127787937500000,448,0x3C,0x00,Write,ACK
6.127838625000000,449,0x3C,0x40,Write,ACK
6.127861187500000,449,0x3C,0xFF,Write,ACK
6.127911875000000,450,0x3C,0x40,Write,ACK
6.127934437500000,450,0x3C,0xFF,Write,ACK
6.127985187500000,451,0x3C,0x40,Write,ACK
6.128007750000000,451,0x3C,0x00,Write,ACK
6.128058437500000,452,0x3C,0x40,Write,ACK
6.128081000000000,452,0x3C,0x00,Write,ACK
6.128131687500000,453,0x3C,0x40,Write,ACK
6.128154250000000,453,0x3C,0x00,Write,ACK
6.128205000000000,454,0x3C,0x40,Write,ACK
6.128227562500000,454,0x3C,0x03,Write,ACK
6.128278250000000,455,0x3C,0x40,Write,ACK
6.128300812500000,455,0x3C,0x0F,Write,ACK
6.128351500000000,456,0x3C,0x40,Write,ACK
6.128374062500000,456,0x3C,0x0F,Write,ACK
6.128424812500000,457,0x3C,0x40,Write,ACK
6.128447375000000,457,0x3C,0x03,Write,ACK
6.128498062500000,458,0x3C,0x40,Write,ACK
6.128520625000000,458,0x3C,0x00,Write,ACK
6.128571312500000,459,0x3C,0x40,Write,ACK
6.128593937500000,459,0x3C,0x00,Write,ACK
6.128644625000000,460,0x3C,0x40,Write,ACK
6.128667187500000,460,0x3C,0x00,Write,ACK
6.128715375000000,461,0x1E,0x20,Write,ACK
6.128737875000000,461,0x1E,0x7F,Write,NAK
6.128791125000000,462,0x3C,0x40,Write,ACK
6.128813750000000,462,0x3C,0xFF,Write,ACK
6.128864437500000,463,0x3C,0x40,Write,ACK
6.128887000000000,463,0x3C,0x00,Write,ACK
6.128935187500000,464,0x1E,0x20,Write,ACK
6.128957687500000,464,0x1E,0x00,Write,ACK
6.129011000000000,465,0x3C,0x40,Write,ACK
6.129033562500000,465,0x3C,0x00,Write,ACK
6.129084250000000,466,0x3C,0x40,Write,ACK
6.129106812500000,466,0x3C,0x00,Write,ACK
6.129157500000000,467,0x3C,0x40,Write,ACK
6.129180062500000,467,0x3C,0xFF,Write,ACK
6.129230812500000,468,0x3C,0x40,Write,ACK
6.129253375000000,468,0x3C,0xFF,Write,ACK
6.129304062500000,469,0x3C,0x40,Write,ACK
6.129326625000000,469,0x3C,0xC0,Write,ACK
6.129377312500000,470,0x3C,0x40,Write,ACK
6.129399875000000,470,0x3C,0xC0,Write,ACK
6.129450625000000,471,0x3C,0x40,Write,ACK
6.129473187500000,471,0x3C,0xC0,Write,ACK
6.129523875000000,472,0x3C,0x40,Write,ACK
6.129546437500000,472,0x3C,0xC0,Write,ACK
6.129597125000000,473,0x3C,0x40,Write,ACK
6.129619687500000,473,0x3C,0xC0,Write,ACK
6.129670437500000,474,0x3C,0x40,Write,ACK
6.129693000000000,474,0x3C,0xC0,Write,ACK
6.129741187500000,475,0x1E,0x20,Write,ACK
6.129763687500000,475,0x1E,0x60,Write,ACK
6.129816937500000,476,0x3C,0x40,Write,ACK
6.129839562500000,476,0x3C,0xC0,Write,ACK
6.129890250000000,477,0x3C,0x40,Write,ACK
6.129912812500000,477,0x3C,0x00,Write,ACK
6.129961000000000,478,0x1E,0x20,Write,ACK
6.129983500000000,478,0x1E,0x00,Write,ACK
6.130036812500000,479,0x3C,0x40,Write,ACK
6.130059375000000,479,0x3C,0x00,Write,ACK
6.130110062500000,480,0x3C,0x40,Write,ACK
6.130132625000000,480,0x3C,0x00,Write,ACK
6.130183312500000,481,0x3C,0x40,Write,ACK
6.130205875000000,481,0x3C,0x00,Write,ACK
6.130256625000000,482,0x3C,0x40,Write,ACK
6.130279187500000,482,0x3C,0x00,Write,ACK
6.130329875000000,483,0x3C,0x40,Write,ACK
6.130352437500000,483,0x3C,0x00,Write,ACK
6.130403125000000,484,0x3C,0x40,Write,ACK
6.130425687500000,484,0x3C,0x00,Write,ACK
6.130476437500000,485,0x3C,0x40,Write,ACK
6.130499000000000,485,0x3C,0x00,Write,ACK
6.130549687500000,486,0x3C,0x40,Write,ACK
6.130572250000000,486,0x3C,0x00,Write,ACK
6.130623250000000,487,0x3C,0x00,Write,ACK
6.130645812500000,487,0x3C,0xB3,Write,ACK
6.130696125000000,488,0x3C,0x00,Write,ACK
6.130718687500000,488,0x3C,0x10,Write,ACK
6.130768937500000,489,0x3C,0x00,Write,ACK
6.130791500000000,489,0x3C,0x00,Write,ACK
6.130842000000000,490,0x3C,0x40,Write,ACK
6.130864625000000,490,0x3C,0x00,Write,ACK
6.130915312500000,491,0x3C,0x40,Write,ACK
6.130937875000000,491,0x3C,0x00,Write,ACK
6.130986062500000,492,0x1E,0x20,Write,ACK
6.131008562500000,492,0x1E,0x00,Write,ACK
6.131061875000000,493,0x3C,0x40,Write,ACK
6.131084437500000,493,0x3C,0x00,Write,ACK
6.131135125000000,494,0x3C,0x40,Write,ACK
6.131157687500000,494,0x3C,0x00,Write,ACK
6.131208375000000,495,0x3C,0x40,Write,ACK
6.131230937500000,495,0x3C,0x00,Write,ACK
6.131281687500000,496,0x3C,0x40,Write,ACK
6.131304250000000,496,0x3C,0x00,Write,ACK
6.131354937500000,497,0x3C,0x40,Write,ACK
6.131377500000000,497,0x3C,0x00,Write,ACK
6.131428187500000,498,0x3C,0x40,Write,ACK
6.131450750000000,498,0x3C,0x00,Write,ACK
6.131501500000000,499,0x3C,0x40,Write,ACK
6.131524062500000,499,0x3C,0x00,Write,ACK
6.131574750000000,500,0x3C,0x40,Write,ACK
6.131597312500000,500,0x3C,0x00,Write,ACK
6.131648000000000,501,0x3C,0x40,Write,ACK
6.131670562500000,501,0x3C,0x00,Write,ACK
6.131721312500000,502,0x3C,0x40,Write,ACK
6.131743875000000,502,0x3C,0x00,Write,ACK
6.131794562500000,503,0x3C,0x40,Write,ACK
6.131817125000000,503,0x3C,0x00,Write,ACK
6.131867812500000,504,0x3C,0x40,Write,ACK
6.131890437500000,504,0x3C,0x00,Write,ACK
6.131941125000000,505,0x3C,0x40,Write,ACK
6.131963687500000,505,0x3C,0x00,Write,ACK
6.132011875000000,506,0x1E,0x20,Write,ACK
6.132034375000000,506,0x1E,0x00,Write,ACK
6.132087687500000,507,0x3C,0x40,Write,ACK
6.132110250000000,507,0x3C,0x00,Write,ACK
6.132160937500000,508,0x3C,0x40,Write,ACK
6.132183500000000,508,0x3C,0x00,Write,ACK
6.132234187500000,509,0x3C,0x40,Write,ACK
6.132256750000000,509,0x3C,0x00,Write,ACK
6.132307500000000,510,0x3C,0x40,Write,ACK
6.132330062500000,510,0x3C,0x00,Write,ACK
6.132380750000000,511,0x3C,0x40,Write,ACK
6.132403312500000,511,0x3C,0x00,Write,ACK
6.132454000000000,512,0x3C,0x40,Write,ACK
6.132476562500000,512,0x3C,0x00,Write,ACK
6.132527312500000,513,0x3C,0x40,Write,ACK
6.132549875000000,513,0x3C,0x00,Write,ACK
6.132600562500000,514,0x3C,0x40,Write,ACK
6.132623125000000,514,0x3C,0x00,Write,ACK
6.132673812500000,515,0x3C,0x40,Write,ACK
6.132696375000000,515,0x3C,0x00,Write,ACK
6.132747125000000,516,0x3C,0x40,Write,ACK
6.132769687500000,516,0x3C,0x00,Write,ACK
6.132820375000000,517,0x3C,0x40,Write,ACK
6.132842937500000,517,0x3C,0x00,Write,ACK
6.132893625000000,518,0x3C,0x40,Write,ACK
6.132916250000000,518,0x3C,0x00,Write,ACK
6.132966937500000,519,0x3C,0x40,Write,ACK
6.132989500000000,519,0x3C,0x00,Write,ACK
6.133037687500000,520,0x1E,0x20,Write,ACK
6.133060187500000,520,0x1E,0x00,Write,ACK
6.133113500000000,521,0x3C,0x40,Write,ACK
6.133136062500000,521,0x3C,0x00,Write,ACK
6.133186750000000,522,0x3C,0x40,Write,ACK
6.133209312500000,522,0x3C,0x00,Write,ACK
6.133260000000000,523,0x3C,0x40,Write,ACK
6.133282562500000,523,0x3C,0x00,Write,ACK
6.133333312500000,524,0x3C,0x40,Write,ACK
6.133355875000000,524,0x3C,0x00,Write,ACK
6.133406562500000,525,0x3C,0x40,Write,ACK
6.133429125000000,525,0x3C,0x00,Write,ACK
6.133479812500000,526,0x3C,0x40,Write,ACK
6.133502375000000,526,0x3C,0x00,Write,ACK
6.133553125000000,527,0x3C,0x40,Write,ACK
6.133575687500000,527,0x3C,0x00,Write,ACK
6.133626375000000,528,0x3C,0x40,Write,ACK
6.133648937500000,528,0x3C,0x00,Write,ACK
6.133699625000000,529,0x3C,0x40,Write,ACK
6.133722187500000,529,0x3C,0x00,Write,ACK
6.133772937500000,530,0x3C,0x40,Write,ACK
6.133795500000000,530,0x3C,0x00,Write,ACK
6.133846187500000,531,0x3C,0x40,Write,ACK
6.133868750000000,531,0x3C,0x00,Write,ACK
6.133919437500000,532,0x3C,0x40,Write,ACK
6.133942062500000,532,0x3C,0x00,Write,ACK
6.133992750000000,533,0x3C,0x40,Write,ACK
6.134015312500000,533,0x3C,0x00,Write,ACK
6.134063500000000,534,0x1E,0x20,Write,ACK
6.134086000000000,534,0x1E,0x00,Write,ACK
6.134139250000000,535,0x3C,0x40,Write,ACK
6.134161875000000,535,0x3C,0x00,Write,ACK
6.134212562500000,536,0x3C,0x40,Write,ACK
6.134235125000000,536,0x3C,0x00,Write,ACK
6.134283312500000,537,0x1E,0x20,Write,ACK
6.134305812500000,537,0x1E,0x00,Write,ACK
6.134359125000000,538,0x3C,0x40,Write,ACK
6.134381687500000,538,0x3C,0x00,Write,ACK
6.134432375000000,539,0x3C,0x40,Write,ACK
6.134454937500000,539,0x3C,0x00,Write,ACK
6.134505625000000,540,0x3C,0x40,Write,ACK
6.134528187500000,540,0x3C,0x00,Write,ACK
6.134578937500000,541,0x3C,0x40,Write,ACK
6.134601500000000,541,0x3C,0x00,Write,ACK
6.134652187500000,542,0x3C,0x40,Write,ACK
6.134674750000000,542,0x3C,0x00,Write,ACK
6.134725437500000,543,0x3C,0x40,Write,ACK
6.134748000000000,543,0x3C,0x00,Write,ACK
6.134798750000000,544,0x3C,0x40,Write,ACK
6.134821312500000,544,0x3C,0x00,Write,ACK
6.134872000000000,545,0x3C,0x40,Write,ACK
6.134894562500000,545,0x3C,0x00,Write,ACK
6.134945250000000,546,0x3C,0x40,Write,ACK
6.134967875000000,546,0x3C,0x00,Write,ACK
6.135018562500000,547,0x3C,0x40,Write,ACK
6.135041125000000,547,0x3C,0x00,Write,ACK
6.135089312500000,548,0x1E,0x20,Write,ACK
6.135111812500000,548,0x1E,0x00,Write,ACK
6.135165062500000,549,0x3C,0x40,Write,ACK
6.135187687500000,549,0x3C,0x00,Write,ACK
6.135238375000000,550,0x3C,0x40,Write,ACK
6.135260937500000,550,0x3C,0x00,Write,ACK
6.135309125000000,551,0x1E,0x20,Write,ACK
6.135331625000000,551,0x1E,0x00,Write,ACK
6.135384937500000,552,0x3C,0x40,Write,ACK
6.135407500000000,552,0x3C,0x00,Write,ACK
6.135458187500000,553,0x3C,0x40,Write,ACK
6.135480750000000,553,0x3C,0x00,Write,ACK
6.135531437500000,554,0x3C,0x40,Write,ACK
6.135554000000000,554,0x3C,0x00,Write,ACK
6.135604750000000,555,0x3C,0x40,Write,ACK
6.135627312500000,555,0x3C,0x00,Write,ACK
6.135678000000000,556,0x3C,0x40,Write,ACK
6.135700562500000,556,0x3C,0x00,Write,ACK
6.135751250000000,557,0x3C,0x40,Write,ACK
6.135773812500000,557,0x3C,0x00,Write,ACK
6.135824562500000,558,0x3C,0x40,Write,ACK
6.135847125000000,558,0x3C,0x00,Write,ACK
6.135897812500000,559,0x3C,0x40,Write,ACK
6.135920375000000,559,0x3C,0x00,Write,ACK
6.135971062500000,560,0x3C,0x40,Write,ACK
6.135993687500000,560,0x3C,0x00,Write,ACK
6.136044375000000,561,0x3C,0x40,Write,ACK
6.136066937500000,561,0x3C,0x00,Write,ACK
6.136115125000000,562,0x1E,0x20,Write,ACK
6.136137625000000,562,0x1E,0x00,Write,ACK
6.136190875000000,563,0x3C,0x40,Write,ACK
6.136213500000000,563,0x3C,0x00,Write,ACK
6.136264187500000,564,0x3C,0x40,Write,ACK
6.136286750000000,564,0x3C,0x00,Write,ACK
6.136334937500000,565,0x1E,0x20,Write,ACK
6.136357437500000,565,0x1E,0x00,Write,ACK
6.136410750000000,566,0x3C,0x40,Write,ACK
6.136433312500000,566,0x3C,0x00,Write,ACK
6.136484000000000,567,0x3C,0x40,Write,ACK
6.136506562500000,567,0x3C,0x00,Write,ACK
6.136557250000000,568,0x3C,0x40,Write,ACK
6.136579812500000,568,0x3C,0x00,Write,ACK
6.136630562500000,569,0x3C,0x40,Write,ACK
6.136653125000000,569,0x3C,0x00,Write,ACK
6.136703812500000,570,0x3C,0x40,Write,ACK
6.136726375000000,570,0x3C,0x00,Write,ACK
6.136777062500000,571,0x3C,0x40,Write,ACK
6.136799625000000,571,0x3C,0x00,Write,ACK
6.136850375000000,572,0x3C,0x40,Write,ACK
6.136872937500000,572,0x3C,0x00,Write,ACK
6.136923625000000,573,0x3C,0x40,Write,ACK
6.136946187500000,573,0x3C,0x00,Write,ACK
6.136996875000000,574,0x3C,0x40,Write,ACK
6.137019437500000,574,0x3C,0x00,Write,ACK
6.137070187500000,575,0x3C,0x40,Write,ACK
6.137092750000000,575,0x3C,0x00,Write,ACK
6.137143437500000,576,0x3C,0x40,Write,ACK
6.137166000000000,576,0x3C,0x00,Write,ACK
6.137216687500000,577,0x3C,0x40,Write,ACK
6.137239312500000,577,0x3C,0x00,Write,ACK
6.137290000000000,578,0x3C,0x40,Write,ACK
6.137312562500000,578,0x3C,0x00,Write,ACK
6.137360750000000,579,0x1E,0x20,Write,ACK
6.137383250000000,579,0x1E,0x00,Write,ACK
6.137436562500000,580,0x3C,0x40,Write,ACK
6.137459125000000,580,0x3C,0x00,Write,ACK
6.137509812500000,581,0x3C,0x40,Write,ACK
6.137532375000000,581,0x3C,0x00,Write,ACK
6.137583062500000,582,0x3C,0x40,Write,ACK
6.137605625000000,582,0x3C,0x00,Write,ACK
6.137656375000000,583,0x3C,0x40,Write,ACK
6.137678937500000,583,0x3C,0x00,Write,ACK
6.137729625000000,584,0x3C,0x40,Write,ACK
6.137752187500000,584,0x3C,0x00,Write,ACK
6.137802875000000,585,0x3C,0x40,Write,ACK
6.137825437500000,585,0x3C,0x00,Write,ACK
6.137876187500000,586,0x3C,0x40,Write,ACK
6.137898750000000,586,0x3C,0x00,Write,ACK
6.137949437500000,587,0x3C,0x40,Write,ACK
6.137972000000000,587,0x3C,0x00,Write,ACK
6.138022687500000,588,0x3C,0x40,Write,ACK
6.138045250000000,588,0x3C,0x00,Write,ACK
6.138096000000000,589,0x3C,0x40,Write,ACK
6.138118562500000,589,0x3C,0x00,Write,ACK
6.138169250000000,590,0x3C,0x40,Write,ACK
6.138191812500000,590,0x3C,0x00,Write,ACK
6.138242500000000,591,0x3C,0x40,Write,ACK
6.138265125000000,591,0x3C,0x00,Write,ACK
6.138315812500000,592,0x3C,0x40,Write,ACK
6.138338375000000,592,0x3C,0x00,Write,ACK
6.138386562500000,593,0x1E,0x20,Write,ACK
6.138409062500000,593,0x1E,0x00,Write,ACK
6.138462375000000,594,0x3C,0x40,Write,ACK
6.138484937500000,594,0x3C,0x00,Write,ACK
6.138535625000000,595,0x3C,0x40,Write,ACK
6.138558187500000,595,0x3C,0x00,Write,ACK
6.138608875000000,596,0x3C,0x40,Write,ACK
6.138631437500000,596,0x3C,0x00,Write,ACK
6.138682187500000,597,0x3C,0x40,Write,ACK
6.138704750000000,597,0x3C,0x00,Write,ACK
6.138755437500000,598,0x3C,0x40,Write,ACK
6.138778000000000,598,0x3C,0x00,Write,ACK
6.138828687500000,599,0x3C,0x40,Write,ACK
6.138851250000000,599,0x3C,0x00,Write,ACK
6.138902000000000,600,0x3C,0x40,Write,ACK
6.138924562500000,600,0x3C,0x00,Write,ACK
6.138975250000000,601,0x3C,0x40,Write,ACK
6.138997812500000,601,0x3C,0x00,Write,ACK
6.139048500000000,602,0x3C,0x40,Write,ACK
6.139071062500000,602,0x3C,0x00,Write,ACK
6.139121812500000,603,0x3C,0x40,Write,ACK
6.139144375000000,603,0x3C,0x00,Write,ACK
6.139195062500000,604,0x3C,0x40,Write,ACK
6.139217625000000,604,0x3C,0x00,Write,ACK
6.139268312500000,605,0x3C,0x40,Write,ACK
6.139290937500000,605,0x3C,0x00,Write,ACK
6.139341625000000,606,0x3C,0x40,Write,ACK
6.139364187500000,606,0x3C,0x00,Write,ACK
6.139412375000000,607,0x1E,0x20,Write,ACK
6.139434875000000,607,0x1E,0x00,Write,ACK
6.139488187500000,608,0x3C,0x40,Write,ACK
6.139510750000000,608,0x3C,0x00,Write,ACK
6.139561437500000,609,0x3C,0x40,Write,ACK
6.139584000000000,609,0x3C,0x00,Write,ACK
6.139634687500000,610,0x3C,0x40,Write,ACK
6.139657250000000,610,0x3C,0x00,Write,ACK
6.139708000000000,611,0x3C,0x40,Write,ACK
6.139730562500000,611,0x3C,0x00,Write,ACK
6.139781250000000,612,0x3C,0x40,Write,ACK
6.139803812500000,612,0x3C,0x00,Write,ACK
6.139854500000000,613,0x3C,0x40,Write,ACK
6.139877062500000,613,0x3C,0x00,Write,ACK
6.139927812500000,614,0x3C,0x40,Write,ACK
6.139950375000000,614,0x3C,0x00,Write,ACK
6.140001062500000,615,0x3C,0x40,Write,ACK
6.140023625000000,615,0x3C,0x00,Write,ACK
6.140074312500000,616,0x3C,0x40,Write,ACK
6.140096875000000,616,0x3C,0x00,Write,ACK
6.140147625000000,617,0x3C,0x40,Write,ACK
6.140170187500000,617,0x3C,0x00,Write,ACK
6.180683250000000,618,0x3C,0x00,Write,ACK
6.180705812500000,618,0x3C,0xB0,Write,ACK
6.180753562500000,619,0x1E,0x00,Write,ACK
6.180776062500000,619,0x1E,0x08,Write,ACK
6.180828937500000,620,0x3C,0x00,Write,ACK
6.180851500000000,620,0x3C,0x00,Write,ACK
6.180902000000000,621,0x3C,0x40,Write,ACK
6.180924562500000,621,0x3C,0x00,Write,ACK
6.180975250000000,622,0x3C,0x40,Write,ACK
6.180997812500000,622,0x3C,0x00,Write,ACK
6.181048562500000,623,0x3C,0x40,Write,ACK
6.181071125000000,623,0x3C,0x00,Write,ACK
6.181121812500000,624,0x3C,0x40,Write,ACK
6.181144375000000,624,0x3C,0x00,Write,ACK
6.181195062500000,625,0x3C,0x40,Write,ACK
6.181217625000000,625,0x3C,0x00,Write,ACK
6.181268375000000,626,0x3C,0x40,Write,ACK
6.181290937500000,626,0x3C,0x00,Write,ACK
6.181341625000000,627,0x3C,0x40,Write,ACK
6.181364187500000,627,0x3C,0x00,Write,ACK
6.181414875000000,628,0x3C,0x40,Write,ACK
6.181437437500000,628,0x3C,0x00,Write,ACK
6.181488187500000,629,0x3C,0x40,Write,ACK
6.181510750000000,629,0x3C,0x00,Write,ACK
6.181561437500000,630,0x3C,0x40,Write,ACK
6.181584000000000,630,0x3C,0x00,Write,ACK
6.181634687500000,631,0x3C,0x40,Write,ACK
6.181657312500000,631,0x3C,0x00,Write,ACK
6.181708000000000,632,0x3C,0x40,Write,ACK
6.181730562500000,632,0x3C,0x00,Write,ACK
6.181778750000000,633,0x1E,0x20,Write,ACK
6.181801250000000,633,0x1E,0x00,Write,ACK
6.181854500000000,634,0x3C,0x40,Write,ACK
6.181877125000000,634,0x3C,0x00,Write,ACK
6.181927812500000,635,0x3C,0x40,Write,ACK
6.181950375000000,635,0x3C,0x00,Write,ACK
6.182001062500000,636,0x3C,0x40,Write,ACK
6.182023625000000,636,0x3C,0x00,Write,ACK
6.182074375000000,637,0x3C,0x40,Write,ACK
6.182096937500000,637,0x3C,0x00,Write,ACK
6.182147625000000,638,0x3C,0x40,Write,ACK
6.182170187500000,638,0x3C,0x00,Write,ACK
6.182220875000000,639,0x3C,0x40,Write,ACK
6.182243437500000,639,0x3C,0x00,Write,ACK
6.182294187500000,640,0x3C,0x40,Write,ACK
6.182316750000000,640,0x3C,0x00,Write,ACK
6.182367437500000,641,0x3C,0x40,Write,ACK
6.182390000000000,641,0x3C,0x00,Write,ACK
6.182440687500000,642,0x3C,0x40,Write,ACK
6.182463250000000,642,0x3C,0x00,Write,ACK
6.182514000000000,643,0x3C,0x40,Write,ACK
6.182536562500000,643,0x3C,0x00,Write,ACK
6.182587250000000,644,0x3C,0x40,Write,ACK
6.182609812500000,644,0x3C,0x00,Write,ACK
6.182660500000000,645,0x3C,0x40,Write,ACK
6.182683125000000,645,0x3C,0x00,Write,ACK
6.182733812500000,646,0x3C,0x40,Write,ACK
6.182756375000000,646,0x3C,0x00,Write,ACK
6.182804562500000,647,0x1E,0x20,Write,ACK
6.182827062500000,647,0x1E,0x00,Write,ACK
6.182880312500000,648,0x3C,0x40,Write,ACK
6.182902937500000,648,0x3C,0x00,Write,ACK
6.182953625000000,649,0x3C,0x40,Write,ACK
6.182976187500000,649,0x3C,0x00,Write,ACK
6.183026875000000,650,0x3C,0x40,Write,ACK
6.183049437500000,650,0x3C,0x00,Write,ACK
6.183100187500000,651,0x3C,0x40,Write,ACK
6.183122750000000,651,0x3C,0x00,Write,ACK
6.183173437500000,652,0x3C,0x40,Write,ACK
6.183196000000000,652,0x3C,0x00,Write,ACK
6.183246687500000,653,0x3C,0x40,Write,ACK
6.183269250000000,653,0x3C,0x00,Write,ACK
6.183320000000000,654,0x3C,0x40,Write,ACK
6.183342562500000,654,0x3C,0x00,Write,ACK
6.183393250000000,655,0x3C,0x40,Write,ACK
6.183415812500000,655,0x3C,0x00,Write,ACK
6.183466500000000,656,0x3C,0x40,Write,ACK
6.183489062500000,656,0x3C,0x00,Write,ACK
6.183539812500000,657,0x3C,0x40,Write,ACK
6.183562375000000,657,0x3C,0x00,Write,ACK
6.183613062500000,658,0x3C,0x40,Write,ACK
6.183635625000000,658,0x3C,0x00,Write,ACK
6.183686312500000,659,0x3C,0x40,Write,ACK
6.183708937500000,659,0x3C,0x00,Write,ACK
6.183759625000000,660,0x3C,0x40,Write,ACK
6.183782187500000,660,0x3C,0x00,Write,ACK
6.183830375000000,661,0x1E,0x20,Write,ACK
6.183852875000000,661,0x1E,0x00,Write,ACK
6.183906125000000,662,0x3C,0x40,Write,ACK
6.183928750000000,662,0x3C,0x00,Write,ACK
6.183979437500000,663,0x3C,0x40,Write,ACK
6.184002000000000,663,0x3C,0x00,Write,ACK
6.184050187500000,664,0x1E,0x20,Write,ACK
6.184072687500000,664,0x1E,0x00,Write,ACK
6.184126000000000,665,0x3C,0x40,Write,ACK
6.184148562500000,665,0x3C,0x00,Write,ACK
6.184199250000000,666,0x3C,0x40,Write,ACK
6.184221812500000,666,0x3C,0x00,Write,ACK
6.184272500000000,667,0x3C,0x40,Write,ACK
6.184295062500000,667,0x3C,0x00,Write,ACK
6.184345812500000,668,0x3C,0x40,Write,ACK
6.184368375000000,668,0x3C,0x00,Write,ACK
6.184419062500000,669,0x3C,0x40,Write,ACK
6.184441625000000,669,0x3C,0x00,Write,ACK
6.184492312500000,670,0x3C,0x40,Write,ACK
6.184514875000000,670,0x3C,0x00,Write,ACK
6.184565625000000,671,0x3C,0x40,Write,ACK
6.184588187500000,671,0x3C,0x00,Write,ACK
6.184638875000000,672,0x3C,0x40,Write,ACK
6.184661437500000,672,0x3C,0x00,Write,ACK
6.184712125000000,673,0x3C,0x40,Write,ACK
6.184734750000000,673,0x3C,0x00,Write,ACK
6.184785437500000,674,0x3C,0x40,Write,ACK
6.184808000000000,674,0x3C,0x00,Write,ACK
6.184856187500000,675,0x1E,0x20,Write,ACK
6.184878687500000,675,0x1E,0x00,Write,ACK
6.184931937500000,676,0x3C,0x40,Write,ACK
6.184954562500000,676,0x3C,0x00,Write,ACK
6.185005250000000,677,0x3C,0x40,Write,ACK
6.185027812500000,677,0x3C,0x00,Write,ACK
6.185076000000000,678,0x1E,0x20,Write,ACK
6.185098500000000,678,0x1E,0x00,Write,ACK
6.185151812500000,679,0x3C,0x40,Write,ACK
6.185174375000000,679,0x3C,0x00,Write,ACK
6.185225062500000,680,0x3C,0x40,Write,ACK
6.185247625000000,680,0x3C,0x00,Write,ACK
6.185298312500000,681,0x3C,0x40,Write,ACK
6.185320875000000,681,0x3C,0x00,Write,ACK
6.185371625000000,682,0x3C,0x40,Write,ACK
6.185394187500000,682,0x3C,0x00,Write,ACK
6.185444875000000,683,0x3C,0x40,Write,ACK
6.185467437500000,683,0x3C,0x00,Write,ACK
6.185518125000000,684,0x3C,0x40,Write,ACK
6.185540687500000,684,0x3C,0x00,Write,ACK
6.185591437500000,685,0x3C,0x40,Write,ACK
6.185614000000000,685,0x3C,0x00,Write,ACK
6.185664687500000,686,0x3C,0x40,Write,ACK
6.185687250000000,686,0x3C,0x00,Write,ACK
6.185737937500000,687,0x3C,0x40,Write,ACK
6.185760562500000,687,0x3C,0x00,Write,ACK
6.185811250000000,688,0x3C,0x40,Write,ACK
6.185833812500000,688,0x3C,0x00,Write,ACK
6.185882000000000,689,0x1E,0x20,Write,ACK
6.185904500000000,689,0x1E,0x00,Write,ACK
6.185957750000000,690,0x3C,0x40,Write,ACK
6.185980375000000,690,0x3C,0x00,Write,ACK
6.186031062500000,691,0x3C,0x40,Write,ACK
6.186053625000000,691,0x3C,0x00,Write,ACK
6.186101812500000,692,0x1E,0x20,Write,ACK
6.186124312500000,692,0x1E,0x00,Write,ACK
6.186177625000000,693,0x3C,0x40,Write,ACK
6.186200187500000,693,0x3C,0x00,Write,ACK
6.186250875000000,694,0x3C,0x40,Write,ACK
6.186273437500000,694,0x3C,0x00,Write,ACK
6.186324125000000,695,0x3C,0x40,Write,ACK
6.186346687500000,695,0x3C,0x00,Write,ACK
6.186397437500000,696,0x3C,0x40,Write,ACK
6.186420000000000,696,0x3C,0x00,Write,ACK
6.186470687500000,697,0x3C,0x40,Write,ACK
6.186493250000000,697,0x3C,0x00,Write,ACK
6.186543937500000,698,0x3C,0x40,Write,ACK
6.186566500000000,698,0x3C,0x00,Write,ACK
6.186617250000000,699,0x3C,0x40,Write,ACK
6.186639812500000,699,0x3C,0x00,Write,ACK
6.186690500000000,700,0x3C,0x40,Write,ACK
6.186713062500000,700,0x3C,0x00,Write,ACK
6.186763750000000,701,0x3C,0x40,Write,ACK
6.186786312500000,701,0x3C,0x00,Write,ACK
6.186837062500000,702,0x3C,0x40,Write,ACK
6.186859625000000,702,0x3C,0x00,Write,ACK
6.186910312500000,703,0x3C,0x40,Write,ACK
6.186932875000000,703,0x3C,0x00,Write,ACK
6.186983562500000,704,0x3C,0x40,Write,ACK
6.187006187500000,704,0x3C,0x00,Write,ACK
6.187056875000000,705,0x3C,0x40,Write,ACK
6.187079437500000,705,0x3C,0x00,Write,ACK
6.187127625000000,706,0x1E,0x20,Write,ACK
6.187150125000000,706,0x1E,0x00,Write,ACK
6.187203437500000,707,0x3C,0x40,Write,ACK
6.187226000000000,707,0x3C,0x00,Write,ACK
6.187276687500000,708,0x3C,0x40,Write,ACK
6.187299250000000,708,0x3C,0x00,Write,ACK
6.187349937500000,709,0x3C,0x40,Write,ACK
6.187372500000000,709,0x3C,0x00,Write,ACK
6.187423250000000,710,0x3C,0x40,Write,ACK
6.187445812500000,710,0x3C,0x00,Write,ACK
6.187496500000000,711,0x3C,0x40,Write,ACK
6.187519062500000,711,0x3C,0x00,Write,ACK
6.187569750000000,712,0x3C,0x40,Write,ACK
6.187592312500000,712,0x3C,0x00,Write,ACK
6.187643062500000,713,0x3C,0x40,Write,ACK
6.187665625000000,713,0x3C,0x00,Write,ACK
6.187716312500000,714,0x3C,0x40,Write,ACK
6.187738875000000,714,0x3C,0x00,Write,ACK
6.187789562500000,715,0x3C,0x40,Write,ACK
6.187812125000000,715,0x3C,0x00,Write,ACK
6.187862875000000,716,0x3C,0x40,Write,ACK
6.187885437500000,716,0x3C,0x00,Write,ACK
6.187936125000000,717,0x3C,0x40,Write,ACK
6.187958687500000,717,0x3C,0x00,Write,ACK
6.188009375000000,718,0x3C,0x40,Write,ACK
6.188032000000000,718,0x3C,0x00,Write,ACK
6.188082687500000,719,0x3C,0x40,Write,ACK
6.188105250000000,719,0x3C,0x00,Write,ACK
6.188153437500000,720,0x1E,0x20,Write,ACK
6.188175937500000,720,0x1E,0x00,Write,ACK
6.188229250000000,721,0x3C,0x40,Write,ACK
6.188251812500000,721,0x3C,0x00,Write,ACK
6.188302500000000,722,0x3C,0x40,Write,ACK
6.188325062500000,722,0x3C,0x00,Write,ACK
6.188375750000000,723,0x3C,0x40,Write,ACK
6.188398312500000,723,0x3C,0x00,Write,ACK
6.188449062500000,724,0x3C,0x40,Write,ACK
6.188471625000000,724,0x3C,0x00,Write,ACK
6.188522312500000,725,0x3C,0x40,Write,ACK
6.188544875000000,725,0x3C,0x00,Write,ACK
6.188595562500000,726,0x3C,0x40,Write,ACK
6.188618125000000,726,0x3C,0x00,Write,ACK
6.188668875000000,727,0x3C,0x40,Write,ACK
6.188691437500000,727,0x3C,0x00,Write,ACK
6.188742125000000,728,0x3C,0x40,Write,ACK
6.188764687500000,728,0x3C,0x00,Write,ACK
6.188815375000000,729,0x3C,0x40,Write,ACK
6.188838000000000,729,0x3C,0x00,Write,ACK
6.188888687500000,730,0x3C,0x40,Write,ACK
6.188911250000000,730,0x3C,0x00,Write,ACK
6.188961937500000,731,0x3C,0x40,Write,ACK
6.188984500000000,731,0x3C,0x00,Write,ACK
6.189035187500000,732,0x3C,0x40,Write,ACK
6.189057812500000,732,0x3C,0x00,Write,ACK
6.189108500000000,733,0x3C,0x40,Write,ACK
6.189131062500000,733,0x3C,0x00,Write,ACK
6.189179250000000,734,0x1E,0x20,Write,ACK
6.189201750000000,734,0x1E,0x00,Write,ACK
6.189255062500000,735,0x3C,0x40,Write,ACK
6.189277625000000,735,0x3C,0x00,Write,ACK
6.189328312500000,736,0x3C,0x40,Write,ACK
6.189350875000000,736,0x3C,0x00,Write,ACK
6.189401562500000,737,0x3C,0x40,Write,ACK
6.189424125000000,737,0x3C,0x00,Write,ACK
6.189474875000000,738,0x3C,0x40,Write,ACK
6.189497437500000,738,0x3C,0x00,Write,ACK
6.189548125000000,739,0x3C,0x40,Write,ACK
6.189570687500000,739,0x3C,0x00,Write,ACK
6.189621375000000,740,0x3C,0x40,Write,ACK
6.189643937500000,740,0x3C,0x00,Write,ACK
6.189694687500000,741,0x3C,0x40,Write,ACK
6.189717250000000,741,0x3C,0x00,Write,ACK
6.189767937500000,742,0x3C,0x40,Write,ACK
6.189790500000000,742,0x3C,0x00,Write,ACK
6.189841187500000,743,0x3C,0x40,Write,ACK
6.189863750000000,743,0x3C,0x00,Write,ACK
6.189914500000000,744,0x3C,0x40,Write,ACK
6.189937062500000,744,0x3C,0x00,Write,ACK
6.189987750000000,745,0x3C,0x40,Write,ACK
6.190010312500000,745,0x3C,0x00,Write,ACK
6.190061000000000,746,0x3C,0x40,Write,ACK
6.190083625000000,746,0x3C,0x00,Write,ACK
6.190134312500000,747,0x3C,0x40,Write,ACK
6.190156875000000,747,0x3C,0x00,Write,ACK
6.190205062500000,748,0x1E,0x20,Write,ACK
6.190227562500000,748,0x1E,0x00,Write,ACK
6.190281125000000,749,0x3C,0x00,Write,ACK
6.190303750000000,749,0x3C,0xB1,Write,ACK
6.190354000000000,750,0x3C,0x00,Write,ACK
6.190376562500000,750,0x3C,0x10,Write,ACK
6.190424312500000,751,0x1E,0x00,Write,ACK
6.190446812500000,751,0x1E,0x00,Write,ACK
6.190499937500000,752,0x3C,0x40,Write,ACK
6.190522500000000,752,0x3C,0x00,Write,ACK
6.190573187500000,753,0x3C,0x40,Write,ACK
6.190595750000000,753,0x3C,0x00,Write,ACK
6.190646437500000,754,0x3C,0x40,Write,ACK
6.190669000000000,754,0x3C,0x00,Write,ACK
6.190719750000000,755,0x3C,0x40,Write,ACK
6.190742312500000,755,0x3C,0x00,Write,ACK
6.190793000000000,756,0x3C,0x40,Write,ACK
6.190815562500000,756,0x3C,0x00,Write,ACK
6.190866250000000,757,0x3C,0x40,Write,ACK
6.190888812500000,757,0x3C,0x00,Write,ACK
6.190939562500000,758,0x3C,0x40,Write,ACK
6.190962125000000,758,0x3C,0x00,Write,ACK
6.191012812500000,759,0x3C,0x40,Write,ACK
6.191035375000000,759,0x3C,0x00,Write,ACK
6.191086062500000,760,0x3C,0x40,Write,ACK
6.191108687500000,760,0x3C,0x00,Write,ACK
6.191159375000000,761,0x3C,0x40,Write,ACK
6.191181937500000,761,0x3C,0x00,Write,ACK
6.191230125000000,762,0x1E,0x20,Write,ACK
6.191252625000000,762,0x1E,0x00,Write,ACK
6.191305875000000,763,0x3C,0x40,Write,ACK
6.191328500000000,763,0x3C,0x03,Write,ACK
6.191379187500000,764,0x3C,0x40,Write,ACK
6.191401750000000,764,0x3C,0x3F,Write,ACK
6.191449937500000,765,0x1E,0x20,Write,ACK
6.191472437500000,765,0x1E,0x7E,Write,ACK
6.191525750000000,766,0x3C,0x40,Write,ACK
6.191548312500000,766,0x3C,0xC0,Write,ACK
6.191599000000000,767,0x3C,0x40,Write,ACK
6.191621562500000,767,0x3C,0x00,Write,ACK
6.191672250000000,768,0x3C,0x40,Write,ACK
6.191694812500000,768,0x3C,0x00,Write,ACK
6.191745562500000,769,0x3C,0x40,Write,ACK
6.191768125000000,769,0x3C,0x00,Write,ACK
6.191818812500000,770,0x3C,0x40,Write,ACK
6.191841375000000,770,0x3C,0xF0,Write,ACK
6.191892062500000,771,0x3C,0x40,Write,ACK
6.191914625000000,771,0x3C,0x7F,Write,ACK
6.191965375000000,772,0x3C,0x40,Write,ACK
6.191987937500000,772,0x3C,0x07,Write,ACK
6.192038625000000,773,0x3C,0x40,Write,ACK
6.192061187500000,773,0x3C,0x7F,Write,ACK
6.192111875000000,774,0x3C,0x40,Write,ACK
6.192134437500000,774,0x3C,0xF0,Write,ACK
6.192185187500000,775,0x3C,0x40,Write,ACK
6.192207750000000,775,0x3C,0x00,Write,ACK
6.192258437500000,776,0x3C,0x40,Write,ACK
6.192281000000000,776,0x3C,0x00,Write,ACK
6.192331687500000,777,0x3C,0x40,Write,ACK
6.192354312500000,777,0x3C,0x00,Write,ACK
6.192405000000000,778,0x3C,0x40,Write,ACK
6.192427562500000,778,0x3C,0xC0,Write,ACK
6.192475750000000,779,0x1E,0x20,Write,ACK
6.192498250000000,779,0x1E,0x7E,Write,ACK
6.192551562500000,780,0x3C,0x40,Write,ACK
6.192574125000000,780,0x3C,0x3F,Write,ACK
6.192624812500000,781,0x3C,0x40,Write,ACK
6.192647375000000,781,0x3C,0x03,Write,ACK
6.192698062500000,782,0x3C,0x40,Write,ACK
6.192720625000000,782,0x3C,0x00,Write,ACK
6.192771375000000,783,0x3C,0x40,Write,ACK
6.192793937500000,783,0x3C,0x00,Write,ACK
6.192844625000000,784,0x3C,0x40,Write,ACK
6.192867187500000,784,0x3C,0x00,Write,ACK
6.192917875000000,785,0x3C,0x40,Write,ACK
6.192940437500000,785,0x3C,0xFF,Write,ACK
6.192991187500000,786,0x3C,0x40,Write,ACK
6.193013750000000,786,0x3C,0xFF,Write,ACK
6.193064437500000,787,0x3C,0x40,Write,ACK
6.193087000000000,787,0x3C,0xC3,Write,ACK
6.193137687500000,788,0x3C,0x40,Write,ACK
6.193160250000000,788,0x3C,0xC3,Write,ACK
6.193211000000000,789,0x3C,0x40,Write,ACK
6.193233562500000,789,0x3C,0xC3,Write,ACK
6.193284250000000,790,0x3C,0x40,Write,ACK
6.193306812500000,790,0x3C,0xC3,Write,ACK
6.193357500000000,791,0x3C,0x40,Write,ACK
6.193380062500000,791,0x3C,0xC3,Write,ACK
6.193430812500000,792,0x3C,0x40,Write,ACK
6.193453375000000,792,0x3C,0xC3,Write,ACK
6.193501562500000,793,0x1E,0x20,Write,ACK
6.193524062500000,793,0x1E,0x61,Write,NAK
6.193577375000000,794,0x3C,0x40,Write,ACK
6.193599937500000,794,0x3C,0xC3,Write,ACK
6.193650625000000,795,0x3C,0x40,Write,ACK
6.193673187500000,795,0x3C,0x00,Write,ACK
6.193723875000000,796,0x3C,0x40,Write,ACK
6.193746437500000,796,0x3C,0x00,Write,ACK
6.193797187500000,797,0x3C,0x40,Write,ACK
6.193819750000000,797,0x3C,0x00,Write,ACK
6.193870437500000,798,0x3C,0x40,Write,ACK
6.193893000000000,798,0x3C,0xFF,Write,ACK
6.193943687500000,799,0x3C,0x40,Write,ACK
6.193966250000000,799,0x3C,0xFF,Write,ACK
6.194017000000000,800,0x3C,0x40,Write,ACK
6.194039562500000,800,0x3C,0x00,Write,ACK
6.194090250000000,801,0x3C,0x40,Write,ACK
6.194112812500000,801,0x3C,0x00,Write,ACK
6.194163500000000,802,0x3C,0x40,Write,ACK
6.194186062500000,802,0x3C,0x00,Write,ACK
6.194236812500000,803,0x3C,0x40,Write,ACK
6.194259375000000,803,0x3C,0x00,Write,ACK
6.194310062500000,804,0x3C,0x40,Write,ACK
6.194332625000000,804,0x3C,0x00,Write,ACK
6.194383312500000,805,0x3C,0x40,Write,ACK
6.194405937500000,805,0x3C,0x00,Write,ACK
6.194456625000000,806,0x3C,0x40,Write,ACK
6.194479187500000,806,0x3C,0x00,Write,ACK
6.194527375000000,807,0x1E,0x20,Write,ACK
6.194549875000000,807,0x1E,0x00,Write,ACK
6.194603125000000,808,0x3C,0x40,Write,ACK
6.194625750000000,808,0x3C,0x00,Write,ACK
6.194676437500000,809,0x3C,0x40,Write,ACK
6.194699000000000,809,0x3C,0xE0,Write,ACK
6.194749687500000,810,0x3C,0x40,Write,ACK
6.194772250000000,810,0x3C,0xF8,Write,ACK
6.194823000000000,811,0x3C,0x40,Write,ACK
6.194845562500000,811,0x3C,0x1C,Write,ACK
6.194896250000000,812,0x3C,0x40,Write,ACK
6.194918812500000,812,0x3C,0x0E,Write,ACK
6.194969500000000,813,0x3C,0x40,Write,ACK
6.194992062500000,813,0x3C,0x06,Write,ACK
6.195042812500000,814,0x3C,0x40,Write,ACK
6.195065375000000,814,0x3C,0x03,Write,ACK
6.195116062500000,815,0x3C,0x40,Write,ACK
6.195138625000000,815,0x3C,0x03,Write,ACK
6.195189312500000,816,0x3C,0x40,Write,ACK
6.195211875000000,816,0x3C,0x03,Write,ACK
6.195262625000000,817,0x3C,0x40,Write,ACK
6.195285187500000,817,0x3C,0x03,Write,ACK
6.195335875000000,818,0x3C,0x40,Write,ACK
6.195358437500000,818,0x3C,0x03,Write,ACK
6.195409125000000,819,0x3C,0x40,Write,ACK
6.195431750000000,819,0x3C,0x07,Write,ACK
6.195482437500000,820,0x3C,0x40,Write,ACK
6.195505000000000,820,0x3C,0x06,Write,ACK
6.195553187500000,821,0x1E,0x20,Write,ACK
6.195575687500000,821,0x1E,0x07,Write,ACK
6.195628937500000,822,0x3C,0x40,Write,ACK
6.195651562500000,822,0x3C,0x00,Write,ACK
6.195702250000000,823,0x3C,0x40,Write,ACK
6.195724812500000,823,0x3C,0x00,Write,ACK
6.195775500000000,824,0x3C,0x40,Write,ACK
6.195798062500000,824,0x3C,0xE0,Write,ACK
6.195848812500000,825,0x3C,0x40,Write,ACK
6.195871375000000,825,0x3C,0xF8,Write,ACK
6.195922062500000,826,0x3C,0x40,Write,ACK
6.195944625000000,826,0x3C,0x1C,Write,ACK
6.195995312500000,827,0x3C,0x40,Write,ACK
6.196017875000000,827,0x3C,0x0E,Write,ACK
6.196068625000000,828,0x3C,0x40,Write,ACK
6.196091187500000,828,0x3C,0x06,Write,ACK
6.196141875000000,829,0x3C,0x40,Write,ACK
6.196164437500000,829,0x3C,0x03,Write,ACK
6.196215125000000,830,0x3C,0x40,Write,ACK
6.196237687500000,830,0x3C,0x03,Write,ACK
6.196288437500000,831,0x3C,0x40,Write,ACK
6.196311000000000,831,0x3C,0x03,Write,ACK
6.196361687500000,832,0x3C,0x40,Write,ACK
6.196384250000000,832,0x3C,0x03,Write,ACK
6.196434937500000,833,0x3C,0x40,Write,ACK
6.196457562500000,833,0x3C,0x03,Write,ACK
6.196508250000000,834,0x3C,0x40,Write,ACK
6.196530812500000,834,0x3C,0x07,Write,ACK
6.196579000000000,835,0x1E,0x20,Write,ACK
6.196601500000000,835,0x1E,0x07,Write,ACK
6.196654750000000,836,0x3C,0x40,Write,ACK
6.196677375000000,836,0x3C,0x1C,Write,ACK
6.196728062500000,837,0x3C,0x40,Write,ACK
6.196750625000000,837,0x3C,0xF8,Write,ACK
6.196798812500000,838,0x1E,0x20,Write,ACK
6.196821312500000,838,0x1E,0x70,Write,ACK
6.196874625000000,839,0x3C,0x40,Write,ACK
6.196897187500000,839,0x3C,0x00,Write,ACK
6.196947875000000,840,0x3C,0x40,Write,ACK
6.196970437500000,840,0x3C,0x00,Write,ACK
6.197021125000000,841,0x3C,0x40,Write,ACK
6.197043687500000,841,0x3C,0x00,Write,ACK
6.197094437500000,842,0x3C,0x40,Write,ACK
6.197117000000000,842,0x3C,0xFF,Write,ACK
6.197167687500000,843,0x3C,0x40,Write,ACK
6.197190250000000,843,0x3C,0xFF,Write,ACK
6.197240937500000,844,0x3C,0x40,Write,ACK
6.197263500000000,844,0x3C,0x07,Write,ACK
6.197314250000000,845,0x3C,0x40,Write,ACK
6.197336812500000,845,0x3C,0x3E,Write,ACK
6.197387500000000,846,0x3C,0x40,Write,ACK
6.197410062500000,846,0x3C,0xF8,Write,ACK
6.197460750000000,847,0x3C,0x40,Write,ACK
6.197483312500000,847,0x3C,0xC0,Write,ACK
6.197534062500000,848,0x3C,0x40,Write,ACK
6.197556625000000,848,0x3C,0x00,Write,ACK
6.197604812500000,849,0x1E,0x20,Write,ACK
6.197627312500000,849,0x1E,0x00,Write,ACK
6.197680562500000,850,0x3C,0x40,Write,ACK
6.197703187500000,850,0x3C,0xC0,Write,ACK
6.197753875000000,851,0x3C,0x40,Write,ACK
6.197776437500000,851,0x3C,0xF0,Write,ACK
6.197824625000000,852,0x1E,0x20,Write,ACK
6.197847125000000,852,0x1E,0x1E,Write,ACK
6.197900437500000,853,0x3C,0x40,Write,ACK
6.197923000000000,853,0x3C,0x07,Write,ACK
6.197973687500000,854,0x3C,0x40,Write,ACK
6.197996250000000,854,0x3C,0xFF,Write,ACK
6.198046937500000,855,0x3C,0x40,Write,ACK
6.198069500000000,855,0x3C,0xFF,Write,ACK
6.198120250000000,856,0x3C,0x40,Write,ACK
6.198142812500000,856,0x3C,0x00,Write,ACK
6.198193500000000,857,0x3C,0x40,Write,ACK
6.198216062500000,857,0x3C,0x00,Write,ACK
6.198266750000000,858,0x3C,0x40,Write,ACK
6.198289312500000,858,0x3C,0x00,Write,ACK
6.198340062500000,859,0x3C,0x40,Write,ACK
6.198362625000000,859,0x3C,0x00,Write,ACK
6.198413312500000,860,0x3C,0x40,Write,ACK
6.198435875000000,860,0x3C,0xFF,Write,ACK
6.198486562500000,861,0x3C,0x40,Write,ACK
6.198509125000000,861,0x3C,0xFF,Write,ACK
6.198559875000000,862,0x3C,0x40,Write,ACK
6.198582437500000,862,0x3C,0xC3,Write,ACK
6.198633125000000,863,0x3C,0x40,Write,ACK
6.198655687500000,863,0x3C,0xC3,Write,ACK
6.198706375000000,864,0x3C,0x40,Write,ACK
6.198729000000000,864,0x3C,0xC3,Write,ACK
6.198779687500000,865,0x3C,0x40,Write,ACK
6.198802250000000,865,0x3C,0xC3,Write,ACK
6.198850437500000,866,0x1E,0x20,Write,ACK
6.198872937500000,866,0x1E,0x61,Write,NAK
6.198926250000000,867,0x3C,0x40,Write,ACK
6.198948812500000,867,0x3C,0xC3,Write,ACK
6.198999500000000,868,0x3C,0x40,Write,ACK
6.199022062500000,868,0x3C,0xC3,Write,ACK
6.199072750000000,869,0x3C,0x40,Write,ACK
6.199095312500000,869,0x3C,0xC3,Write,ACK
6.199146062500000,870,0x3C,0x40,Write,ACK
6.199168625000000,870,0x3C,0x00,Write,ACK
6.199219312500000,871,0x3C,0x40,Write,ACK
6.199241875000000,871,0x3C,0x00,Write,ACK
6.199292562500000,872,0x3C,0x40,Write,ACK
6.199315125000000,872,0x3C,0x00,Write,ACK
6.199365875000000,873,0x3C,0x40,Write,ACK
6.199388437500000,873,0x3C,0x00,Write,ACK
6.199439125000000,874,0x3C,0x40,Write,ACK
6.199461687500000,874,0x3C,0x00,Write,ACK
6.199512375000000,875,0x3C,0x40,Write,ACK
6.199534937500000,875,0x3C,0x00,Write,ACK
6.199585687500000,876,0x3C,0x40,Write,ACK
6.199608250000000,876,0x3C,0x00,Write,ACK
6.199658937500000,877,0x3C,0x40,Write,ACK
6.199681500000000,877,0x3C,0x00,Write,ACK
6.199732187500000,878,0x3C,0x40,Write,ACK
6.199754812500000,878,0x3C,0x00,Write,ACK
6.199805500000000,879,0x3C,0x40,Write,ACK
6.199828062500000,879,0x3C,0x00,Write,ACK
6.199876562500000,880,0x1E,0x00,Write,ACK
6.199899062500000,880,0x1E,0x59,Write,ACK
6.199951937500000,881,0x3C,0x00,Write,ACK
6.199974437500000,881,0x3C,0x10,Write,ACK
6.200024750000000,882,0x3C,0x00,Write,ACK
6.200047312500000,882,0x3C,0x00,Write,ACK
6.200097812500000,883,0x3C,0x40,Write,ACK
6.200120375000000,883,0x3C,0x00,Write,ACK
6.200171125000000,884,0x3C,0x40,Write,ACK
6.200193687500000,884,0x3C,0x00,Write,ACK
6.200244375000000,885,0x3C,0x40,Write,ACK
6.200266937500000,885,0x3C,0x00,Write,ACK
6.200317625000000,886,0x3C,0x40,Write,ACK
6.200340187500000,886,0x3C,0x00,Write,ACK
6.200390937500000,887,0x3C,0x40,Write,ACK
6.200413500000000,887,0x3C,0x00,Write,ACK
6.200464187500000,888,0x3C,0x40,Write,ACK
6.200486750000000,888,0x3C,0x00,Write,ACK
6.200537437500000,889,0x3C,0x40,Write,ACK
6.200560000000000,889,0x3C,0x00,Write,ACK
6.200610750000000,890,0x3C,0x40,Write,ACK
6.200633312500000,890,0x3C,0x00,Write,ACK
6.200684000000000,891,0x3C,0x40,Write,ACK
6.200706562500000,891,0x3C,0x00,Write,ACK
6.200757250000000,892,0x3C,0x40,Write,ACK
6.200779875000000,892,0x3C,0x00,Write,ACK
6.200830562500000,893,0x3C,0x40,Write,ACK
6.200853125000000,893,0x3C,0x00,Write,ACK
6.200901312500000,894,0x1E,0x20,Write,ACK
6.200923812500000,894,0x1E,0x00,Write,ACK
6.200977062500000,895,0x3C,0x40,Write,ACK
6.200999687500000,895,0x3C,0x00,Write,ACK
6.201050375000000,896,0x3C,0x40,Write,ACK
6.201072937500000,896,0x3C,0x03,Write,ACK
6.201123625000000,897,0x3C,0x40,Write,ACK
6.201146187500000,897,0x3C,0x3F,Write,ACK
6.201196937500000,898,0x3C,0x40,Write,ACK
6.201219500000000,898,0x3C,0xFC,Write,ACK
6.201270187500000,899,0x3C,0x40,Write,ACK
6.201292750000000,899,0x3C,0xE0,Write,ACK
6.201343437500000,900,0x3C,0x40,Write,ACK
6.201366000000000,900,0x3C,0x7F,Write,ACK
6.201416750000000,901,0x3C,0x40,Write,ACK
6.201439312500000,901,0x3C,0x07,Write,ACK
6.201490000000000,902,0x3C,0x40,Write,ACK
6.201512562500000,902,0x3C,0x00,Write,ACK
6.201563250000000,903,0x3C,0x40,Write,ACK
6.201585812500000,903,0x3C,0x00,Write,ACK
6.201636562500000,904,0x3C,0x40,Write,ACK
6.201659125000000,904,0x3C,0x00,Write,ACK
6.201709812500000,905,0x3C,0x40,Write,ACK
6.201732375000000,905,0x3C,0x07,Write,ACK
6.201783062500000,906,0x3C,0x40,Write,ACK
6.201805687500000,906,0x3C,0x7F,Write,ACK
6.201856375000000,907,0x3C,0x40,Write,ACK
6.201878937500000,907,0x3C,0xF0,Write,ACK
6.201927125000000,908,0x1E,0x20,Write,ACK
6.201949625000000,908,0x1E,0x7E,Write,ACK
6.202002875000000,909,0x3C,0x40,Write,ACK
6.202025500000000,909,0x3C,0x3F,Write,ACK
6.202076187500000,910,0x3C,0x40,Write,ACK
6.202098750000000,910,0x3C,0x03,Write,ACK
6.202146937500000,911,0x1E,0x20,Write,ACK
6.202169437500000,911,0x1E,0x00,Write,ACK
6.202222750000000,912,0x3C,0x40,Write,ACK
6.202245312500000,912,0x3C,0x00,Write,ACK
6.202296000000000,913,0x3C,0x40,Write,ACK
6.202318562500000,913,0x3C,0x00,Write,ACK
6.202369250000000,914,0x3C,0x40,Write,ACK
6.202391812500000,914,0x3C,0x00,Write,ACK
6.202442562500000,915,0x3C,0x40,Write,ACK
6.202465125000000,915,0x3C,0x00,Write,ACK
6.202515812500000,916,0x3C,0x40,Write,ACK
6.202538375000000,916,0x3C,0xFF,Write,ACK
6.202589062500000,917,0x3C,0x40,Write,ACK
6.202611625000000,917,0x3C,0xFF,Write,ACK
6.202662375000000,918,0x3C,0x40,Write,ACK
6.202684937500000,918,0x3C,0xC0,Write,ACK
6.202735625000000,919,0x3C,0x40,Write,ACK
6.202758187500000,919,0x3C,0xC0,Write,ACK
6.202808875000000,920,0x3C,0x40,Write,ACK
6.202831437500000,920,0x3C,0xC0,Write,ACK
6.202882187500000,921,0x3C,0x40,Write,ACK
6.202904750000000,921,0x3C,0xC0,Write,ACK
6.202952937500000,922,0x1E,0x20,Write,ACK
6.202975437500000,922,0x1E,0x60,Write,ACK
6.203028687500000,923,0x3C,0x40,Write,ACK
6.203051250000000,923,0x3C,0xC0,Write,ACK
6.203102000000000,924,0x3C,0x40,Write,ACK
6.203124562500000,924,0x3C,0xC0,Write,ACK
6.203172750000000,925,0x1E,0x20,Write,ACK
6.203195250000000,925,0x1E,0x60,Write,ACK
6.203248562500000,926,0x3C,0x40,Write,ACK
6.203271125000000,926,0x3C,0x00,Write,ACK
6.203321812500000,927,0x3C,0x40,Write,ACK
6.203344375000000,927,0x3C,0x00,Write,ACK
6.203395062500000,928,0x3C,0x40,Write,ACK
6.203417625000000,928,0x3C,0x00,Write,ACK
6.203468375000000,929,0x3C,0x40,Write,ACK
6.203490937500000,929,0x3C,0xFF,Write,ACK
6.203541625000000,930,0x3C,0x40,Write,ACK
6.203564187500000,930,0x3C,0xFF,Write,ACK
6.203614875000000,931,0x3C,0x40,Write,ACK
6.203637437500000,931,0x3C,0xC0,Write,ACK
6.203688187500000,932,0x3C,0x40,Write,ACK
6.203710750000000,932,0x3C,0xC0,Write,ACK
6.203761437500000,933,0x3C,0x40,Write,ACK
6.203784000000000,933,0x3C,0xC0,Write,ACK
6.203834687500000,934,0x3C,0x40,Write,ACK
6.203857250000000,934,0x3C,0xC0,Write,ACK
6.203908000000000,935,0x3C,0x40,Write,ACK
6.203930562500000,935,0x3C,0xC0,Write,ACK
6.203981250000000,936,0x3C,0x40,Write,ACK
6.204003812500000,936,0x3C,0xC0,Write,ACK
6.204054500000000,937,0x3C,0x40,Write,ACK
6.204077125000000,937,0x3C,0xC0,Write,ACK
6.204127812500000,938,0x3C,0x40,Write,ACK
6.204150375000000,938,0x3C,0xC0,Write,ACK
6.204198562500000,939,0x1E,0x20,Write,ACK
6.204221062500000,939,0x1E,0x00,Write,ACK
6.204274375000000,940,0x3C,0x40,Write,ACK
6.204296937500000,940,0x3C,0x07,Write,ACK
6.204347625000000,941,0x3C,0x40,Write,ACK
6.204370187500000,941,0x3C,0x1F,Write,ACK
6.204420875000000,942,0x3C,0x40,Write,ACK
6.204443437500000,942,0x3C,0x38,Write,ACK
6.204494187500000,943,0x3C,0x40,Write,ACK
6.204516750000000,943,0x3C,0x70,Write,ACK
6.204567437500000,944,0x3C,0x40,Write,ACK
6.204590000000000,944,0x3C,0xE0,Write,ACK
6.204640687500000,945,0x3C,0x40,Write,ACK
6.204663250000000,945,0x3C,0xC0,Write,ACK
6.204714000000000,946,0x3C,0x40,Write,ACK
6.204736562500000,946,0x3C,0xC0,Write,ACK
6.204787250000000,947,0x3C,0x40,Write,ACK
6.204809812500000,947,0x3C,0xC0,Write,ACK
6.204860500000000,948,0x3C,0x40,Write,ACK
6.204883062500000,948,0x3C,0xC0,Write,ACK
6.204933812500000,949,0x3C,0x40,Write,ACK
6.204956375000000,949,0x3C,0xC0,Write,ACK
6.205007062500000,950,0x3C,0x40,Write,ACK
6.205029625000000,950,0x3C,0xE0,Write,ACK
6.205080312500000,951,0x3C,0x40,Write,ACK
6.205102937500000,951,0x3C,0x60,Write,ACK
6.205153625000000,952,0x3C,0x40,Write,ACK
6.205176187500000,952,0x3C,0x70,Write,ACK
6.205224375000000,953,0x1E,0x20,Write,ACK
6.205246875000000,953,0x1E,0x00,Write,ACK
6.205300187500000,954,0x3C,0x40,Write,ACK
6.205322750000000,954,0x3C,0x00,Write,ACK
6.205373437500000,955,0x3C,0x40,Write,ACK
6.205396000000000,955,0x3C,0x07,Write,ACK
6.205446687500000,956,0x3C,0x40,Write,ACK
6.205469250000000,956,0x3C,0x1F,Write,ACK
6.205520000000000,957,0x3C,0x40,Write,ACK
6.205542562500000,957,0x3C,0x38,Write,ACK
6.205593250000000,958,0x3C,0x40,Write,ACK
6.205615812500000,958,0x3C,0x70,Write,ACK
6.205666500000000,959,0x3C,0x40,Write,ACK
6.205689062500000,959,0x3C,0x60,Write,ACK
6.205739812500000,960,0x3C,0x40,Write,ACK
6.205762375000000,960,0x3C,0xC0,Write,ACK
6.205813062500000,961,0x3C,0x40,Write,ACK
6.205835625000000,961,0x3C,0xC0,Write,ACK
6.205886312500000,962,0x3C,0x40,Write,ACK
6.205908875000000,962,0x3C,0xC0,Write,ACK
6.205959625000000,963,0x3C,0x40,Write,ACK
6.205982187500000,963,0x3C,0xC0,Write,ACK
6.206032875000000,964,0x3C,0x40,Write,ACK
6.206055437500000,964,0x3C,0xC0,Write,ACK
6.206106125000000,965,0x3C,0x40,Write,ACK
6.206128687500000,965,0x3C,0xE0,Write,ACK
6.206179437500000,966,0x3C,0x40,Write,ACK
6.206202000000000,966,0x3C,0x70,Write,ACK
6.206250187500000,967,0x1E,0x20,Write,ACK
6.206272687500000,967,0x1E,0x1C,Write,ACK
6.206326000000000,968,0x3C,0x40,Write,ACK
6.206348562500000,968,0x3C,0x1F,Write,ACK
6.206399250000000,969,0x3C,0x40,Write,ACK
6.206421812500000,969,0x3C,0x07,Write,ACK
6.206472500000000,970,0x3C,0x40,Write,ACK
6.206495062500000,970,0x3C,0x00,Write,ACK
6.206545812500000,971,0x3C,0x40,Write,ACK
6.206568375000000,971,0x3C,0x00,Write,ACK
6.206619062500000,972,0x3C,0x40,Write,ACK
6.206641625000000,972,0x3C,0x00,Write,ACK
6.206692312500000,973,0x3C,0x40,Write,ACK
6.206714875000000,973,0x3C,0xFF,Write,ACK
6.206765625000000,974,0x3C,0x40,Write,ACK
6.206788187500000,974,0x3C,0xFF,Write,ACK
6.206838875000000,975,0x3C,0x40,Write,ACK
6.206861437500000,975,0x3C,0x00,Write,ACK
6.206912125000000,976,0x3C,0x40,Write,ACK
6.206934687500000,976,0x3C,0x00,Write,ACK
6.206985437500000,977,0x3C,0x40,Write,ACK
6.207008000000000,977,0x3C,0x00,Write,ACK
6.207058687500000,978,0x3C,0x40,Write,ACK
6.207081250000000,978,0x3C,0x03,Write,ACK
6.207131937500000,979,0x3C,0x40,Write,ACK
6.207154562500000,979,0x3C,0x0F,Write,ACK
6.207205250000000,980,0x3C,0x40,Write,ACK
6.207227812500000,980,0x3C,0x0F,Write,ACK
6.207276000000000,981,0x1E,0x20,Write,ACK
6.207298500000000,981,0x1E,0x01,Write,NAK
6.207351750000000,982,0x3C,0x40,Write,ACK
6.207374375000000,982,0x3C,0x00,Write,ACK
6.207425062500000,983,0x3C,0x40,Write,ACK
6.207447625000000,983,0x3C,0x00,Write,ACK
6.207498312500000,984,0x3C,0x40,Write,ACK
6.207520875000000,984,0x3C,0x00,Write,ACK
6.207571625000000,985,0x3C,0x40,Write,ACK
6.207594187500000,985,0x3C,0xFF,Write,ACK
6.207644875000000,986,0x3C,0x40,Write,ACK
6.207667437500000,986,0x3C,0xFF,Write,ACK
6.207718125000000,987,0x3C,0x40,Write,ACK
6.207740687500000,987,0x3C,0x00,Write,ACK
6.207791437500000,988,0x3C,0x40,Write,ACK
6.207814000000000,988,0x3C,0x00,Write,ACK
6.207864687500000,989,0x3C,0x40,Write,ACK
6.207887250000000,989,0x3C,0x00,Write,ACK
6.207937937500000,990,0x3C,0x40,Write,ACK
6.207960500000000,990,0x3C,0x00,Write,ACK
6.208011250000000,991,0x3C,0x40,Write,ACK
6.208033812500000,991,0x3C,0xFF,Write,ACK
6.208084500000000,992,0x3C,0x40,Write,ACK
6.208107062500000,992,0x3C,0xFF,Write,ACK
6.208157750000000,993,0x3C,0x40,Write,ACK
6.208180312500000,993,0x3C,0xC0,Write,ACK
6.208231062500000,994,0x3C,0x40,Write,ACK
6.208253625000000,994,0x3C,0xC0,Write,ACK
6.208301812500000,995,0x1E,0x20,Write,ACK
6.208324312500000,995,0x1E,0x60,Write,ACK
6.208377562500000,996,0x3C,0x40,Write,ACK
6.208400187500000,996,0x3C,0xC0,Write,ACK
6.208450875000000,997,0x3C,0x40,Write,ACK
6.208473437500000,997,0x3C,0xC0,Write,ACK
6.208521625000000,998,0x1E,0x20,Write,ACK
6.208544125000000,998,0x1E,0x60,Write,ACK
6.208597437500000,999,0x3C,0x40,Write,ACK
6.208620000000000,999,0x3C,0xC0,Write,ACK
6.208670687500000,1000,0x3C,0x40,Write,ACK
6.208693250000000,1000,0x3C,0xC0,Write,ACK
6.208743937500000,1001,0x3C,0x40,Write,ACK
6.208766500000000,1001,0x3C,0x00,Write,ACK
6.208817250000000,1002,0x3C,0x40,Write,ACK
6.208839812500000,1002,0x3C,0x00,Write,ACK
6.208890500000000,1003,0x3C,0x40,Write,ACK
6.208913062500000,1003,0x3C,0x00,Write,ACK
6.208963750000000,1004,0x3C,0x40,Write,ACK
6.208986312500000,1004,0x3C,0x00,Write,ACK
6.209037062500000,1005,0x3C,0x40,Write,ACK
6.209059625000000,1005,0x3C,0x00,Write,ACK
6.209110312500000,1006,0x3C,0x40,Write,ACK
6.209132875000000,1006,0x3C,0x00,Write,ACK
6.209183562500000,1007,0x3C,0x40,Write,ACK
6.209206187500000,1007,0x3C,0x00,Write,ACK
6.209256875000000,1008,0x3C,0x40,Write,ACK
6.209279437500000,1008,0x3C,0x00,Write,ACK
6.209327625000000,1009,0x1E,0x20,Write,ACK
6.209350125000000,1009,0x1E,0x00,Write,ACK
6.209403375000000,1010,0x3C,0x40,Write,ACK
6.209426000000000,1010,0x3C,0x00,Write,ACK
6.209477000000000,1011,0x3C,0x00,Write,ACK
6.209499562500000,1011,0x3C,0xB3,Write,ACK
6.209547312500000,1012,0x1E,0x00,Write,ACK
6.209569812500000,1012,0x1E,0x08,Write,ACK
6.209622687500000,1013,0x3C,0x00,Write,ACK
6.209645250000000,1013,0x3C,0x00,Write,ACK
6.209695750000000,1014,0x3C,0x40,Write,ACK
6.209718312500000,1014,0x3C,0x00,Write,ACK
6.209769000000000,1015,0x3C,0x40,Write,ACK
6.209791562500000,1015,0x3C,0x00,Write,ACK
6.209842312500000,1016,0x3C,0x40,Write,ACK
6.209864875000000,1016,0x3C,0x00,Write,ACK
6.209915562500000,1017,0x3C,0x40,Write,ACK
6.209938125000000,1017,0x3C,0x00,Write,ACK
6.209988812500000,1018,0x3C,0x40,Write,ACK
6.210011375000000,1018,0x3C,0x00,Write,ACK
6.210062125000000,1019,0x3C,0x40,Write,ACK
6.210084687500000,1019,0x3C,0x00,Write,ACK
6.210135375000000,1020,0x3C,0x40,Write,ACK
6.210157937500000,1020,0x3C,0x00,Write,ACK
6.210208625000000,1021,0x3C,0x40,Write,ACK
6.210231250000000,1021,0x3C,0x00,Write,ACK
6.210281937500000,1022,0x3C,0x40,Write,ACK
6.210304500000000,1022,0x3C,0x00,Write,ACK
6.210355187500000,1023,0x3C,0x40,Write,ACK
6.210377750000000,1023,0x3C,0x00,Write,ACK
6.210428437500000,1024,0x3C,0x40,Write,ACK
6.210451062500000,1024,0x3C,0x00,Write,ACK
6.210501750000000,1025,0x3C,0x40,Write,ACK
6.210524312500000,1025,0x3C,0x00,Write,ACK
6.210572500000000,1026,0x1E,0x20,Write,ACK
6.210595000000000,1026,0x1E,0x00,Write,ACK
6.210648312500000,1027,0x3C,0x40,Write,ACK
6.210670875000000,1027,0x3C,0x00,Write,ACK
6.210721562500000,1028,0x3C,0x40,Write,ACK
6.210744125000000,1028,0x3C,0x00,Write,ACK
6.210794812500000,1029,0x3C,0x40,Write,ACK
6.210817375000000,1029,0x3C,0x00,Write,ACK
6.210868125000000,1030,0x3C,0x40,Write,ACK
6.210890687500000,1030,0x3C,0x00,Write,ACK
6.210941375000000,1031,0x3C,0x40,Write,ACK
6.210963937500000,1031,0x3C,0x00,Write,ACK
6.211014625000000,1032,0x3C,0x40,Write,ACK
6.211037187500000,1032,0x3C,0x00,Write,ACK
6.211087937500000,1033,0x3C,0x40,Write,ACK
6.211110500000000,1033,0x3C,0x00,Write,ACK
6.211161187500000,1034,0x3C,0x40,Write,ACK
6.211183750000000,1034,0x3C,0x00,Write,ACK
6.211234437500000,1035,0x3C,0x40,Write,ACK
6.211257000000000,1035,0x3C,0x00,Write,ACK
6.211307750000000,1036,0x3C,0x40,Write,ACK
6.211330312500000,1036,0x3C,0x00,Write,ACK
6.211381000000000,1037,0x3C,0x40,Write,ACK
6.211403562500000,1037,0x3C,0x00,Write,ACK
6.211454250000000,1038,0x3C,0x40,Write,ACK
6.211476875000000,1038,0x3C,0x00,Write,ACK
6.211527562500000,1039,0x3C,0x40,Write,ACK
6.211550125000000,1039,0x3C,0x00,Write,ACK
6.211598312500000,1040,0x1E,0x20,Write,ACK
6.211620812500000,1040,0x1E,0x00,Write,ACK
6.211674062500000,1041,0x3C,0x40,Write,ACK
6.211696687500000,1041,0x3C,0x00,Write,ACK
6.211747375000000,1042,0x3C,0x40,Write,ACK
6.211769937500000,1042,0x3C,0x00,Write,ACK
6.211820625000000,1043,0x3C,0x40,Write,ACK
6.211843187500000,1043,0x3C,0x00,Write,ACK
6.211893937500000,1044,0x3C,0x40,Write,ACK
6.211916500000000,1044,0x3C,0x00,Write,ACK
6.211967187500000,1045,0x3C,0x40,Write,ACK
6.211989750000000,1045,0x3C,0x00,Write,ACK
6.212040437500000,1046,0x3C,0x40,Write,ACK
6.212063000000000,1046,0x3C,0x00,Write,ACK
6.212113750000000,1047,0x3C,0x40,Write,ACK
6.212136312500000,1047,0x3C,0x00,Write,ACK
6.212187000000000,1048,0x3C,0x40,Write,ACK
6.212209562500000,1048,0x3C,0x00,Write,ACK
6.212260250000000,1049,0x3C,0x40,Write,ACK
6.212282812500000,1049,0x3C,0x00,Write,ACK
6.212333562500000,1050,0x3C,0x40,Write,ACK
6.212356125000000,1050,0x3C,0x00,Write,ACK
6.212406812500000,1051,0x3C,0x40,Write,ACK
6.212429375000000,1051,0x3C,0x00,Write,ACK
6.212480062500000,1052,0x3C,0x40,Write,ACK
6.212502687500000,1052,0x3C,0x00,Write,ACK
6.212553375000000,1053,0x3C,0x40,Write,ACK
6.212575937500000,1053,0x3C,0x00,Write,ACK
6.212624125000000,1054,0x1E,0x20,Write,ACK
6.212646625000000,1054,0x1E,0x00,Write,ACK
6.212699937500000,1055,0x3C,0x40,Write,ACK
6.212722500000000,1055,0x3C,0x00,Write,ACK
6.212773187500000,1056,0x3C,0x40,Write,ACK
6.212795750000000,1056,0x3C,0x00,Write,ACK
6.212846437500000,1057,0x3C,0x40,Write,ACK
6.212869000000000,1057,0x3C,0x00,Write,ACK
6.212919750000000,1058,0x3C,0x40,Write,ACK
6.212942312500000,1058,0x3C,0x00,Write,ACK
6.212993000000000,1059,0x3C,0x40,Write,ACK
6.213015562500000,1059,0x3C,0x00,Write,ACK
6.213066250000000,1060,0x3C,0x40,Write,ACK
6.213088812500000,1060,0x3C,0x00,Write,ACK
6.213139562500000,1061,0x3C,0x40,Write,ACK
6.213162125000000,1061,0x3C,0x00,Write,ACK
6.213212812500000,1062,0x3C,0x40,Write,ACK
6.213235375000000,1062,0x3C,0x00,Write,ACK
6.213286062500000,1063,0x3C,0x40,Write,ACK
6.213308625000000,1063,0x3C,0x00,Write,ACK
6.213359375000000,1064,0x3C,0x40,Write,ACK
6.213381937500000,1064,0x3C,0x00,Write,ACK
6.213432625000000,1065,0x3C,0x40,Write,ACK
6.213455187500000,1065,0x3C,0x00,Write,ACK
6.213505875000000,1066,0x3C,0x40,Write,ACK
6.213528500000000,1066,0x3C,0x00,Write,ACK
6.213579187500000,1067,0x3C,0x40,Write,ACK
6.213601750000000,1067,0x3C,0x00,Write,ACK
6.213649937500000,1068,0x1E,0x20,Write,ACK
6.213672437500000,1068,0x1E,0x00,Write,ACK
6.213725687500000,1069,0x3C,0x40,Write,ACK
6.213748312500000,1069,0x3C,0x00,Write,ACK
6.213799000000000,1070,0x3C,0x40,Write,ACK
6.213821562500000,1070,0x3C,0x00,Write,ACK
6.213872250000000,1071,0x3C,0x40,Write,ACK
6.213894812500000,1071,0x3C,0x00,Write,ACK
6.213945562500000,1072,0x3C,0x40,Write,ACK
6.213968125000000,1072,0x3C,0x00,Write,ACK
6.214018812500000,1073,0x3C,0x40,Write,ACK
6.214041375000000,1073,0x3C,0x00,Write,ACK
6.214092062500000,1074,0x3C,0x40,Write,ACK
6.214114625000000,1074,0x3C,0x00,Write,ACK
6.214165375000000,1075,0x3C,0x40,Write,ACK
6.214187937500000,1075,0x3C,0x00,Write,ACK
6.214238625000000,1076,0x3C,0x40,Write,ACK
6.214261187500000,1076,0x3C,0x00,Write,ACK
6.214311875000000,1077,0x3C,0x40,Write,ACK
6.214334437500000,1077,0x3C,0x00,Write,ACK
6.214385187500000,1078,0x3C,0x40,Write,ACK
6.214407750000000,1078,0x3C,0x00,Write,ACK
6.214458437500000,1079,0x3C,0x40,Write,ACK
6.214481000000000,1079,0x3C,0x00,Write,ACK
6.214531687500000,1080,0x3C,0x40,Write,ACK
6.214554312500000,1080,0x3C,0x00,Write,ACK
6.214605000000000,1081,0x3C,0x40,Write,ACK
6.214627562500000,1081,0x3C,0x00,Write,ACK
6.214675750000000,1082,0x1E,0x20,Write,ACK
6.214698250000000,1082,0x1E,0x00,Write,ACK
6.214751500000000,1083,0x3C,0x40,Write,ACK
6.214774125000000,1083,0x3C,0x00,Write,ACK
6.214824812500000,1084,0x3C,0x40,Write,ACK
6.214847375000000,1084,0x3C,0x00,Write,ACK
6.214895562500000,1085,0x1E,0x20,Write,ACK
6.214918062500000,1085,0x1E,0x00,Write,ACK
6.214971375000000,1086,0x3C,0x40,Write,ACK
6.214993937500000,1086,0x3C,0x00,Write,ACK
6.215044625000000,1087,0x3C,0x40,Write,ACK
6.215067187500000,1087,0x3C,0x00,Write,ACK
6.215117875000000,1088,0x3C,0x40,Write,ACK
6.215140437500000,1088,0x3C,0x00,Write,ACK
6.215191187500000,1089,0x3C,0x40,Write,ACK
6.215213750000000,1089,0x3C,0x00,Write,ACK
6.215264437500000,1090,0x3C,0x40,Write,ACK
6.215287000000000,1090,0x3C,0x00,Write,ACK
6.215337687500000,1091,0x3C,0x40,Write,ACK
6.215360250000000,1091,0x3C,0x00,Write,ACK
6.215411000000000,1092,0x3C,0x40,Write,ACK
6.215433562500000,1092,0x3C,0x00,Write,ACK
6.215484250000000,1093,0x3C,0x40,Write,ACK
6.215506812500000,1093,0x3C,0x00,Write,ACK
6.215557500000000,1094,0x3C,0x40,Write,ACK
6.215580125000000,1094,0x3C,0x00,Write,ACK
6.215630812500000,1095,0x3C,0x40,Write,ACK
6.215653375000000,1095,0x3C,0x00,Write,ACK
6.215701562500000,1096,0x1E,0x20,Write,ACK
6.215724062500000,1096,0x1E,0x00,Write,ACK
6.215777312500000,1097,0x3C,0x40,Write,ACK
6.215799937500000,1097,0x3C,0x00,Write,ACK
6.215850625000000,1098,0x3C,0x40,Write,ACK
6.215873187500000,1098,0x3C,0x00,Write,ACK
6.215921375000000,1099,0x1E,0x20,Write,ACK
6.215943875000000,1099,0x1E,0x00,Write,ACK
6.215997187500000,1100,0x3C,0x40,Write,ACK
6.216019750000000,1100,0x3C,0x00,Write,ACK
6.216070437500000,1101,0x3C,0x40,Write,ACK
6.216093000000000,1101,0x3C,0x00,Write,ACK
6.216143687500000,1102,0x3C,0x40,Write,ACK
6.216166250000000,1102,0x3C,0x00,Write,ACK
6.216217000000000,1103,0x3C,0x40,Write,ACK
6.216239562500000,1103,0x3C,0x00,Write,ACK
6.216290250000000,1104,0x3C,0x40,Write,ACK
6.216312812500000,1104,0x3C,0x00,Write,ACK
6.216363500000000,1105,0x3C,0x40,Write,ACK
6.216386062500000,1105,0x3C,0x00,Write,ACK
6.216436812500000,1106,0x3C,0x40,Write,ACK
6.216459375000000,1106,0x3C,0x00,Write,ACK
6.216510062500000,1107,0x3C,0x40,Write,ACK
6.216532625000000,1107,0x3C,0x00,Write,ACK
6.216583312500000,1108,0x3C,0x40,Write,ACK
6.216605937500000,1108,0x3C,0x00,Write,ACK
6.216656625000000,1109,0x3C,0x40,Write,ACK
6.216679187500000,1109,0x3C,0x00,Write,ACK
6.216729875000000,1110,0x3C,0x40,Write,ACK
6.216752437500000,1110,0x3C,0x00,Write,ACK
6.216803125000000,1111,0x3C,0x40,Write,ACK
6.216825750000000,1111,0x3C,0x00,Write,ACK
6.216876437500000,1112,0x3C,0x40,Write,ACK
6.216899000000000,1112,0x3C,0x00,Write,ACK
6.216947187500000,1113,0x1E,0x20,Write,ACK
6.216969687500000,1113,0x1E,0x00,Write,ACK
6.217023000000000,1114,0x3C,0x40,Write,ACK
6.217045562500000,1114,0x3C,0x00,Write,ACK
6.217096250000000,1115,0x3C,0x40,Write,ACK
6.217118812500000,1115,0x3C,0x00,Write,ACK
6.217169500000000,1116,0x3C,0x40,Write,ACK
6.217192062500000,1116,0x3C,0x00,Write,ACK
6.217242812500000,1117,0x3C,0x40,Write,ACK
6.217265375000000,1117,0x3C,0x00,Write,ACK
6.217316062500000,1118,0x3C,0x40,Write,ACK
6.217338625000000,1118,0x3C,0x00,Write,ACK
6.217389312500000,1119,0x3C,0x40,Write,ACK
6.217411875000000,1119,0x3C,0x00,Write,ACK
6.217462625000000,1120,0x3C,0x40,Write,ACK
6.217485187500000,1120,0x3C,0x00,Write,ACK
6.217535875000000,1121,0x3C,0x40,Write,ACK
6.217558437500000,1121,0x3C,0x00,Write,ACK
6.217609125000000,1122,0x3C,0x40,Write,ACK
6.217631687500000,1122,0x3C,0x00,Write,ACK
6.217682437500000,1123,0x3C,0x40,Write,ACK
6.217705000000000,1123,0x3C,0x00,Write,ACK
6.217755687500000,1124,0x3C,0x40,Write,ACK
6.217778250000000,1124,0x3C,0x00,Write,ACK
6.217828937500000,1125,0x3C,0x40,Write,ACK
6.217851562500000,1125,0x3C,0x00,Write,ACK
6.217902250000000,1126,0x3C,0x40,Write,ACK
6.217924812500000,1126,0x3C,0x00,Write,ACK
6.217973000000000,1127,0x1E,0x20,Write,ACK
6.217995500000000,1127,0x1E,0x00,Write,ACK
6.218048812500000,1128,0x3C,0x40,Write,ACK
6.218071375000000,1128,0x3C,0x00,Write,ACK
6.218122062500000,1129,0x3C,0x40,Write,ACK
6.218144625000000,1129,0x3C,0x00,Write,ACK
6.218195312500000,1130,0x3C,0x40,Write,ACK
6.218217875000000,1130,0x3C,0x00,Write,ACK
6.218268625000000,1131,0x3C,0x40,Write,ACK
6.218291187500000,1131,0x3C,0x00,Write,ACK
6.218341875000000,1132,0x3C,0x40,Write,ACK
6.218364437500000,1132,0x3C,0x00,Write,ACK
6.218415125000000,1133,0x3C,0x40,Write,ACK
6.218437687500000,1133,0x3C,0x00,Write,ACK
6.218488437500000,1134,0x3C,0x40,Write,ACK
6.218511000000000,1134,0x3C,0x00,Write,ACK
6.218561687500000,1135,0x3C,0x40,Write,ACK
6.218584250000000,1135,0x3C,0x00,Write,ACK
6.218634937500000,1136,0x3C,0x40,Write,ACK
6.218657500000000,1136,0x3C,0x00,Write,ACK
6.218708250000000,1137,0x3C,0x40,Write,ACK
6.218730812500000,1137,0x3C,0x00,Write,ACK
6.218781500000000,1138,0x3C,0x40,Write,ACK
6.218804062500000,1138,0x3C,0x00,Write,ACK
6.218854750000000,1139,0x3C,0x40,Write,ACK
6.218877375000000,1139,0x3C,0x00,Write,ACK
6.218928062500000,1140,0x3C,0x40,Write,ACK
6.218950625000000,1140,0x3C,0x00,Write,ACK
6.218998812500000,1141,0x1E,0x20,Write,ACK
6.219021312500000,1141,0x1E,0x00,Write,ACK
6.586826375000000,1142,0x18,0x0E,Write,ACK
6.586874437500000,1143,0x18,0x81,Read,NAK
6.586951625000000,1144,0x18,0x3F,Write,ACK
6.586999750000000,1145,0x18,0xA1,Read,ACK
6.587022250000000,1145,0x18,0xFE,Read,ACK
6.587044750000000,1145,0x18,0x49,Read,ACK
6.587067250000000,1145,0x18,0x00,Read,ACK
6.587089750000000,1145,0x18,0x79,Read,ACK
6.587112250000000,1145,0x18,0x1E,Read,NAK
6.587165187500000,1146,0x18,0x3E,Write,ACK
6.587187812500000,1146,0x18,0x40,Write,ACK
7.091637375000000,1147,0x3C,0x00,Write,ACK
7.091660000000000,1147,0x3C,0xB0,Write,ACK
7.091710250000000,1148,0x3C,0x00,Write,ACK
7.091732812500000,1148,0x3C,0x10,Write,ACK
7.091783062500000,1149,0x3C,0x00,Write,ACK
7.091805625000000,1149,0x3C,0x00,Write,ACK
7.091856187500000,1150,0x3C,0x40,Write,ACK
7.091878750000000,1150,0x3C,0x00,Write,ACK
7.091929437500000,1151,0x3C,0x40,Write,ACK
7.091952000000000,1151,0x3C,0x00,Write,ACK
7.092002687500000,1152,0x3C,0x40,Write,ACK
7.092025250000000,1152,0x3C,0x00,Write,ACK
7.092076000000000,1153,0x3C,0x40,Write,ACK
7.092098562500000,1153,0x3C,0x80,Write,ACK
7.092149250000000,1154,0x3C,0x40,Write,ACK
7.092171812500000,1154,0x3C,0x80,Write,ACK
7.092222500000000,1155,0x3C,0x40,Write,ACK
7.092245062500000,1155,0x3C,0xC0,Write,ACK
7.092295812500000,1156,0x3C,0x40,Write,ACK
7.092318375000000,1156,0x3C,0xC0,Write,ACK
7.092369062500000,1157,0x3C,0x40,Write,ACK
7.092391625000000,1157,0x3C,0xC0,Write,ACK
7.092442312500000,1158,0x3C,0x40,Write,ACK
7.092464875000000,1158,0x3C,0xC0,Write,ACK
7.092515625000000,1159,0x3C,0x40,Write,ACK
7.092538187500000,1159,0x3C,0xC0,Write,ACK
7.092586375000000,1160,0x1E,0x20,Write,ACK
7.092608875000000,1160,0x1E,0x60,Write,ACK
7.092662125000000,1161,0x3C,0x40,Write,ACK
7.092684750000000,1161,0x3C,0x80,Write,ACK
7.092735437500000,1162,0x3C,0x40,Write,ACK
7.092758000000000,1162,0x3C,0x80,Write,ACK
7.092808687500000,1163,0x3C,0x40,Write,ACK
7.092831250000000,1163,0x3C,0x00,Write,ACK
7.092882000000000,1164,0x3C,0x40,Write,ACK
7.092904562500000,1164,0x3C,0x00,Write,ACK
7.092955250000000,1165,0x3C,0x40,Write,ACK
7.092977812500000,1165,0x3C,0x00,Write,ACK
7.093028500000000,1166,0x3C,0x40,Write,ACK
7.093051062500000,1166,0x3C,0xC0,Write,ACK
7.093101812500000,1167,0x3C,0x40,Write,ACK
7.093124375000000,1167,0x3C,0x80,Write,ACK
7.093175062500000,1168,0x3C,0x40,Write,ACK
7.093197625000000,1168,0x3C,0x00,Write,ACK
7.093248312500000,1169,0x3C,0x40,Write,ACK
7.093270875000000,1169,0x3C,0xE0,Write,ACK
7.093321625000000,1170,0x3C,0x40,Write,ACK
7.093344187500000,1170,0x3C,0xC0,Write,ACK
7.093394875000000,1171,0x3C,0x40,Write,ACK
7.093417437500000,1171,0x3C,0x80,Write,ACK
7.093468125000000,1172,0x3C,0x40,Write,ACK
7.093490750000000,1172,0x3C,0x00,Write,ACK
7.093541437500000,1173,0x3C,0x40,Write,ACK
7.093564000000000,1173,0x3C,0x00,Write,ACK
7.093612187500000,1174,0x1E,0x20,Write,ACK
7.093634687500000,1174,0x1E,0x00,Write,ACK
7.093687937500000,1175,0x3C,0x40,Write,ACK
7.093710562500000,1175,0x3C,0x00,Write,ACK
7.093761250000000,1176,0x3C,0x40,Write,ACK
7.093783812500000,1176,0x3C,0x00,Write,ACK
7.093832000000000,1177,0x1E,0x20,Write,ACK
7.093854500000000,1177,0x1E,0x00,Write,ACK
7.093907812500000,1178,0x3C,0x40,Write,ACK
7.093930375000000,1178,0x3C,0x00,Write,ACK
7.093981062500000,1179,0x3C,0x40,Write,ACK
7.094003625000000,1179,0x3C,0x00,Write,ACK
7.094054312500000,1180,0x3C,0x40,Write,ACK
7.094076875000000,1180,0x3C,0x00,Write,ACK
7.094127625000000,1181,0x3C,0x40,Write,ACK
7.094150187500000,1181,0x3C,0x00,Write,ACK
7.094200875000000,1182,0x3C,0x40,Write,ACK
7.094223437500000,1182,0x3C,0x00,Write,ACK
7.094274125000000,1183,0x3C,0x40,Write,ACK
7.094296687500000,1183,0x3C,0x00,Write,ACK
7.094347437500000,1184,0x3C,0x40,Write,ACK
7.094370000000000,1184,0x3C,0x80,Write,ACK
7.094420687500000,1185,0x3C,0x40,Write,ACK
7.094443250000000,1185,0x3C,0xC0,Write,ACK
7.094493937500000,1186,0x3C,0x40,Write,ACK
7.094516500000000,1186,0x3C,0xC0,Write,ACK
7.094567250000000,1187,0x3C,0x40,Write,ACK
7.094589812500000,1187,0x3C,0xC0,Write,ACK
7.094638000000000,1188,0x1E,0x20,Write,ACK
7.094660500000000,1188,0x1E,0x60,Write,ACK
7.094713750000000,1189,0x3C,0x40,Write,ACK
7.094736375000000,1189,0x3C,0xC0,Write,ACK
7.094787062500000,1190,0x3C,0x40,Write,ACK
7.094809625000000,1190,0x3C,0xC0,Write,ACK
7.094857812500000,1191,0x1E,0x20,Write,ACK
7.094880312500000,1191,0x1E,0x40,Write,ACK
7.094933625000000,1192,0x3C,0x40,Write,ACK
7.094956187500000,1192,0x3C,0x00,Write,ACK
7.095006875000000,1193,0x3C,0x40,Write,ACK
7.095029437500000,1193,0x3C,0x00,Write,ACK
7.095080125000000,1194,0x3C,0x40,Write,ACK
7.095102687500000,1194,0x3C,0x00,Write,ACK
7.095153437500000,1195,0x3C,0x40,Write,ACK
7.095176000000000,1195,0x3C,0x00,Write,ACK
7.095226687500000,1196,0x3C,0x40,Write,ACK
7.095249250000000,1196,0x3C,0x80,Write,ACK
7.095299937500000,1197,0x3C,0x40,Write,ACK
7.095322500000000,1197,0x3C,0xC0,Write,ACK
7.095373250000000,1198,0x3C,0x40,Write,ACK
7.095395812500000,1198,0x3C,0xC0,Write,ACK
7.095446500000000,1199,0x3C,0x40,Write,ACK
7.095469062500000,1199,0x3C,0xC0,Write,ACK
7.095519750000000,1200,0x3C,0x40,Write,ACK
7.095542312500000,1200,0x3C,0xC0,Write,ACK
7.095593062500000,1201,0x3C,0x40,Write,ACK
7.095615625000000,1201,0x3C,0xC0,Write,ACK
7.095666312500000,1202,0x3C,0x40,Write,ACK
7.095688875000000,1202,0x3C,0xC0,Write,ACK
7.095739562500000,1203,0x3C,0x40,Write,ACK
7.095762125000000,1203,0x3C,0x80,Write,ACK
7.095812875000000,1204,0x3C,0x40,Write,ACK
7.095835437500000,1204,0x3C,0x00,Write,ACK
7.095883625000000,1205,0x1E,0x20,Write,ACK
7.095906125000000,1205,0x1E,0x00,Write,ACK
7.095959437500000,1206,0x3C,0x40,Write,ACK
7.095982000000000,1206,0x3C,0x00,Write,ACK
7.096032687500000,1207,0x3C,0x40,Write,ACK
7.096055250000000,1207,0x3C,0x00,Write,ACK
7.096105937500000,1208,0x3C,0x40,Write,ACK
7.096128500000000,1208,0x3C,0x00,Write,ACK
7.096179250000000,1209,0x3C,0x40,Write,ACK
7.096201812500000,1209,0x3C,0x00,Write,ACK
7.096252500000000,1210,0x3C,0x40,Write,ACK
7.096275062500000,1210,0x3C,0x00,Write,ACK
7.096325750000000,1211,0x3C,0x40,Write,ACK
7.096348312500000,1211,0x3C,0x00,Write,ACK
7.096399062500000,1212,0x3C,0x40,Write,ACK
7.096421625000000,1212,0x3C,0x00,Write,ACK
7.096472312500000,1213,0x3C,0x40,Write,ACK
7.096494875000000,1213,0x3C,0x00,Write,ACK
7.096545562500000,1214,0x3C,0x40,Write,ACK
7.096568125000000,1214,0x3C,0x00,Write,ACK
7.096618875000000,1215,0x3C,0x40,Write,ACK
7.096641437500000,1215,0x3C,0x00,Write,ACK
7.096692125000000,1216,0x3C,0x40,Write,ACK
7.096714687500000,1216,0x3C,0x00,Write,ACK
7.096765375000000,1217,0x3C,0x40,Write,ACK
7.096788000000000,1217,0x3C,0x00,Write,ACK
7.096838687500000,1218,0x3C,0x40,Write,ACK
7.096861250000000,1218,0x3C,0x00,Write,ACK
7.096909437500000,1219,0x1E,0x20,Write,ACK
7.096931937500000,1219,0x1E,0x00,Write,ACK
7.096985250000000,1220,0x3C,0x40,Write,ACK
7.097007812500000,1220,0x3C,0x80,Write,ACK
7.097058500000000,1221,0x3C,0x40,Write,ACK
7.097081062500000,1221,0x3C,0xC0,Write,ACK
7.097131750000000,1222,0x3C,0x40,Write,ACK
7.097154312500000,1222,0x3C,0xC0,Write,ACK
7.097205062500000,1223,0x3C,0x40,Write,ACK
7.097227625000000,1223,0x3C,0xC0,Write,ACK
7.097278312500000,1224,0x3C,0x40,Write,ACK
7.097300875000000,1224,0x3C,0xC0,Write,ACK
7.097351562500000,1225,0x3C,0x40,Write,ACK
7.097374125000000,1225,0x3C,0xC0,Write,ACK
7.097424875000000,1226,0x3C,0x40,Write,ACK
7.097447437500000,1226,0x3C,0xC0,Write,ACK
7.097498125000000,1227,0x3C,0x40,Write,ACK
7.097520687500000,1227,0x3C,0x80,Write,ACK
7.097571375000000,1228,0x3C,0x40,Write,ACK
7.097593937500000,1228,0x3C,0x00,Write,ACK
7.097644687500000,1229,0x3C,0x40,Write,ACK
7.097667250000000,1229,0x3C,0x00,Write,ACK
7.097717937500000,1230,0x3C,0x40,Write,ACK
7.097740500000000,1230,0x3C,0x00,Write,ACK
7.097791187500000,1231,0x3C,0x40,Write,ACK
7.097813812500000,1231,0x3C,0x00,Write,ACK
7.097864500000000,1232,0x3C,0x40,Write,ACK
7.097887062500000,1232,0x3C,0x80,Write,ACK
7.097935250000000,1233,0x1E,0x20,Write,ACK
7.097957750000000,1233,0x1E,0x60,Write,ACK
7.098011062500000,1234,0x3C,0x40,Write,ACK
7.098033625000000,1234,0x3C,0xC0,Write,ACK
7.098084312500000,1235,0x3C,0x40,Write,ACK
7.098106875000000,1235,0x3C,0xC0,Write,ACK
7.098157562500000,1236,0x3C,0x40,Write,ACK
7.098180125000000,1236,0x3C,0xC0,Write,ACK
7.098230875000000,1237,0x3C,0x40,Write,ACK
7.098253437500000,1237,0x3C,0xC0,Write,ACK
7.098304125000000,1238,0x3C,0x40,Write,ACK
7.098326687500000,1238,0x3C,0xC0,Write,ACK
7.098377375000000,1239,0x3C,0x40,Write,ACK
7.098399937500000,1239,0x3C,0x80,Write,ACK
7.098450687500000,1240,0x3C,0x40,Write,ACK
7.098473250000000,1240,0x3C,0x00,Write,ACK
7.098523937500000,1241,0x3C,0x40,Write,ACK
7.098546500000000,1241,0x3C,0x00,Write,ACK
7.098597187500000,1242,0x3C,0x40,Write,ACK
7.098619750000000,1242,0x3C,0x00,Write,ACK
7.098670500000000,1243,0x3C,0x40,Write,ACK
7.098693062500000,1243,0x3C,0x00,Write,ACK
7.098743750000000,1244,0x3C,0x40,Write,ACK
7.098766312500000,1244,0x3C,0xF0,Write,ACK
7.098817000000000,1245,0x3C,0x40,Write,ACK
7.098839562500000,1245,0x3C,0xF8,Write,ACK
7.098890312500000,1246,0x3C,0x40,Write,ACK
7.098912875000000,1246,0x3C,0x0C,Write,ACK
7.098961062500000,1247,0x1E,0x20,Write,ACK
7.098983562500000,1247,0x1E,0x62,Write,ACK
7.099036812500000,1248,0x3C,0x40,Write,ACK
7.099059437500000,1248,0x3C,0x0C,Write,ACK
7.099110125000000,1249,0x3C,0x40,Write,ACK
7.099132687500000,1249,0x3C,0xF8,Write,ACK
7.099183375000000,1250,0x3C,0x40,Write,ACK
7.099205937500000,1250,0x3C,0xF0,Write,ACK
7.099256687500000,1251,0x3C,0x40,Write,ACK
7.099279250000000,1251,0x3C,0x00,Write,ACK
7.099329937500000,1252,0x3C,0x40,Write,ACK
7.099352500000000,1252,0x3C,0x00,Write,ACK
7.099403187500000,1253,0x3C,0x40,Write,ACK
7.099425750000000,1253,0x3C,0x10,Write,ACK
7.099476500000000,1254,0x3C,0x40,Write,ACK
7.099499062500000,1254,0x3C,0x18,Write,ACK
7.099549750000000,1255,0x3C,0x40,Write,ACK
7.099572312500000,1255,0x3C,0xFC,Write,ACK
7.099623000000000,1256,0x3C,0x40,Write,ACK
7.099645562500000,1256,0x3C,0xFC,Write,ACK
7.099696312500000,1257,0x3C,0x40,Write,ACK
7.099718875000000,1257,0x3C,0x00,Write,ACK
7.099769562500000,1258,0x3C,0x40,Write,ACK
7.099792125000000,1258,0x3C,0x00,Write,ACK
7.099842812500000,1259,0x3C,0x40,Write,ACK
7.099865437500000,1259,0x3C,0x00,Write,ACK
7.099916125000000,1260,0x3C,0x40,Write,ACK
7.099938687500000,1260,0x3C,0x00,Write,ACK
7.099986875000000,1261,0x1E,0x20,Write,ACK
7.100009375000000,1261,0x1E,0x00,Write,ACK
7.100062625000000,1262,0x3C,0x40,Write,ACK
7.100085250000000,1262,0x3C,0x0F,Write,ACK
7.100135937500000,1263,0x3C,0x40,Write,ACK
7.100158500000000,1263,0x3C,0x07,Write,ACK
7.100206687500000,1264,0x1E,0x20,Write,ACK
7.100229187500000,1264,0x1E,0x79,Write,NAK
7.100282500000000,1265,0x3C,0x40,Write,ACK
7.100305062500000,1265,0x3C,0x3B,Write,ACK
7.100355750000000,1266,0x3C,0x40,Write,ACK
7.100378312500000,1266,0x3C,0xF3,Write,ACK
7.100429000000000,1267,0x3C,0x40,Write,ACK
7.100451562500000,1267,0x3C,0x07,Write,ACK
7.100502312500000,1268,0x3C,0x40,Write,ACK
7.100524875000000,1268,0x3C,0x0F,Write,ACK
7.100575562500000,1269,0x3C,0x40,Write,ACK
7.100598125000000,1269,0x3C,0xFF,Write,ACK
7.100648812500000,1270,0x3C,0x40,Write,ACK
7.100671375000000,1270,0x3C,0xFF,Write,ACK
7.100722125000000,1271,0x3C,0x40,Write,ACK
7.100744687500000,1271,0x3C,0xEF,Write,ACK
7.100795375000000,1272,0x3C,0x40,Write,ACK
7.100817937500000,1272,0x3C,0xE7,Write,ACK
7.100868625000000,1273,0x3C,0x40,Write,ACK
7.100891250000000,1273,0x3C,0x03,Write,ACK
7.100941937500000,1274,0x3C,0x40,Write,ACK
7.100964500000000,1274,0x3C,0x03,Write,ACK
7.101012687500000,1275,0x1E,0x20,Write,ACK
7.101035187500000,1275,0x1E,0x7F,Write,NAK
7.101088437500000,1276,0x3C,0x40,Write,ACK
7.101111062500000,1276,0x3C,0xFF,Write,ACK
7.101161750000000,1277,0x3C,0x40,Write,ACK
7.101184312500000,1277,0x3C,0xFF,Write,ACK
7.101232812500000,1278,0x1E,0x00,Write,ACK
7.101255312500000,1278,0x1E,0x58,Write,NAK
7.101308187500000,1279,0x3C,0x00,Write,ACK
7.101330750000000,1279,0x3C,0x10,Write,ACK
7.101381000000000,1280,0x3C,0x00,Write,ACK
7.101403562500000,1280,0x3C,0x00,Write,ACK
7.101454062500000,1281,0x3C,0x40,Write,ACK
7.101476625000000,1281,0x3C,0x00,Write,ACK
7.101527375000000,1282,0x3C,0x40,Write,ACK
7.101549937500000,1282,0x3C,0x00,Write,ACK
7.101600625000000,1283,0x3C,0x40,Write,ACK
7.101623187500000,1283,0x3C,0xFF,Write,ACK
7.101673875000000,1284,0x3C,0x40,Write,ACK
7.101696437500000,1284,0x3C,0x01,Write,ACK
7.101747187500000,1285,0x3C,0x40,Write,ACK
7.101769687500000,1285,0x3C,0xC1,Write,ACK
7.101820437500000,1286,0x3C,0x40,Write,ACK
7.101843000000000,1286,0x3C,0xC1,Write,ACK
7.101893687500000,1287,0x3C,0x40,Write,ACK
7.101916250000000,1287,0x3C,0xC1,Write,ACK
7.101967000000000,1288,0x3C,0x40,Write,ACK
7.101989562500000,1288,0x3C,0xC1,Write,ACK
7.102040250000000,1289,0x3C,0x40,Write,ACK
7.102062812500000,1289,0x3C,0xC1,Write,ACK
7.102113500000000,1290,0x3C,0x40,Write,ACK
7.102136062500000,1290,0x3C,0xC1,Write,ACK
7.102186812500000,1291,0x3C,0x40,Write,ACK
7.102209375000000,1291,0x3C,0xC1,Write,ACK
7.102257562500000,1292,0x1E,0x20,Write,ACK
7.102280062500000,1292,0x1E,0x60,Write,NAK
7.102333375000000,1293,0x3C,0x40,Write,ACK
7.102355937500000,1293,0x3C,0x01,Write,ACK
7.102406625000000,1294,0x3C,0x40,Write,ACK
7.102429187500000,1294,0x3C,0xFF,Write,ACK
7.102479875000000,1295,0x3C,0x40,Write,ACK
7.102502437500000,1295,0x3C,0x00,Write,ACK
7.102553187500000,1296,0x3C,0x40,Write,ACK
7.102575750000000,1296,0x3C,0x00,Write,ACK
7.102626437500000,1297,0x3C,0x40,Write,ACK
7.102649000000000,1297,0x3C,0x30,Write,ACK
7.102699687500000,1298,0x3C,0x40,Write,ACK
7.102722250000000,1298,0x3C,0x19,Write,ACK
7.102773000000000,1299,0x3C,0x40,Write,ACK
7.102795562500000,1299,0x3C,0x0F,Write,ACK
7.102846250000000,1300,0x3C,0x40,Write,ACK
7.102868812500000,1300,0x3C,0xFF,Write,ACK
7.102919500000000,1301,0x3C,0x40,Write,ACK
7.102942062500000,1301,0x3C,0x6E,Write,ACK
7.102992812500000,1302,0x3C,0x40,Write,ACK
7.103015375000000,1302,0x3C,0x3B,Write,ACK
7.103066062500000,1303,0x3C,0x40,Write,ACK
7.103088625000000,1303,0x3C,0x11,Write,ACK
7.103139312500000,1304,0x3C,0x40,Write,ACK
7.103161937500000,1304,0x3C,0x00,Write,ACK
7.103212625000000,1305,0x3C,0x40,Write,ACK
7.103235187500000,1305,0x3C,0x11,Write,ACK
7.103283375000000,1306,0x1E,0x20,Write,ACK
7.103305875000000,1306,0x1E,0x05,Write,ACK
7.103359125000000,1307,0x3C,0x40,Write,ACK
7.103381750000000,1307,0x3C,0x04,Write,ACK
7.103432437500000,1308,0x3C,0x40,Write,ACK
7.103455000000000,1308,0x3C,0x0A,Write,ACK
7.103505687500000,1309,0x3C,0x40,Write,ACK
7.103528250000000,1309,0x3C,0x11,Write,ACK
7.103579000000000,1310,0x3C,0x40,Write,ACK
7.103601562500000,1310,0x3C,0x00,Write,ACK
7.103652250000000,1311,0x3C,0x40,Write,ACK
7.103674812500000,1311,0x3C,0x00,Write,ACK
7.103725500000000,1312,0x3C,0x40,Write,ACK
7.103748062500000,1312,0x3C,0x00,Write,ACK
7.103798812500000,1313,0x3C,0x40,Write,ACK
7.103821375000000,1313,0x3C,0x00,Write,ACK
7.103872062500000,1314,0x3C,0x40,Write,ACK
7.103894625000000,1314,0x3C,0xFF,Write,ACK
7.103945312500000,1315,0x3C,0x40,Write,ACK
7.103967875000000,1315,0x3C,0xFF,Write,ACK
7.104018625000000,1316,0x3C,0x40,Write,ACK
7.104041187500000,1316,0x3C,0xFF,Write,ACK
7.104091875000000,1317,0x3C,0x40,Write,ACK
7.104114437500000,1317,0x3C,0x03,Write,ACK
7.104165125000000,1318,0x3C,0x40,Write,ACK
7.104187750000000,1318,0x3C,0x01,Write,ACK
7.104238437500000,1319,0x3C,0x40,Write,ACK
7.104261000000000,1319,0x3C,0x01,Write,ACK
7.104309187500000,1320,0x1E,0x20,Write,ACK
7.104331687500000,1320,0x1E,0x01,Write,NAK
7.104384937500000,1321,0x3C,0x40,Write,ACK
7.104407562500000,1321,0x3C,0xFF,Write,ACK
7.104458250000000,1322,0x3C,0x40,Write,ACK
7.104480812500000,1322,0x3C,0xFF,Write,ACK
7.104531500000000,1323,0x3C,0x40,Write,ACK
7.104554062500000,1323,0x3C,0xFF,Write,ACK
7.104604812500000,1324,0x3C,0x40,Write,ACK
7.104627375000000,1324,0x3C,0x00,Write,ACK
7.104678062500000,1325,0x3C,0x40,Write,ACK
7.104700625000000,1325,0x3C,0x00,Write,ACK
7.104751312500000,1326,0x3C,0x40,Write,ACK
7.104773875000000,1326,0x3C,0xFF,Write,ACK
7.104824625000000,1327,0x3C,0x40,Write,ACK
7.104847187500000,1327,0x3C,0xFF,Write,ACK
7.104897875000000,1328,0x3C,0x40,Write,ACK
7.104920437500000,1328,0x3C,0xFF,Write,ACK
7.104971125000000,1329,0x3C,0x40,Write,ACK
7.104993687500000,1329,0x3C,0x03,Write,ACK
7.105044437500000,1330,0x3C,0x40,Write,ACK
7.105067000000000,1330,0x3C,0x01,Write,ACK
7.105117687500000,1331,0x3C,0x40,Write,ACK
7.105140250000000,1331,0x3C,0x01,Write,ACK
7.105190937500000,1332,0x3C,0x40,Write,ACK
7.105213562500000,1332,0x3C,0x03,Write,ACK
7.105264250000000,1333,0x3C,0x40,Write,ACK
7.105286812500000,1333,0x3C,0xFF,Write,ACK
7.105335000000000,1334,0x1E,0x20,Write,ACK
7.105357500000000,1334,0x1E,0x7F,Write,NAK
7.105410750000000,1335,0x3C,0x40,Write,ACK
7.105433375000000,1335,0x3C,0xFF,Write,ACK
7.105484062500000,1336,0x3C,0x40,Write,ACK
7.105506625000000,1336,0x3C,0x00,Write,ACK
7.105554812500000,1337,0x1E,0x20,Write,ACK
7.105577312500000,1337,0x1E,0x00,Write,ACK
7.105630625000000,1338,0x3C,0x40,Write,ACK
7.105653187500000,1338,0x3C,0x00,Write,ACK
7.105703875000000,1339,0x3C,0x40,Write,ACK
7.105726437500000,1339,0x3C,0x00,Write,ACK
7.105777125000000,1340,0x3C,0x40,Write,ACK
7.105799687500000,1340,0x3C,0x00,Write,ACK
7.105850437500000,1341,0x3C,0x40,Write,ACK
7.105873000000000,1341,0x3C,0x00,Write,ACK
7.105923687500000,1342,0x3C,0x40,Write,ACK
7.105946250000000,1342,0x3C,0x78,Write,ACK
7.105996937500000,1343,0x3C,0x40,Write,ACK
7.106019500000000,1343,0x3C,0x78,Write,ACK
7.106070250000000,1344,0x3C,0x40,Write,ACK
7.106092812500000,1344,0x3C,0x78,Write,ACK
7.106143500000000,1345,0x3C,0x40,Write,ACK
7.106166062500000,1345,0x3C,0x00,Write,ACK
7.106216750000000,1346,0x3C,0x40,Write,ACK
7.106239375000000,1346,0x3C,0x00,Write,ACK
7.106290062500000,1347,0x3C,0x40,Write,ACK
7.106312625000000,1347,0x3C,0x00,Write,ACK
7.106360812500000,1348,0x1E,0x20,Write,ACK
7.106383312500000,1348,0x1E,0x00,Write,ACK
7.106436562500000,1349,0x3C,0x40,Write,ACK
7.106459187500000,1349,0x3C,0x00,Write,ACK
7.106509875000000,1350,0x3C,0x40,Write,ACK
7.106532437500000,1350,0x3C,0xFF,Write,ACK
7.106580625000000,1351,0x1E,0x20,Write,ACK
7.106603125000000,1351,0x1E,0x7F,Write,NAK
7.106656437500000,1352,0x3C,0x40,Write,ACK
7.106679000000000,1352,0x3C,0xFF,Write,ACK
7.106729687500000,1353,0x3C,0x40,Write,ACK
7.106752250000000,1353,0x3C,0x03,Write,ACK
7.106802937500000,1354,0x3C,0x40,Write,ACK
7.106825500000000,1354,0x3C,0x01,Write,ACK
7.106876250000000,1355,0x3C,0x40,Write,ACK
7.106898812500000,1355,0x3C,0x01,Write,ACK
7.106949500000000,1356,0x3C,0x40,Write,ACK
7.106972062500000,1356,0x3C,0x03,Write,ACK
7.107022750000000,1357,0x3C,0x40,Write,ACK
7.107045312500000,1357,0x3C,0xFF,Write,ACK
7.107096062500000,1358,0x3C,0x40,Write,ACK
7.107118625000000,1358,0x3C,0xFF,Write,ACK
7.107169312500000,1359,0x3C,0x40,Write,ACK
7.107191875000000,1359,0x3C,0xFF,Write,ACK
7.107242562500000,1360,0x3C,0x40,Write,ACK
7.107265187500000,1360,0x3C,0x00,Write,ACK
7.107315875000000,1361,0x3C,0x40,Write,ACK
7.107338437500000,1361,0x3C,0x00,Write,ACK
7.107386625000000,1362,0x1E,0x20,Write,ACK
7.107409125000000,1362,0x1E,0x7F,Write,NAK
7.107462375000000,1363,0x3C,0x40,Write,ACK
7.107484937500000,1363,0x3C,0xFF,Write,ACK
7.107535687500000,1364,0x3C,0x40,Write,ACK
7.107558250000000,1364,0x3C,0xFF,Write,ACK
7.107606437500000,1365,0x1E,0x20,Write,ACK
7.107628937500000,1365,0x1E,0x01,Write,NAK
7.107682250000000,1366,0x3C,0x40,Write,ACK
7.107704812500000,1366,0x3C,0x01,Write,ACK
7.107755500000000,1367,0x3C,0x40,Write,ACK
7.107778062500000,1367,0x3C,0x01,Write,ACK
7.107828750000000,1368,0x3C,0x40,Write,ACK
7.107851312500000,1368,0x3C,0x03,Write,ACK
7.107902062500000,1369,0x3C,0x40,Write,ACK
7.107924625000000,1369,0x3C,0xFF,Write,ACK
7.107975312500000,1370,0x3C,0x40,Write,ACK
7.107997875000000,1370,0x3C,0xFF,Write,ACK
7.108048562500000,1371,0x3C,0x40,Write,ACK
7.108071125000000,1371,0x3C,0xFF,Write,ACK
7.108121875000000,1372,0x3C,0x40,Write,ACK
7.108144437500000,1372,0x3C,0x00,Write,ACK
7.108195125000000,1373,0x3C,0x40,Write,ACK
7.108217687500000,1373,0x3C,0x00,Write,ACK
7.108268375000000,1374,0x3C,0x40,Write,ACK
7.108290937500000,1374,0x3C,0x00,Write,ACK
7.108341687500000,1375,0x3C,0x40,Write,ACK
7.108364250000000,1375,0x3C,0x03,Write,ACK
7.108414937500000,1376,0x3C,0x40,Write,ACK
7.108437500000000,1376,0x3C,0x07,Write,ACK
7.108488187500000,1377,0x3C,0x40,Write,ACK
7.108510812500000,1377,0x3C,0x0C,Write,ACK
7.108561500000000,1378,0x3C,0x40,Write,ACK
7.108584062500000,1378,0x3C,0x08,Write,ACK
7.108632250000000,1379,0x1E,0x20,Write,ACK
7.108654750000000,1379,0x1E,0x06,Write,ACK
7.108708062500000,1380,0x3C,0x40,Write,ACK
7.108730625000000,1380,0x3C,0x07,Write,ACK
7.108781312500000,1381,0x3C,0x40,Write,ACK
7.108803875000000,1381,0x3C,0x03,Write,ACK
7.108854562500000,1382,0x3C,0x40,Write,ACK
7.108877125000000,1382,0x3C,0x00,Write,ACK
7.108927875000000,1383,0x3C,0x40,Write,ACK
7.108950437500000,1383,0x3C,0x00,Write,ACK
7.109001125000000,1384,0x3C,0x40,Write,ACK
7.109023687500000,1384,0x3C,0x08,Write,ACK
7.109074375000000,1385,0x3C,0x40,Write,ACK
7.109096937500000,1385,0x3C,0x08,Write,ACK
7.109147687500000,1386,0x3C,0x40,Write,ACK
7.109170250000000,1386,0x3C,0x0F,Write,ACK
7.109220937500000,1387,0x3C,0x40,Write,ACK
7.109243500000000,1387,0x3C,0x0F,Write,ACK
7.109294187500000,1388,0x3C,0x40,Write,ACK
7.109316750000000,1388,0x3C,0x08,Write,ACK
7.109367500000000,1389,0x3C,0x40,Write,ACK
7.109390062500000,1389,0x3C,0x08,Write,ACK
7.109440750000000,1390,0x3C,0x40,Write,ACK
7.109463312500000,1390,0x3C,0x00,Write,ACK
7.109514000000000,1391,0x3C,0x40,Write,ACK
7.109536625000000,1391,0x3C,0x00,Write,ACK
7.109587312500000,1392,0x3C,0x40,Write,ACK
7.109609875000000,1392,0x3C,0x00,Write,ACK
7.109658062500000,1393,0x1E,0x20,Write,ACK
7.109680562500000,1393,0x1E,0x7E,Write,ACK
7.109733875000000,1394,0x3C,0x40,Write,ACK
7.109756437500000,1394,0x3C,0xF8,Write,ACK
7.109807125000000,1395,0x3C,0x40,Write,ACK
7.109829687500000,1395,0x3C,0xF3,Write,ACK
7.109880375000000,1396,0x3C,0x40,Write,ACK
7.109902937500000,1396,0x3C,0xF7,Write,ACK
7.109953687500000,1397,0x3C,0x40,Write,ACK
7.109976250000000,1397,0x3C,0xF3,Write,ACK
7.110026937500000,1398,0x3C,0x40,Write,ACK
7.110049500000000,1398,0x3C,0xF8,Write,ACK
7.110100187500000,1399,0x3C,0x40,Write,ACK
7.110122750000000,1399,0x3C,0xFC,Write,ACK
7.110173500000000,1400,0x3C,0x40,Write,ACK
7.110196062500000,1400,0x3C,0xFF,Write,ACK
7.110246750000000,1401,0x3C,0x40,Write,ACK
7.110269312500000,1401,0x3C,0xFF,Write,ACK
7.110320000000000,1402,0x3C,0x40,Write,ACK
7.110342562500000,1402,0x3C,0xF7,Write,ACK
7.110393312500000,1403,0x3C,0x40,Write,ACK
7.110415875000000,1403,0x3C,0xF7,Write,ACK
7.110466562500000,1404,0x3C,0x40,Write,ACK
7.110489125000000,1404,0x3C,0xF0,Write,ACK
7.110539812500000,1405,0x3C,0x40,Write,ACK
7.110562375000000,1405,0x3C,0xF0,Write,ACK
7.110613125000000,1406,0x3C,0x40,Write,ACK
7.110635687500000,1406,0x3C,0xF7,Write,ACK
7.110683875000000,1407,0x1E,0x20,Write,ACK
7.110706375000000,1407,0x1E,0x7B,Write,NAK
7.110759625000000,1408,0x3C,0x40,Write,ACK
7.110782250000000,1408,0x3C,0xFF,Write,ACK
7.110833250000000,1409,0x3C,0x00,Write,ACK
7.110855812500000,1409,0x3C,0xB2,Write,ACK
7.110906062500000,1410,0x3C,0x00,Write,ACK
7.110928625000000,1410,0x3C,0x10,Write,ACK
7.110978937500000,1411,0x3C,0x00,Write,ACK
7.111001500000000,1411,0x3C,0x00,Write,ACK
7.111052000000000,1412,0x3C,0x40,Write,ACK
7.111074562500000,1412,0x3C,0x00,Write,ACK
7.111125250000000,1413,0x3C,0x40,Write,ACK
7.111147812500000,1413,0x3C,0x00,Write,ACK
7.111198562500000,1414,0x3C,0x40,Write,ACK
7.111221125000000,1414,0x3C,0xFF,Write,ACK
7.111271812500000,1415,0x3C,0x40,Write,ACK
7.111294375000000,1415,0x3C,0x00,Write,ACK
7.111345062500000,1416,0x3C,0x40,Write,ACK
7.111367625000000,1416,0x3C,0xDD,Write,ACK
7.111418375000000,1417,0x3C,0x40,Write,ACK
7.111440937500000,1417,0x3C,0xDD,Write,ACK
7.111491625000000,1418,0x3C,0x40,Write,ACK
7.111514187500000,1418,0x3C,0xDD,Write,ACK
7.111564875000000,1419,0x3C,0x40,Write,ACK
7.111587437500000,1419,0x3C,0xDD,Write,ACK
7.111638187500000,1420,0x3C,0x40,Write,ACK
7.111660750000000,1420,0x3C,0xDD,Write,ACK
7.111708937500000,1421,0x1E,0x20,Write,ACK
7.111731437500000,1421,0x1E,0x6E,Write,NAK
7.111784687500000,1422,0x3C,0x40,Write,ACK
7.111807312500000,1422,0x3C,0xDD,Write,ACK
7.111858000000000,1423,0x3C,0x40,Write,ACK
7.111880562500000,1423,0x3C,0xDD,Write,ACK
7.111928750000000,1424,0x1E,0x20,Write,ACK
7.111951250000000,1424,0x1E,0x00,Write,ACK
7.112004562500000,1425,0x3C,0x40,Write,ACK
7.112027125000000,1425,0x3C,0xFF,Write,ACK
7.112077812500000,1426,0x3C,0x40,Write,ACK
7.112100375000000,1426,0x3C,0x00,Write,ACK
7.112151062500000,1427,0x3C,0x40,Write,ACK
7.112173625000000,1427,0x3C,0x00,Write,ACK
7.112224375000000,1428,0x3C,0x40,Write,ACK
7.112246937500000,1428,0x3C,0x00,Write,ACK
7.112297625000000,1429,0x3C,0x40,Write,ACK
7.112320187500000,1429,0x3C,0x00,Write,ACK
7.112370875000000,1430,0x3C,0x40,Write,ACK
7.112393437500000,1430,0x3C,0x00,Write,ACK
7.112444187500000,1431,0x3C,0x40,Write,ACK
7.112466750000000,1431,0x3C,0x00,Write,ACK
7.112517437500000,1432,0x3C,0x40,Write,ACK
7.112540000000000,1432,0x3C,0x00,Write,ACK
7.112590687500000,1433,0x3C,0x40,Write,ACK
7.112613312500000,1433,0x3C,0x00,Write,ACK
7.112664000000000,1434,0x3C,0x40,Write,ACK
7.112686562500000,1434,0x3C,0x00,Write,ACK
7.112734750000000,1435,0x1E,0x20,Write,ACK
7.112757250000000,1435,0x1E,0x00,Write,ACK
7.112810500000000,1436,0x3C,0x40,Write,ACK
7.112833125000000,1436,0x3C,0x00,Write,ACK
7.112883812500000,1437,0x3C,0x40,Write,ACK
7.112906375000000,1437,0x3C,0x00,Write,ACK
7.112954562500000,1438,0x1E,0x20,Write,ACK
7.112977062500000,1438,0x1E,0x00,Write,ACK
7.113030375000000,1439,0x3C,0x40,Write,ACK
7.113052937500000,1439,0x3C,0x00,Write,ACK
7.113103625000000,1440,0x3C,0x40,Write,ACK
7.113126187500000,1440,0x3C,0x00,Write,ACK
7.113176875000000,1441,0x3C,0x40,Write,ACK
7.113199437500000,1441,0x3C,0x00,Write,ACK
7.113250187500000,1442,0x3C,0x40,Write,ACK
7.113272750000000,1442,0x3C,0x00,Write,ACK
7.113323437500000,1443,0x3C,0x40,Write,ACK
7.113346000000000,1443,0x3C,0x00,Write,ACK
7.113396687500000,1444,0x3C,0x40,Write,ACK
7.113419250000000,1444,0x3C,0x00,Write,ACK
7.113470000000000,1445,0x3C,0x40,Write,ACK
7.113492562500000,1445,0x3C,0xFF,Write,ACK
7.113543250000000,1446,0x3C,0x40,Write,ACK
7.113565812500000,1446,0x3C,0xFF,Write,ACK
7.113616500000000,1447,0x3C,0x40,Write,ACK
7.113639062500000,1447,0x3C,0xFF,Write,ACK
7.113689812500000,1448,0x3C,0x40,Write,ACK
7.113712375000000,1448,0x3C,0x80,Write,ACK
7.113763062500000,1449,0x3C,0x40,Write,ACK
7.113785625000000,1449,0x3C,0x00,Write,ACK
7.113836312500000,1450,0x3C,0x40,Write,ACK
7.113858937500000,1450,0x3C,0x00,Write,ACK
7.113909625000000,1451,0x3C,0x40,Write,ACK
7.113932187500000,1451,0x3C,0x80,Write,ACK
7.113980375000000,1452,0x1E,0x20,Write,ACK
7.114002875000000,1452,0x1E,0x7F,Write,NAK
7.114056187500000,1453,0x3C,0x40,Write,ACK
7.114078750000000,1453,0x3C,0xFF,Write,ACK
7.114129437500000,1454,0x3C,0x40,Write,ACK
7.114152000000000,1454,0x3C,0xFF,Write,ACK
7.114202687500000,1455,0x3C,0x40,Write,ACK
7.114225250000000,1455,0x3C,0x00,Write,ACK
7.114276000000000,1456,0x3C,0x40,Write,ACK
7.114298562500000,1456,0x3C,0x00,Write,ACK
7.114349250000000,1457,0x3C,0x40,Write,ACK
7.114371812500000,1457,0x3C,0xFF,Write,ACK
7.114422500000000,1458,0x3C,0x40,Write,ACK
7.114445062500000,1458,0x3C,0xFF,Write,ACK
7.114495812500000,1459,0x3C,0x40,Write,ACK
7.114518375000000,1459,0x3C,0xFF,Write,ACK
7.114569062500000,1460,0x3C,0x40,Write,ACK
7.114591625000000,1460,0x3C,0x80,Write,ACK
7.114642312500000,1461,0x3C,0x40,Write,ACK
7.114664875000000,1461,0x3C,0x00,Write,ACK
7.114715625000000,1462,0x3C,0x40,Write,ACK
7.114738187500000,1462,0x3C,0x00,Write,ACK
7.114788875000000,1463,0x3C,0x40,Write,ACK
7.114811437500000,1463,0x3C,0x80,Write,ACK
7.114862125000000,1464,0x3C,0x40,Write,ACK
7.114884687500000,1464,0x3C,0xFF,Write,ACK
7.114935437500000,1465,0x3C,0x40,Write,ACK
7.114958000000000,1465,0x3C,0xFF,Write,ACK
7.115006187500000,1466,0x1E,0x20,Write,ACK
7.115028687500000,1466,0x1E,0x7F,Write,NAK
7.115082000000000,1467,0x3C,0x40,Write,ACK
7.115104562500000,1467,0x3C,0x00,Write,ACK
7.115155250000000,1468,0x3C,0x40,Write,ACK
7.115177812500000,1468,0x3C,0x00,Write,ACK
7.115228500000000,1469,0x3C,0x40,Write,ACK
7.115251062500000,1469,0x3C,0x00,Write,ACK
7.115301812500000,1470,0x3C,0x40,Write,ACK
7.115324375000000,1470,0x3C,0x00,Write,ACK
7.115375062500000,1471,0x3C,0x40,Write,ACK
7.115397625000000,1471,0x3C,0x00,Write,ACK
7.115448312500000,1472,0x3C,0x40,Write,ACK
7.115470875000000,1472,0x3C,0x00,Write,ACK
7.115521625000000,1473,0x3C,0x40,Write,ACK
7.115544187500000,1473,0x3C,0x78,Write,ACK
7.115594875000000,1474,0x3C,0x40,Write,ACK
7.115617437500000,1474,0x3C,0x78,Write,ACK
7.115668125000000,1475,0x3C,0x40,Write,ACK
7.115690687500000,1475,0x3C,0x78,Write,ACK
7.115741437500000,1476,0x3C,0x40,Write,ACK
7.115764000000000,1476,0x3C,0x00,Write,ACK
7.115814687500000,1477,0x3C,0x40,Write,ACK
7.115837250000000,1477,0x3C,0x00,Write,ACK
7.115887937500000,1478,0x3C,0x40,Write,ACK
7.115910562500000,1478,0x3C,0x00,Write,ACK
7.115961250000000,1479,0x3C,0x40,Write,ACK
7.115983812500000,1479,0x3C,0x00,Write,ACK
7.116032000000000,1480,0x1E,0x20,Write,ACK
7.116054500000000,1480,0x1E,0x00,Write,ACK
7.116107750000000,1481,0x3C,0x40,Write,ACK
7.116130375000000,1481,0x3C,0xFF,Write,ACK
7.116181062500000,1482,0x3C,0x40,Write,ACK
7.116203625000000,1482,0x3C,0xFF,Write,ACK
7.116254312500000,1483,0x3C,0x40,Write,ACK
7.116276875000000,1483,0x3C,0xFF,Write,ACK
7.116327625000000,1484,0x3C,0x40,Write,ACK
7.116350187500000,1484,0x3C,0x80,Write,ACK
7.116400875000000,1485,0x3C,0x40,Write,ACK
7.116423437500000,1485,0x3C,0x00,Write,ACK
7.116474125000000,1486,0x3C,0x40,Write,ACK
7.116496687500000,1486,0x3C,0x00,Write,ACK
7.116547437500000,1487,0x3C,0x40,Write,ACK
7.116570000000000,1487,0x3C,0x80,Write,ACK
7.116620687500000,1488,0x3C,0x40,Write,ACK
7.116643250000000,1488,0x3C,0xFF,Write,ACK
7.116693937500000,1489,0x3C,0x40,Write,ACK
7.116716500000000,1489,0x3C,0xFF,Write,ACK
7.116767250000000,1490,0x3C,0x40,Write,ACK
7.116789812500000,1490,0x3C,0xFF,Write,ACK
7.116840500000000,1491,0x3C,0x40,Write,ACK
7.116863062500000,1491,0x3C,0x00,Write,ACK
7.116913750000000,1492,0x3C,0x40,Write,ACK
7.116936375000000,1492,0x3C,0x00,Write,ACK
7.116987062500000,1493,0x3C,0x40,Write,ACK
7.117009625000000,1493,0x3C,0xFF,Write,ACK
7.117057812500000,1494,0x1E,0x20,Write,ACK
7.117080312500000,1494,0x1E,0x7F,Write,NAK
7.117133562500000,1495,0x3C,0x40,Write,ACK
7.117156187500000,1495,0x3C,0xFF,Write,ACK
7.117206875000000,1496,0x3C,0x40,Write,ACK
7.117229437500000,1496,0x3C,0x80,Write,ACK
7.117280125000000,1497,0x3C,0x40,Write,ACK
7.117302687500000,1497,0x3C,0x00,Write,ACK
7.117353437500000,1498,0x3C,0x40,Write,ACK
7.117376000000000,1498,0x3C,0x00,Write,ACK
7.117426687500000,1499,0x3C,0x40,Write,ACK
7.117449250000000,1499,0x3C,0x80,Write,ACK
7.117499937500000,1500,0x3C,0x40,Write,ACK
7.117522500000000,1500,0x3C,0xFF,Write,ACK
7.117573250000000,1501,0x3C,0x40,Write,ACK
7.117595812500000,1501,0x3C,0xFF,Write,ACK
7.117646500000000,1502,0x3C,0x40,Write,ACK
7.117669062500000,1502,0x3C,0xFF,Write,ACK
7.117719750000000,1503,0x3C,0x40,Write,ACK
7.117742312500000,1503,0x3C,0x00,Write,ACK
7.117793062500000,1504,0x3C,0x40,Write,ACK
7.117815625000000,1504,0x3C,0x00,Write,ACK
7.117866312500000,1505,0x3C,0x40,Write,ACK
7.117888875000000,1505,0x3C,0x00,Write,ACK
7.117939562500000,1506,0x3C,0x40,Write,ACK
7.117962187500000,1506,0x3C,0x00,Write,ACK
7.118012875000000,1507,0x3C,0x40,Write,ACK
7.118035437500000,1507,0x3C,0x00,Write,ACK
7.118083625000000,1508,0x1E,0x20,Write,ACK
7.118106125000000,1508,0x1E,0x00,Write,ACK
7.118159375000000,1509,0x3C,0x40,Write,ACK
7.118182000000000,1509,0x3C,0x00,Write,ACK
7.118232687500000,1510,0x3C,0x40,Write,ACK
7.118255250000000,1510,0x3C,0x00,Write,ACK
7.118303437500000,1511,0x1E,0x20,Write,ACK
7.118325937500000,1511,0x1E,0x00,Write,ACK
7.118379250000000,1512,0x3C,0x40,Write,ACK
7.118401812500000,1512,0x3C,0x18,Write,ACK
7.118452500000000,1513,0x3C,0x40,Write,ACK
7.118475062500000,1513,0x3C,0x3C,Write,ACK
7.118525750000000,1514,0x3C,0x40,Write,ACK
7.118548312500000,1514,0x3C,0x64,Write,ACK
7.118599062500000,1515,0x3C,0x40,Write,ACK
7.118621625000000,1515,0x3C,0x44,Write,ACK
7.118672312500000,1516,0x3C,0x40,Write,ACK
7.118694875000000,1516,0x3C,0xC4,Write,ACK
7.118745562500000,1517,0x3C,0x40,Write,ACK
7.118768125000000,1517,0x3C,0x9C,Write,ACK
7.118818875000000,1518,0x3C,0x40,Write,ACK
7.118841437500000,1518,0x3C,0x18,Write,ACK
7.118892125000000,1519,0x3C,0x40,Write,ACK
7.118914687500000,1519,0x3C,0x00,Write,ACK
7.118965375000000,1520,0x3C,0x40,Write,ACK
7.118987937500000,1520,0x3C,0xFC,Write,ACK
7.119038687500000,1521,0x3C,0x40,Write,ACK
7.119061250000000,1521,0x3C,0xFC,Write,ACK
7.119109437500000,1522,0x1E,0x20,Write,ACK
7.119131937500000,1522,0x1E,0x00,Write,ACK
7.119185187500000,1523,0x3C,0x40,Write,ACK
7.119207812500000,1523,0x3C,0x00,Write,ACK
7.119258500000000,1524,0x3C,0x40,Write,ACK
7.119281062500000,1524,0x3C,0x00,Write,ACK
7.119329250000000,1525,0x1E,0x20,Write,ACK
7.119351750000000,1525,0x1E,0x7E,Write,ACK
7.119405062500000,1526,0x3C,0x40,Write,ACK
7.119427625000000,1526,0x3C,0xFC,Write,ACK
7.119478312500000,1527,0x3C,0x40,Write,ACK
7.119500875000000,1527,0x3C,0x00,Write,ACK
7.119551562500000,1528,0x3C,0x40,Write,ACK
7.119574125000000,1528,0x3C,0xFC,Write,ACK
7.119624875000000,1529,0x3C,0x40,Write,ACK
7.119647437500000,1529,0x3C,0xFC,Write,ACK
7.119698125000000,1530,0x3C,0x40,Write,ACK
7.119720687500000,1530,0x3C,0x38,Write,ACK
7.119771375000000,1531,0x3C,0x40,Write,ACK
7.119793937500000,1531,0x3C,0x70,Write,ACK
7.119844687500000,1532,0x3C,0x40,Write,ACK
7.119867250000000,1532,0x3C,0xE0,Write,ACK
7.119917937500000,1533,0x3C,0x40,Write,ACK
7.119940500000000,1533,0x3C,0xFC,Write,ACK
7.119991187500000,1534,0x3C,0x40,Write,ACK
7.120013750000000,1534,0x3C,0xFC,Write,ACK
7.120064500000000,1535,0x3C,0x40,Write,ACK
7.120087062500000,1535,0x3C,0x00,Write,ACK
7.120137750000000,1536,0x3C,0x40,Write,ACK
7.120160312500000,1536,0x3C,0x00,Write,ACK
7.120211000000000,1537,0x3C,0x40,Write,ACK
7.120233625000000,1537,0x3C,0x00,Write,ACK
7.120284312500000,1538,0x3C,0x40,Write,ACK
7.120306875000000,1538,0x3C,0x00,Write,ACK
7.120355062500000,1539,0x1E,0x20,Write,ACK
7.120377562500000,1539,0x1E,0x00,Write,ACK
7.120431187500000,1540,0x3C,0x00,Write,ACK
7.120453750000000,1540,0x3C,0xB3,Write,ACK
7.120504000000000,1541,0x3C,0x00,Write,ACK
7.120526562500000,1541,0x3C,0x10,Write,ACK
7.120576812500000,1542,0x3C,0x00,Write,ACK
7.120599375000000,1542,0x3C,0x00,Write,ACK
7.120649875000000,1543,0x3C,0x40,Write,ACK
7.120672500000000,1543,0x3C,0x00,Write,ACK
7.120723187500000,1544,0x3C,0x40,Write,ACK
7.120745750000000,1544,0x3C,0x00,Write,ACK
7.120796437500000,1545,0x3C,0x40,Write,ACK
7.120819000000000,1545,0x3C,0x03,Write,ACK
7.120869750000000,1546,0x3C,0x40,Write,ACK
7.120892312500000,1546,0x3C,0x04,Write,ACK
7.120943000000000,1547,0x3C,0x40,Write,ACK
7.120965562500000,1547,0x3C,0x05,Write,ACK
7.121016250000000,1548,0x3C,0x40,Write,ACK
7.121038812500000,1548,0x3C,0x05,Write,ACK
7.121089562500000,1549,0x3C,0x40,Write,ACK
7.121112125000000,1549,0x3C,0x05,Write,ACK
7.121162812500000,1550,0x3C,0x40,Write,ACK
7.121185375000000,1550,0x3C,0x05,Write,ACK
7.121236062500000,1551,0x3C,0x40,Write,ACK
7.121258687500000,1551,0x3C,0x05,Write,ACK
7.121309375000000,1552,0x3C,0x40,Write,ACK
7.121331937500000,1552,0x3C,0x05,Write,ACK
7.121380125000000,1553,0x1E,0x20,Write,ACK
7.121402625000000,1553,0x1E,0x02,Write,NAK
7.121455937500000,1554,0x3C,0x40,Write,ACK
7.121478500000000,1554,0x3C,0x05,Write,ACK
7.121529187500000,1555,0x3C,0x40,Write,ACK
7.121551750000000,1555,0x3C,0x04,Write,ACK
7.121602437500000,1556,0x3C,0x40,Write,ACK
7.121625000000000,1556,0x3C,0x03,Write,ACK
7.121675750000000,1557,0x3C,0x40,Write,ACK
7.121698312500000,1557,0x3C,0x00,Write,ACK
7.121749000000000,1558,0x3C,0x40,Write,ACK
7.121771562500000,1558,0x3C,0x00,Write,ACK
7.121822250000000,1559,0x3C,0x40,Write,ACK
7.121844812500000,1559,0x3C,0x00,Write,ACK
7.121895562500000,1560,0x3C,0x40,Write,ACK
7.121918125000000,1560,0x3C,0x00,Write,ACK
7.121968812500000,1561,0x3C,0x40,Write,ACK
7.121991375000000,1561,0x3C,0x00,Write,ACK
7.122042062500000,1562,0x3C,0x40,Write,ACK
7.122064625000000,1562,0x3C,0x00,Write,ACK
7.122115375000000,1563,0x3C,0x40,Write,ACK
7.122137937500000,1563,0x3C,0x00,Write,ACK
7.122188625000000,1564,0x3C,0x40,Write,ACK
7.122211187500000,1564,0x3C,0x00,Write,ACK
7.122261875000000,1565,0x3C,0x40,Write,ACK
7.122284500000000,1565,0x3C,0x00,Write,ACK
7.122335187500000,1566,0x3C,0x40,Write,ACK
7.122357750000000,1566,0x3C,0x00,Write,ACK
7.122405937500000,1567,0x1E,0x20,Write,ACK
7.122428437500000,1567,0x1E,0x00,Write,ACK
7.122481687500000,1568,0x3C,0x40,Write,ACK
7.122504312500000,1568,0x3C,0x00,Write,ACK
7.122555000000000,1569,0x3C,0x40,Write,ACK
7.122577562500000,1569,0x3C,0x00,Write,ACK
7.122628250000000,1570,0x3C,0x40,Write,ACK
7.122650812500000,1570,0x3C,0x00,Write,ACK
7.122701562500000,1571,0x3C,0x40,Write,ACK
7.122724125000000,1571,0x3C,0x00,Write,ACK
7.122774812500000,1572,0x3C,0x40,Write,ACK
7.122797375000000,1572,0x3C,0x00,Write,ACK
7.122848062500000,1573,0x3C,0x40,Write,ACK
7.122870625000000,1573,0x3C,0x00,Write,ACK
7.122921375000000,1574,0x3C,0x40,Write,ACK
7.122943937500000,1574,0x3C,0x00,Write,ACK
7.122994625000000,1575,0x3C,0x40,Write,ACK
7.123017187500000,1575,0x3C,0x00,Write,ACK
7.123067875000000,1576,0x3C,0x40,Write,ACK
7.123090437500000,1576,0x3C,0x01,Write,ACK
7.123141187500000,1577,0x3C,0x40,Write,ACK
7.123163750000000,1577,0x3C,0x03,Write,ACK
7.123214437500000,1578,0x3C,0x40,Write,ACK
7.123237000000000,1578,0x3C,0x07,Write,ACK
7.123287687500000,1579,0x3C,0x40,Write,ACK
7.123310312500000,1579,0x3C,0x07,Write,ACK
7.123361000000000,1580,0x3C,0x40,Write,ACK
7.123383562500000,1580,0x3C,0x07,Write,ACK
7.123431750000000,1581,0x1E,0x20,Write,ACK
7.123454250000000,1581,0x1E,0x03,Write,NAK
7.123507500000000,1582,0x3C,0x40,Write,ACK
7.123530125000000,1582,0x3C,0x07,Write,ACK
7.123580812500000,1583,0x3C,0x40,Write,ACK
7.123603375000000,1583,0x3C,0x07,Write,ACK
7.123651562500000,1584,0x1E,0x20,Write,ACK
7.123674062500000,1584,0x1E,0x01,Write,NAK
7.123727375000000,1585,0x3C,0x40,Write,ACK
7.123749937500000,1585,0x3C,0x01,Write,ACK
7.123800625000000,1586,0x3C,0x40,Write,ACK
7.123823187500000,1586,0x3C,0x00,Write,ACK
7.123873875000000,1587,0x3C,0x40,Write,ACK
7.123896437500000,1587,0x3C,0x00,Write,ACK
7.123947187500000,1588,0x3C,0x40,Write,ACK
7.123969750000000,1588,0x3C,0x01,Write,ACK
7.124020437500000,1589,0x3C,0x40,Write,ACK
7.124043000000000,1589,0x3C,0x03,Write,ACK
7.124093687500000,1590,0x3C,0x40,Write,ACK
7.124116250000000,1590,0x3C,0x07,Write,ACK
7.124167000000000,1591,0x3C,0x40,Write,ACK
7.124189562500000,1591,0x3C,0x07,Write,ACK
7.124240250000000,1592,0x3C,0x40,Write,ACK
7.124262812500000,1592,0x3C,0x07,Write,ACK
7.124313500000000,1593,0x3C,0x40,Write,ACK
7.124336062500000,1593,0x3C,0x07,Write,ACK
7.124386812500000,1594,0x3C,0x40,Write,ACK
7.124409375000000,1594,0x3C,0x07,Write,ACK
7.124457562500000,1595,0x1E,0x20,Write,ACK
7.124480062500000,1595,0x1E,0x03,Write,NAK
7.124533312500000,1596,0x3C,0x40,Write,ACK
7.124555937500000,1596,0x3C,0x03,Write,ACK
7.124606625000000,1597,0x3C,0x40,Write,ACK
7.124629187500000,1597,0x3C,0x01,Write,ACK
7.124677375000000,1598,0x1E,0x20,Write,ACK
7.124699875000000,1598,0x1E,0x00,Write,ACK
7.124753187500000,1599,0x3C,0x40,Write,ACK
7.124775750000000,1599,0x3C,0x00,Write,ACK
7.124826437500000,1600,0x3C,0x40,Write,ACK
7.124849000000000,1600,0x3C,0x00,Write,ACK
7.124899687500000,1601,0x3C,0x40,Write,ACK
7.124922250000000,1601,0x3C,0x00,Write,ACK
7.124973000000000,1602,0x3C,0x40,Write,ACK
7.124995562500000,1602,0x3C,0x00,Write,ACK
7.125046250000000,1603,0x3C,0x40,Write,ACK
7.125068812500000,1603,0x3C,0x00,Write,ACK
7.125119500000000,1604,0x3C,0x40,Write,ACK
7.125142062500000,1604,0x3C,0x00,Write,ACK
7.125192812500000,1605,0x3C,0x40,Write,ACK
7.125215375000000,1605,0x3C,0x00,Write,ACK
7.125266062500000,1606,0x3C,0x40,Write,ACK
7.125288625000000,1606,0x3C,0x00,Write,ACK
7.125339312500000,1607,0x3C,0x40,Write,ACK
7.125361875000000,1607,0x3C,0x00,Write,ACK
7.125412625000000,1608,0x3C,0x40,Write,ACK
7.125435187500000,1608,0x3C,0x00,Write,ACK
7.125483375000000,1609,0x1E,0x20,Write,ACK
7.125505875000000,1609,0x1E,0x00,Write,ACK
7.125559125000000,1610,0x3C,0x40,Write,ACK
7.125581750000000,1610,0x3C,0x00,Write,ACK
7.125632437500000,1611,0x3C,0x40,Write,ACK
7.125655000000000,1611,0x3C,0x00,Write,ACK
7.125703187500000,1612,0x1E,0x20,Write,ACK
7.125725687500000,1612,0x1E,0x00,Write,NAK
7.125779000000000,1613,0x3C,0x40,Write,ACK
7.125801562500000,1613,0x3C,0x03,Write,ACK
7.125852250000000,1614,0x3C,0x40,Write,ACK
7.125874812500000,1614,0x3C,0x07,Write,ACK
7.125925500000000,1615,0x3C,0x40,Write,ACK
7.125948062500000,1615,0x3C,0x07,Write,ACK
7.125998812500000,1616,0x3C,0x40,Write,ACK
7.126021375000000,1616,0x3C,0x07,Write,ACK
7.126072062500000,1617,0x3C,0x40,Write,ACK
7.126094625000000,1617,0x3C,0x07,Write,ACK
7.126145312500000,1618,0x3C,0x40,Write,ACK
7.126167875000000,1618,0x3C,0x07,Write,ACK
7.126218625000000,1619,0x3C,0x40,Write,ACK
7.126241187500000,1619,0x3C,0x07,Write,ACK
7.126291875000000,1620,0x3C,0x40,Write,ACK
7.126314437500000,1620,0x3C,0x03,Write,ACK
7.126365125000000,1621,0x3C,0x40,Write,ACK
7.126387687500000,1621,0x3C,0x01,Write,ACK
7.126438437500000,1622,0x3C,0x40,Write,ACK
7.126461000000000,1622,0x3C,0x00,Write,ACK
7.126511687500000,1623,0x3C,0x40,Write,ACK
7.126534250000000,1623,0x3C,0x00,Write,ACK
7.126584937500000,1624,0x3C,0x40,Write,ACK
7.126607562500000,1624,0x3C,0x01,Write,ACK
7.126658250000000,1625,0x3C,0x40,Write,ACK
7.126680812500000,1625,0x3C,0x03,Write,ACK
7.126729000000000,1626,0x1E,0x20,Write,ACK
7.126751500000000,1626,0x1E,0x03,Write,NAK
7.126804812500000,1627,0x3C,0x40,Write,ACK
7.126827375000000,1627,0x3C,0x07,Write,ACK
7.126878062500000,1628,0x3C,0x40,Write,ACK
7.126900625000000,1628,0x3C,0x07,Write,ACK
7.126951312500000,1629,0x3C,0x40,Write,ACK
7.126973875000000,1629,0x3C,0x07,Write,ACK
7.127024625000000,1630,0x3C,0x40,Write,ACK
7.127047187500000,1630,0x3C,0x07,Write,ACK
7.127097875000000,1631,0x3C,0x40,Write,ACK
7.127120437500000,1631,0x3C,0x07,Write,ACK
7.127171125000000,1632,0x3C,0x40,Write,ACK
7.127193687500000,1632,0x3C,0x03,Write,ACK
7.127244437500000,1633,0x3C,0x40,Write,ACK
7.127267000000000,1633,0x3C,0x01,Write,ACK
7.127317687500000,1634,0x3C,0x40,Write,ACK
7.127340250000000,1634,0x3C,0x00,Write,ACK
7.127390937500000,1635,0x3C,0x40,Write,ACK
7.127413500000000,1635,0x3C,0x00,Write,ACK
7.127464250000000,1636,0x3C,0x40,Write,ACK
7.127486812500000,1636,0x3C,0x00,Write,ACK
7.127537500000000,1637,0x3C,0x40,Write,ACK
7.127560062500000,1637,0x3C,0x00,Write,ACK
7.127610750000000,1638,0x3C,0x40,Write,ACK
7.127633375000000,1638,0x3C,0x00,Write,ACK
7.127684062500000,1639,0x3C,0x40,Write,ACK
7.127706625000000,1639,0x3C,0x00,Write,ACK
7.127754812500000,1640,0x1E,0x20,Write,ACK
7.127777312500000,1640,0x1E,0x00,Write,ACK
7.127830625000000,1641,0x3C,0x40,Write,ACK
7.127853187500000,1641,0x3C,0x00,Write,ACK
7.127903875000000,1642,0x3C,0x40,Write,ACK
7.127926437500000,1642,0x3C,0x00,Write,ACK
7.127977125000000,1643,0x3C,0x40,Write,ACK
7.127999687500000,1643,0x3C,0x06,Write,ACK
7.128050437500000,1644,0x3C,0x40,Write,ACK
7.128073000000000,1644,0x3C,0x0E,Write,ACK
7.128123687500000,1645,0x3C,0x40,Write,ACK
7.128146250000000,1645,0x3C,0x08,Write,ACK
7.128196937500000,1646,0x3C,0x40,Write,ACK
7.128219500000000,1646,0x3C,0x08,Write,ACK
7.128270250000000,1647,0x3C,0x40,Write,ACK
7.128292812500000,1647,0x3C,0x08,Write,ACK
7.128343500000000,1648,0x3C,0x40,Write,ACK
7.128366062500000,1648,0x3C,0x0F,Write,ACK
7.128416750000000,1649,0x3C,0x40,Write,ACK
7.128439312500000,1649,0x3C,0x07,Write,ACK
7.128490062500000,1650,0x3C,0x40,Write,ACK
7.128512625000000,1650,0x3C,0x00,Write,ACK
7.128563312500000,1651,0x3C,0x40,Write,ACK
7.128585875000000,1651,0x3C,0x07,Write,ACK
7.128636562500000,1652,0x3C,0x40,Write,ACK
7.128659187500000,1652,0x3C,0x0F,Write,ACK
7.128709875000000,1653,0x3C,0x40,Write,ACK
7.128732437500000,1653,0x3C,0x08,Write,ACK
7.128780625000000,1654,0x1E,0x20,Write,ACK
7.128803125000000,1654,0x1E,0x04,Write,ACK
7.128856375000000,1655,0x3C,0x40,Write,ACK
7.128879000000000,1655,0x3C,0x08,Write,ACK
7.128929687500000,1656,0x3C,0x40,Write,ACK
7.128952250000000,1656,0x3C,0x0F,Write,ACK
7.129002937500000,1657,0x3C,0x40,Write,ACK
7.129025500000000,1657,0x3C,0x07,Write,ACK
7.129076250000000,1658,0x3C,0x40,Write,ACK
7.129098812500000,1658,0x3C,0x00,Write,ACK
7.129149500000000,1659,0x3C,0x40,Write,ACK
7.129172062500000,1659,0x3C,0x0F,Write,ACK
7.129222750000000,1660,0x3C,0x40,Write,ACK
7.129245312500000,1660,0x3C,0x0F,Write,ACK
7.129296062500000,1661,0x3C,0x40,Write,ACK
7.129318625000000,1661,0x3C,0x00,Write,ACK
7.129369312500000,1662,0x3C,0x40,Write,ACK
7.129391875000000,1662,0x3C,0x00,Write,ACK
7.129442562500000,1663,0x3C,0x40,Write,ACK
7.129465125000000,1663,0x3C,0x00,Write,ACK
7.129515875000000,1664,0x3C,0x40,Write,ACK
7.129538437500000,1664,0x3C,0x0F,Write,ACK
7.129589125000000,1665,0x3C,0x40,Write,ACK
7.129611687500000,1665,0x3C,0x0F,Write,ACK
7.129662375000000,1666,0x3C,0x40,Write,ACK
7.129685000000000,1666,0x3C,0x00,Write,ACK
7.129735687500000,1667,0x3C,0x40,Write,ACK
7.129758250000000,1667,0x3C,0x00,Write,ACK
7.129806437500000,1668,0x1E,0x20,Write,ACK
7.129828937500000,1668,0x1E,0x00,Write,ACK
7.129882187500000,1669,0x3C,0x40,Write,ACK
7.129904812500000,1669,0x3C,0x00,Write,ACK
7.129955500000000,1670,0x3C,0x40,Write,ACK
7.129978062500000,1670,0x3C,0x00,Write,ACK
7.181683437500000,1671,0x3C,0x00,Write,ACK
7.181706000000000,1671,0x3C,0xB0,Write,ACK
7.181756312500000,1672,0x3C,0x00,Write,ACK
7.181778875000000,1672,0x3C,0x10,Write,ACK
7.181829125000000,1673,0x3C,0x00,Write,ACK
7.181851687500000,1673,0x3C,0x00,Write,ACK
7.181902187500000,1674,0x3C,0x40,Write,ACK
7.181924812500000,1674,0x3C,0x00,Write,ACK
7.181975500000000,1675,0x3C,0x40,Write,ACK
7.181998062500000,1675,0x3C,0x00,Write,ACK
7.182046250000000,1676,0x1E,0x20,Write,ACK
7.182068750000000,1676,0x1E,0x00,Write,ACK
7.182122000000000,1677,0x3C,0x40,Write,ACK
7.182144625000000,1677,0x3C,0x80,Write,ACK
7.182195312500000,1678,0x3C,0x40,Write,ACK
7.182217875000000,1678,0x3C,0x80,Write,ACK
7.182268562500000,1679,0x3C,0x40,Write,ACK
7.182291125000000,1679,0x3C,0xC0,Write,ACK
7.182341875000000,1680,0x3C,0x40,Write,ACK
7.182364437500000,1680,0x3C,0xC0,Write,ACK
7.182415125000000,1681,0x3C,0x40,Write,ACK
7.182437687500000,1681,0x3C,0xC0,Write,ACK
7.182488375000000,1682,0x3C,0x40,Write,ACK
7.182510937500000,1682,0x3C,0xC0,Write,ACK
7.182561687500000,1683,0x3C,0x40,Write,ACK
7.182584250000000,1683,0x3C,0xC0,Write,ACK
7.182634937500000,1684,0x3C,0x40,Write,ACK
7.182657500000000,1684,0x3C,0xC0,Write,ACK
7.182708187500000,1685,0x3C,0x40,Write,ACK
7.182730750000000,1685,0x3C,0x80,Write,ACK
7.182781500000000,1686,0x3C,0x40,Write,ACK
7.182804062500000,1686,0x3C,0x80,Write,ACK
7.182854750000000,1687,0x3C,0x40,Write,ACK
7.182877312500000,1687,0x3C,0x00,Write,ACK
7.182928000000000,1688,0x3C,0x40,Write,ACK
7.182950625000000,1688,0x3C,0x00,Write,ACK
7.183001312500000,1689,0x3C,0x40,Write,ACK
7.183023875000000,1689,0x3C,0x00,Write,ACK
7.183072062500000,1690,0x1E,0x20,Write,ACK
7.183094562500000,1690,0x1E,0x60,Write,ACK
7.183147812500000,1691,0x3C,0x40,Write,ACK
7.183170437500000,1691,0x3C,0x80,Write,ACK
7.183221125000000,1692,0x3C,0x40,Write,ACK
7.183243687500000,1692,0x3C,0x00,Write,ACK
7.183294375000000,1693,0x3C,0x40,Write,ACK
7.183316937500000,1693,0x3C,0xE0,Write,ACK
7.183367687500000,1694,0x3C,0x40,Write,ACK
7.183390250000000,1694,0x3C,0xC0,Write,ACK
7.183440937500000,1695,0x3C,0x40,Write,ACK
7.183463500000000,1695,0x3C,0x80,Write,ACK
7.183514187500000,1696,0x3C,0x40,Write,ACK
7.183536750000000,1696,0x3C,0x00,Write,ACK
7.183587500000000,1697,0x3C,0x40,Write,ACK
7.183610062500000,1697,0x3C,0x00,Write,ACK
7.183660750000000,1698,0x3C,0x40,Write,ACK
7.183683312500000,1698,0x3C,0x00,Write,ACK
7.183734000000000,1699,0x3C,0x40,Write,ACK
7.183756562500000,1699,0x3C,0x00,Write,ACK
7.183807312500000,1700,0x3C,0x40,Write,ACK
7.183829875000000,1700,0x3C,0x00,Write,ACK
7.183880562500000,1701,0x3C,0x40,Write,ACK
7.183903125000000,1701,0x3C,0x00,Write,ACK
7.183953812500000,1702,0x3C,0x40,Write,ACK
7.183976437500000,1702,0x3C,0x00,Write,ACK
7.184027125000000,1703,0x3C,0x40,Write,ACK
7.184049687500000,1703,0x3C,0x00,Write,ACK
7.184097875000000,1704,0x1E,0x20,Write,ACK
7.184120375000000,1704,0x1E,0x00,Write,ACK
7.184173625000000,1705,0x3C,0x40,Write,ACK
7.184196250000000,1705,0x3C,0x00,Write,ACK
7.184246937500000,1706,0x3C,0x40,Write,ACK
7.184269500000000,1706,0x3C,0x00,Write,ACK
7.184317687500000,1707,0x1E,0x20,Write,ACK
7.184340187500000,1707,0x1E,0x00,Write,ACK
7.184393500000000,1708,0x3C,0x40,Write,ACK
7.184416062500000,1708,0x3C,0x80,Write,ACK
7.184466750000000,1709,0x3C,0x40,Write,ACK
7.184489312500000,1709,0x3C,0xC0,Write,ACK
7.184540000000000,1710,0x3C,0x40,Write,ACK
7.184562562500000,1710,0x3C,0xC0,Write,ACK
7.184613312500000,1711,0x3C,0x40,Write,ACK
7.184635875000000,1711,0x3C,0xC0,Write,ACK
7.184686562500000,1712,0x3C,0x40,Write,ACK
7.184709125000000,1712,0x3C,0xC0,Write,ACK
7.184759812500000,1713,0x3C,0x40,Write,ACK
7.184782375000000,1713,0x3C,0xC0,Write,ACK
7.184833125000000,1714,0x3C,0x40,Write,ACK
7.184855687500000,1714,0x3C,0xC0,Write,ACK
7.184906375000000,1715,0x3C,0x40,Write,ACK
7.184928937500000,1715,0x3C,0x80,Write,ACK
7.184979625000000,1716,0x3C,0x40,Write,ACK
7.185002187500000,1716,0x3C,0x00,Write,ACK
7.185052937500000,1717,0x3C,0x40,Write,ACK
7.185075500000000,1717,0x3C,0x00,Write,ACK
7.185123687500000,1718,0x1E,0x20,Write,ACK
7.185146187500000,1718,0x1E,0x00,Write,ACK
7.185199437500000,1719,0x3C,0x40,Write,ACK
7.185222062500000,1719,0x3C,0x00,Write,ACK
7.185272750000000,1720,0x3C,0x40,Write,ACK
7.185295312500000,1720,0x3C,0x80,Write,ACK
7.185343500000000,1721,0x1E,0x20,Write,ACK
7.185366000000000,1721,0x1E,0x60,Write,ACK
7.185419312500000,1722,0x3C,0x40,Write,ACK
7.185441875000000,1722,0x3C,0xC0,Write,ACK
7.185492562500000,1723,0x3C,0x40,Write,ACK
7.185515125000000,1723,0x3C,0xC0,Write,ACK
7.185565812500000,1724,0x3C,0x40,Write,ACK
7.185588375000000,1724,0x3C,0xC0,Write,ACK
7.185639125000000,1725,0x3C,0x40,Write,ACK
7.185661687500000,1725,0x3C,0xC0,Write,ACK
7.185712375000000,1726,0x3C,0x40,Write,ACK
7.185734937500000,1726,0x3C,0xC0,Write,ACK
7.185785625000000,1727,0x3C,0x40,Write,ACK
7.185808187500000,1727,0x3C,0x80,Write,ACK
7.185858937500000,1728,0x3C,0x40,Write,ACK
7.185881500000000,1728,0x3C,0x00,Write,ACK
7.185932187500000,1729,0x3C,0x40,Write,ACK
7.185954750000000,1729,0x3C,0x00,Write,ACK
7.186005437500000,1730,0x3C,0x40,Write,ACK
7.186028000000000,1730,0x3C,0x00,Write,ACK
7.186078750000000,1731,0x3C,0x40,Write,ACK
7.186101312500000,1731,0x3C,0x00,Write,ACK
7.186149500000000,1732,0x1E,0x20,Write,ACK
7.186172000000000,1732,0x1E,0x00,Write,ACK
7.186225250000000,1733,0x3C,0x40,Write,ACK
7.186247875000000,1733,0x3C,0x00,Write,ACK
7.186298562500000,1734,0x3C,0x40,Write,ACK
7.186321125000000,1734,0x3C,0x00,Write,ACK
7.186369312500000,1735,0x1E,0x20,Write,ACK
7.186391812500000,1735,0x1E,0x00,Write,ACK
7.186445125000000,1736,0x3C,0x40,Write,ACK
7.186467687500000,1736,0x3C,0x00,Write,ACK
7.186518375000000,1737,0x3C,0x40,Write,ACK
7.186540937500000,1737,0x3C,0x00,Write,ACK
7.186591625000000,1738,0x3C,0x40,Write,ACK
7.186614187500000,1738,0x3C,0x00,Write,ACK
7.186664937500000,1739,0x3C,0x40,Write,ACK
7.186687500000000,1739,0x3C,0x00,Write,ACK
7.186738187500000,1740,0x3C,0x40,Write,ACK
7.186760750000000,1740,0x3C,0x00,Write,ACK
7.186811437500000,1741,0x3C,0x40,Write,ACK
7.186834000000000,1741,0x3C,0x00,Write,ACK
7.186884750000000,1742,0x3C,0x40,Write,ACK
7.186907312500000,1742,0x3C,0x00,Write,ACK
7.186958000000000,1743,0x3C,0x40,Write,ACK
7.186980562500000,1743,0x3C,0x00,Write,ACK
7.187031250000000,1744,0x3C,0x40,Write,ACK
7.187053812500000,1744,0x3C,0x80,Write,ACK
7.187104562500000,1745,0x3C,0x40,Write,ACK
7.187127125000000,1745,0x3C,0xC0,Write,ACK
7.187177812500000,1746,0x3C,0x40,Write,ACK
7.187200375000000,1746,0x3C,0xC0,Write,ACK
7.187251062500000,1747,0x3C,0x40,Write,ACK
7.187273625000000,1747,0x3C,0xC0,Write,ACK
7.187324375000000,1748,0x3C,0x40,Write,ACK
7.187346937500000,1748,0x3C,0xC0,Write,ACK
7.187395125000000,1749,0x1E,0x20,Write,ACK
7.187417625000000,1749,0x1E,0x60,Write,ACK
7.187470937500000,1750,0x3C,0x40,Write,ACK
7.187493500000000,1750,0x3C,0xC0,Write,ACK
7.187544187500000,1751,0x3C,0x40,Write,ACK
7.187566750000000,1751,0x3C,0x80,Write,ACK
7.187617437500000,1752,0x3C,0x40,Write,ACK
7.187640000000000,1752,0x3C,0x00,Write,ACK
7.187690750000000,1753,0x3C,0x40,Write,ACK
7.187713312500000,1753,0x3C,0x00,Write,ACK
7.187764000000000,1754,0x3C,0x40,Write,ACK
7.187786562500000,1754,0x3C,0x00,Write,ACK
7.187837250000000,1755,0x3C,0x40,Write,ACK
7.187859812500000,1755,0x3C,0x00,Write,ACK
7.187910562500000,1756,0x3C,0x40,Write,ACK
7.187933125000000,1756,0x3C,0x80,Write,ACK
7.187983812500000,1757,0x3C,0x40,Write,ACK
7.188006375000000,1757,0x3C,0xC0,Write,ACK
7.188057062500000,1758,0x3C,0x40,Write,ACK
7.188079625000000,1758,0x3C,0xC0,Write,ACK
7.188130375000000,1759,0x3C,0x40,Write,ACK
7.188152937500000,1759,0x3C,0xC0,Write,ACK
7.188203625000000,1760,0x3C,0x40,Write,ACK
7.188226187500000,1760,0x3C,0xC0,Write,ACK
7.188276875000000,1761,0x3C,0x40,Write,ACK
7.188299437500000,1761,0x3C,0xC0,Write,ACK
7.188350187500000,1762,0x3C,0x40,Write,ACK
7.188372750000000,1762,0x3C,0xC0,Write,ACK
7.188420937500000,1763,0x1E,0x20,Write,ACK
7.188443437500000,1763,0x1E,0x40,Write,ACK
7.188496687500000,1764,0x3C,0x40,Write,ACK
7.188519312500000,1764,0x3C,0x00,Write,ACK
7.188570000000000,1765,0x3C,0x40,Write,ACK
7.188592562500000,1765,0x3C,0x00,Write,ACK
