Time [s],Packet ID,Address,Data,Read/Write,ACK/NAK
0.104803375000000,0,0x18,0x0E,Write,ACK
0.104851500000000,1,0x18,0x1E,Read,NAK
0.104928937500000,2,0x18,0x3F,Write,ACK
0.104951437500000,2,0x18,0x8C,Write,ACK
0.104972000000000,2,0x18,0x87,Write,ACK
0.104994500000000,2,0x18,0x80,Write,ACK
0.105017000000000,2,0x18,0x9C,Write,ACK
0.105039500000000,2,0x18,0xBF,Write,ACK
0.105062062500000,2,0x18,0x0C,Write,ACK
0.105084562500000,2,0x18,0x87,Write,NAK
0.105107062500000,2,0x18,0x1F,Write,ACK
0.105129562500000,2,0x18,0x80,Write,ACK
0.105152062500000,2,0x18,0x0A,Write,ACK
0.105174562500000,2,0x18,0xBF,Write,ACK
0.105197062500000,2,0x18,0x38,Write,ACK
0.105219562500000,2,0x18,0x87,Write,NAK
0.105242062500000,2,0x18,0x39,Write,ACK
0.105264562500000,2,0x18,0x80,Write,ACK
0.105287125000000,2,0x18,0x0F,Write,ACK
0.105309625000000,2,0x18,0xBF,Write,ACK
0.105332125000000,2,0x18,0x0E,Write,ACK
0.105354625000000,2,0x18,0x87,Write,NAK
0.105377125000000,2,0x18,0x3D,Write,ACK
0.105399625000000,2,0x18,0x80,Write,ACK
0.105422125000000,2,0x18,0x0D,Write,ACK
0.105444625000000,2,0x18,0xBF,Write,ACK
0.105467187500000,2,0x18,0x15,Write,ACK
0.105489687500000,2,0x18,0x87,Write,NAK
0.105512187500000,2,0x18,0x00,Write,ACK
0.105534687500000,2,0x18,0x80,Write,ACK
0.105557187500000,2,0x18,0x92,Write,ACK
0.105579687500000,2,0x18,0xBF,Write,ACK
0.105602187500000,2,0x18,0x13,Write,ACK
0.105624687500000,2,0x18,0x87,Write,NAK
0.105690625000000,3,0x18,0x3F,Write,ACK
0.105738687500000,4,0x18,0x85,Read,ACK
0.105761187500000,4,0x18,0x00,Read,ACK
0.105783687500000,4,0x18,0x41,Read,ACK
0.105806187500000,4,0x18,0xFC,Read,ACK
0.105828687500000,4,0x18,0xAD,Read,ACK
0.105851187500000,4,0x18,0x1E,Read,ACK
0.105873687500000,4,0x18,0x9D,Read,ACK
0.105896250000000,4,0x18,0x00,Read,ACK
0.105918750000000,4,0x18,0x3D,Read,ACK
0.105941250000000,4,0x18,0xFC,Read,ACK
0.105963750000000,4,0x18,0x21,Read,ACK
0.105986250000000,4,0x18,0x1E,Read,ACK
0.106008750000000,4,0x18,0x8D,Read,ACK
0.106031250000000,4,0x18,0x00,Read,ACK
0.106053750000000,4,0x18,0x75,Read,ACK
0.106076250000000,4,0x18,0xFC,Read,ACK
0.106098812500000,4,0x18,0xA5,Read,ACK
0.106121312500000,4,0x18,0x1E,Read,ACK
0.106143812500000,4,0x18,0x05,Read,ACK
0.106166312500000,4,0x18,0x01,Read,ACK
0.106188812500000,4,0x18,0x3D,Read,ACK
0.106211312500000,4,0x18,0xFC,Read,ACK
0.106233812500000,4,0x18,0xC1,Read,ACK
0.106256312500000,4,0x18,0x1E,Read,ACK
0.106278812500000,4,0x18,0x29,Read,ACK
0.106301375000000,4,0x18,0x01,Read,ACK
0.106323875000000,4,0x18,0x49,Read,ACK
0.106346375000000,4,0x18,0xFC,Read,ACK
0.106368875000000,4,0x18,0x19,Read,ACK
0.106391375000000,4,0x18,0x1E,Read,NAK
0.106452250000000,5,0x18,0x3F,Write,ACK
0.106500375000000,6,0x18,0x0D,Read,ACK
0.106522875000000,6,0x18,0x01,Read,ACK
0.106545375000000,6,0x18,0x59,Read,ACK
0.106567875000000,6,0x18,0xFC,Read,ACK
0.106590375000000,6,0x18,0xA9,Read,ACK
0.106612875000000,6,0x18,0x1E,Read,ACK
0.106635375000000,6,0x18,0xE5,Read,ACK
0.106657875000000,6,0x18,0x00,Read,ACK
0.106680375000000,6,0x18,0x45,Read,ACK
0.106702875000000,6,0x18,0xFC,Read,ACK
0.106725437500000,6,0x18,0x25,Read,ACK
0.106747937500000,6,0x18,0x1E,Read,ACK
0.106770437500000,6,0x18,0x11,Read,ACK
0.106792937500000,6,0x18,0x01,Read,ACK
0.106815437500000,6,0x18,0x4D,Read,ACK
0.106837937500000,6,0x18,0xFC,Read,ACK
0.106860437500000,6,0x18,0x1D,Read,ACK
0.106882937500000,6,0x18,0x1E,Read,ACK
0.106905500000000,6,0x18,0x01,Read,ACK
0.106928000000000,6,0x18,0x01,Read,ACK
0.106950500000000,6,0x18,0x49,Read,ACK
0.106973000000000,6,0x18,0xFC,Read,ACK
0.106995500000000,6,0x18,0xCD,Read,ACK
0.107018000000000,6,0x18,0x1E,Read,ACK
0.107040500000000,6,0x18,0x15,Read,ACK
0.107063000000000,6,0x18,0x01,Read,ACK
0.107085500000000,6,0x18,0x31,Read,ACK
0.107108000000000,6,0x18,0xFC,Read,ACK
0.107130562500000,6,0x18,0xBD,Read,ACK
0.107153062500000,6,0x18,0x1E,Read,NAK
0.107213937500000,7,0x18,0x3F,Write,ACK
0.107262000000000,8,0x18,0xF9,Read,ACK
0.107284500000000,8,0x18,0x00,Read,ACK
0.107307000000000,8,0x18,0x39,Read,ACK
0.107329562500000,8,0x18,0xFC,Read,ACK
0.107352062500000,8,0x18,0x09,Read,ACK
0.107374562500000,8,0x18,0x1E,Read,ACK
0.107397062500000,8,0x18,0x95,Read,ACK
0.107419562500000,8,0x18,0x00,Read,ACK
0.107442062500000,8,0x18,0x4D,Read,ACK
0.107464562500000,8,0x18,0xFC,Read,ACK
0.107487062500000,8,0x18,0x41,Read,ACK
0.107509562500000,8,0x18,0x1E,Read,ACK
0.107532125000000,8,0x18,0xFD,Read,ACK
0.107554625000000,8,0x18,0x00,Read,ACK
0.107577125000000,8,0x18,0x65,Read,ACK
0.107599625000000,8,0x18,0xFC,Read,ACK
0.107622125000000,8,0x18,0x55,Read,ACK
0.107644625000000,8,0x18,0x1E,Read,ACK
0.107667125000000,8,0x18,0x41,Read,ACK
0.107689625000000,8,0x18,0x01,Read,ACK
0.107712125000000,8,0x18,0x21,Read,ACK
0.107734687500000,8,0x18,0xFC,Read,ACK
0.107757187500000,8,0x18,0x8D,Read,ACK
0.107779687500000,8,0x18,0x1E,Read,ACK
0.107802187500000,8,0x18,0x21,Read,ACK
0.107824687500000,8,0x18,0x01,Read,ACK
0.107847187500000,8,0x18,0x39,Read,ACK
0.107869687500000,8,0x18,0xFC,Read,ACK
0.107892187500000,8,0x18,0x9D,Read,ACK
0.107914687500000,8,0x18,0x1E,Read,NAK
0.107975625000000,9,0x18,0x3F,Write,ACK
0.108023687500000,10,0x18,0xFD,Read,ACK
0.108046187500000,10,0x18,0x00,Read,ACK
0.108068687500000,10,0x18,0x59,Read,ACK
0.108091187500000,10,0x18,0xFC,Read,ACK
0.108113687500000,10,0x18,0xB5,Read,ACK
0.108136187500000,10,0x18,0x1E,Read,ACK
0.108158750000000,10,0x18,0x09,Read,ACK
0.108181250000000,10,0x18,0x01,Read,ACK
0.108203750000000,10,0x18,0x4D,Read,ACK
0.108226250000000,10,0x18,0xFC,Read,ACK
0.108248750000000,10,0x18,0x4D,Read,ACK
0.108271250000000,10,0x18,0x1E,Read,ACK
0.108293750000000,10,0x18,0x11,Read,ACK
0.108316250000000,10,0x18,0x01,Read,ACK
0.108338750000000,10,0x18,0x59,Read,ACK
0.108361312500000,10,0x18,0xFC,Read,ACK
0.108383812500000,10,0x18,0x41,Read,ACK
0.108406312500000,10,0x18,0x1E,Read,ACK
0.108428812500000,10,0x18,0x0D,Read,ACK
0.108451312500000,10,0x18,0x01,Read,ACK
0.108473812500000,10,0x18,0x51,Read,ACK
0.108496312500000,10,0x18,0xFC,Read,ACK
0.108518812500000,10,0x18,0xA9,Read,ACK
0.108541312500000,10,0x18,0x1E,Read,ACK
0.108563875000000,10,0x18,0x0D,Read,ACK
0.108586375000000,10,0x18,0x01,Read,ACK
0.108608875000000,10,0x18,0x3D,Read,ACK
0.108631375000000,10,0x18,0xFC,Read,ACK
0.108653875000000,10,0x18,0xB9,Read,ACK
0.108676375000000,10,0x18,0x1E,Read,NAK
0.108737250000000,11,0x18,0x3F,Write,ACK
0.108785375000000,12,0x18,0xF9,Read,ACK
0.108807875000000,12,0x18,0x00,Read,ACK
0.108830375000000,12,0x18,0x41,Read,ACK
0.108852875000000,12,0x18,0xFC,Read,ACK
0.108875375000000,12,0x18,0x41,Read,ACK
0.108897875000000,12,0x18,0x1E,Read,ACK
0.108920375000000,12,0x18,0x1D,Read,ACK
0.108942875000000,12,0x18,0x01,Read,ACK
0.108965437500000,12,0x18,0x39,Read,ACK
0.108987937500000,12,0x18,0xFC,Read,ACK
0.109010437500000,12,0x18,0xC1,Read,ACK
0.109032937500000,12,0x18,0x1E,Read,ACK
0.109055437500000,12,0x18,0x01,Read,ACK
0.109077937500000,12,0x18,0x01,Read,ACK
0.109100437500000,12,0x18,0x41,Read,ACK
0.109122937500000,12,0x18,0xFC,Read,ACK
0.109145437500000,12,0x18,0x0D,Read,ACK
0.109168000000000,12,0x18,0x1E,Read,ACK
0.109190500000000,12,0x18,0x29,Read,ACK
0.109213000000000,12,0x18,0x01,Read,ACK
0.109235500000000,12,0x18,0x51,Read,ACK
0.109258000000000,12,0x18,0xFC,Read,ACK
0.109280500000000,12,0x18,0x29,Read,ACK
0.109303000000000,12,0x18,0x1E,Read,ACK
0.109325500000000,12,0x18,0x01,Read,ACK
0.109348000000000,12,0x18,0x01,Read,ACK
0.109370562500000,12,0x18,0x59,Read,ACK
0.109393062500000,12,0x18,0xFC,Read,ACK
0.109415562500000,12,0x18,0x39,Read,ACK
0.109438062500000,12,0x18,0x1E,Read,NAK
0.109499812500000,13,0x18,0x3E,Write,ACK
0.109522375000000,13,0x18,0x40,Write,ACK
0.905114062500000,14,0x18,0x0E,Write,ACK
0.905162125000000,15,0x18,0x1E,Read,NAK
0.905239625000000,16,0x18,0x3F,Write,ACK
0.905287687500000,17,0x18,0xA5,Read,ACK
0.905310187500000,17,0x18,0x00,Read,ACK
0.905332687500000,17,0x18,0x49,Read,ACK
0.905355187500000,17,0x18,0xFC,Read,ACK
0.905377687500000,17,0x18,0xB5,Read,ACK
0.905400187500000,17,0x18,0x1E,Read,ACK
0.905422750000000,17,0x18,0x15,Read,ACK
0.905445250000000,17,0x18,0x01,Read,ACK
0.905467750000000,17,0x18,0x51,Read,ACK
0.905490250000000,17,0x18,0xFC,Read,ACK
0.905512750000000,17,0x18,0x29,Read,ACK
0.905535250000000,17,0x18,0x1E,Read,ACK
0.905557750000000,17,0x18,0xFD,Read,ACK
0.905580250000000,17,0x18,0x00,Read,ACK
0.905602750000000,17,0x18,0x5D,Read,ACK
0.905625250000000,17,0x18,0xFC,Read,ACK
0.905647812500000,17,0x18,0x1D,Read,ACK
0.905670312500000,17,0x18,0x1E,Read,ACK
0.905692812500000,17,0x18,0x05,Read,ACK
0.905715312500000,17,0x18,0x01,Read,ACK
0.905737812500000,17,0x18,0x39,Read,ACK
0.905760312500000,17,0x18,0xFC,Read,ACK
0.905782812500000,17,0x18,0x15,Read,ACK
0.905805312500000,17,0x18,0x1E,Read,ACK
0.905827812500000,17,0x18,0xE1,Read,ACK
0.905850375000000,17,0x18,0x00,Read,ACK
0.905872875000000,17,0x18,0x51,Read,ACK
0.905895375000000,17,0x18,0xFC,Read,ACK
0.905917875000000,17,0x18,0x2D,Read,ACK
0.905940375000000,17,0x18,0x1E,Read,NAK
0.906001250000000,18,0x18,0x3F,Write,ACK
0.906049375000000,19,0x18,0x05,Read,ACK
0.906071875000000,19,0x18,0x01,Read,ACK
0.906094375000000,19,0x18,0x29,Read,ACK
0.906116875000000,19,0x18,0xFC,Read,ACK
0.906139375000000,19,0x18,0xC1,Read,ACK
0.906161875000000,19,0x18,0x1E,Read,ACK
0.906184375000000,19,0x18,0x99,Read,ACK
0.906206875000000,19,0x18,0x00,Read,ACK
0.906229375000000,19,0x18,0x15,Read,ACK
0.906251875000000,19,0x18,0xFC,Read,ACK
0.906274437500000,19,0x18,0xC5,Read,ACK
0.906296937500000,19,0x18,0x1E,Read,ACK
0.906319437500000,19,0x18,0x11,Read,ACK
0.906341937500000,19,0x18,0x01,Read,ACK
0.906364437500000,19,0x18,0x41,Read,ACK
0.906386937500000,19,0x18,0xFC,Read,ACK
0.906409437500000,19,0x18,0x29,Read,ACK
0.906431937500000,19,0x18,0x1E,Read,ACK
0.906454437500000,19,0x18,0xF5,Read,ACK
0.906477000000000,19,0x18,0x00,Read,ACK
0.906499500000000,19,0x18,0x31,Read,ACK
0.906522000000000,19,0x18,0xFC,Read,ACK
0.906544500000000,19,0x18,0x1D,Read,ACK
0.906567000000000,19,0x18,0x1E,Read,ACK
0.906589500000000,19,0x18,0x0D,Read,ACK
0.906612000000000,19,0x18,0x01,Read,ACK
0.906634500000000,19,0x18,0x55,Read,ACK
0.906657000000000,19,0x18,0xFC,Read,ACK
0.906679562500000,19,0x18,0x99,Read,ACK
0.906702062500000,19,0x18,0x1E,Read,NAK
0.906762937500000,20,0x18,0x3F,Write,ACK
0.906811000000000,21,0x18,0xED,Read,ACK
0.906833500000000,21,0x18,0x00,Read,ACK
0.906856000000000,21,0x18,0x4D,Read,ACK
0.906878562500000,21,0x18,0xFC,Read,ACK
0.906901062500000,21,0x18,0x45,Read,ACK
0.906923562500000,21,0x18,0x1E,Read,ACK
0.906946062500000,21,0x18,0x11,Read,ACK
0.906968562500000,21,0x18,0x01,Read,ACK
0.906991062500000,21,0x18,0x41,Read,ACK
0.907013562500000,21,0x18,0xFC,Read,ACK
0.907036062500000,21,0x18,0xA1,Read,ACK
0.907058562500000,21,0x18,0x1E,Read,ACK
0.907081125000000,21,0x18,0x1D,Read,ACK
0.907103625000000,21,0x18,0x01,Read,ACK
0.907126125000000,21,0x18,0x31,Read,ACK
0.907148625000000,21,0x18,0xFC,Read,ACK
0.907171125000000,21,0x18,0x31,Read,ACK
0.907193625000000,21,0x18,0x1E,Read,ACK
0.907216125000000,21,0x18,0x05,Read,ACK
0.907238625000000,21,0x18,0x01,Read,ACK
0.907261125000000,21,0x18,0x4D,Read,ACK
0.907283625000000,21,0x18,0xFC,Read,ACK
0.907306187500000,21,0x18,0x9D,Read,ACK
0.907328687500000,21,0x18,0x1E,Read,ACK
0.907351187500000,21,0x18,0xFD,Read,ACK
0.907373687500000,21,0x18,0x00,Read,ACK
0.907396187500000,21,0x18,0x41,Read,ACK
0.907418687500000,21,0x18,0xFC,Read,ACK
0.907441187500000,21,0x18,0xFD,Read,ACK
0.907463687500000,21,0x18,0x1D,Read,NAK
0.907524625000000,22,0x18,0x3F,Write,ACK
0.907572687500000,23,0x18,0x89,Read,ACK
0.907595187500000,23,0x18,0x00,Read,ACK
0.907617687500000,23,0x18,0x65,Read,ACK
0.907640187500000,23,0x18,0xFC,Read,ACK
0.907662687500000,23,0x18,0xD9,Read,ACK
0.907685187500000,23,0x18,0x1E,Read,ACK
0.907707750000000,23,0x18,0x01,Read,ACK
0.907730250000000,23,0x18,0x01,Read,ACK
0.907752750000000,23,0x18,0x45,Read,ACK
0.907775250000000,23,0x18,0xFC,Read,ACK
0.907797750000000,23,0x18,0xBD,Read,ACK
0.907820250000000,23,0x18,0x1E,Read,ACK
0.907842750000000,23,0x18,0x11,Read,ACK
0.907865250000000,23,0x18,0x01,Read,ACK
0.907887750000000,23,0x18,0x4D,Read,ACK
0.907910312500000,23,0x18,0xFC,Read,ACK
0.907932812500000,23,0x18,0xE1,Read,ACK
0.907955312500000,23,0x18,0x1E,Read,ACK
0.907977812500000,23,0x18,0xFD,Read,ACK
0.908000312500000,23,0x18,0x00,Read,ACK
0.908022812500000,23,0x18,0x3D,Read,ACK
0.908045312500000,23,0x18,0xFC,Read,ACK
0.908067812500000,23,0x18,0x49,Read,ACK
0.908090312500000,23,0x18,0x1E,Read,ACK
0.908112875000000,23,0x18,0x19,Read,ACK
0.908135375000000,23,0x18,0x01,Read,ACK
0.908157875000000,23,0x18,0x39,Read,ACK
0.908180375000000,23,0x18,0xFC,Read,ACK
0.908202875000000,23,0x18,0xC9,Read,ACK
0.908225375000000,23,0x18,0x1E,Read,NAK
0.908286250000000,24,0x18,0x3F,Write,ACK
0.908334375000000,25,0x18,0x95,Read,ACK
0.908356875000000,25,0x18,0x00,Read,ACK
0.908379375000000,25,0x18,0x41,Read,ACK
0.908401875000000,25,0x18,0xFC,Read,ACK
0.908424375000000,25,0x18,0xB9,Read,ACK
0.908446875000000,25,0x18,0x1E,Read,ACK
0.908469375000000,25,0x18,0xF9,Read,ACK
0.908491875000000,25,0x18,0x00,Read,ACK
0.908514437500000,25,0x18,0x61,Read,ACK
0.908536937500000,25,0x18,0xFC,Read,ACK
0.908559437500000,25,0x18,0xB5,Read,ACK
0.908581937500000,25,0x18,0x1E,Read,ACK
0.908604437500000,25,0x18,0x05,Read,ACK
0.908626937500000,25,0x18,0x01,Read,ACK
0.908649437500000,25,0x18,0x6D,Read,ACK
0.908671937500000,25,0x18,0xFC,Read,ACK
0.908694437500000,25,0x18,0xA5,Read,ACK
0.908717000000000,25,0x18,0x1E,Read,ACK
0.908739500000000,25,0x18,0x2D,Read,ACK
0.908762000000000,25,0x18,0x01,Read,ACK
0.908784500000000,25,0x18,0x45,Read,ACK
0.908807000000000,25,0x18,0xFC,Read,ACK
0.908829500000000,25,0x18,0x41,Read,ACK
0.908852000000000,25,0x18,0x1E,Read,ACK
0.908874500000000,25,0x18,0xFD,Read,ACK
0.908897000000000,25,0x18,0x00,Read,ACK
0.908919500000000,25,0x18,0x5D,Read,ACK
0.908942000000000,25,0x18,0xFC,Read,ACK
0.908964562500000,25,0x18,0xC9,Read,ACK
0.908987062500000,25,0x18,0x1E,Read,NAK
0.909047937500000,26,0x18,0x3F,Write,ACK
0.909096000000000,27,0x18,0x11,Read,ACK
0.909118500000000,27,0x18,0x01,Read,ACK
0.909141062500000,27,0x18,0x5D,Read,ACK
0.909163562500000,27,0x18,0xFC,Read,ACK
0.909186062500000,27,0x18,0x01,Read,ACK
0.909208562500000,27,0x18,0x1E,Read,ACK
0.909231062500000,27,0x18,0xE9,Read,ACK
0.909253562500000,27,0x18,0x00,Read,ACK
0.909276062500000,27,0x18,0x41,Read,ACK
0.909298562500000,27,0x18,0xFC,Read,ACK
0.909321062500000,27,0x18,0x15,Read,ACK
0.909343625000000,27,0x18,0x1E,Read,ACK
0.909366125000000,27,0x18,0xFD,Read,ACK
0.909388625000000,27,0x18,0x00,Read,ACK
0.909411125000000,27,0x18,0x25,Read,ACK
0.909433625000000,27,0x18,0xFC,Read,ACK
0.909456125000000,27,0x18,0xB9,Read,ACK
0.909478625000000,27,0x18,0x1E,Read,ACK
0.909501125000000,27,0x18,0xF5,Read,ACK
0.909523625000000,27,0x18,0x00,Read,ACK
0.909546187500000,27,0x18,0x35,Read,ACK
0.909568687500000,27,0x18,0xFC,Read,ACK
0.909591187500000,27,0x18,0xB5,Read,ACK
0.909613687500000,27,0x18,0x1E,Read,ACK
0.909636187500000,27,0x18,0x01,Read,ACK
0.909658687500000,27,0x18,0x01,Read,ACK
0.909681187500000,27,0x18,0x35,Read,ACK
0.909703687500000,27,0x18,0xFC,Read,ACK
0.909726187500000,27,0x18,0xF9,Read,ACK
0.909748687500000,27,0x18,0x1E,Read,NAK
0.909810500000000,28,0x18,0x3E,Write,ACK
0.909833062500000,28,0x18,0x40,Write,ACK
1.705481812500000,29,0x18,0x0E,Write,ACK
1.705529875000000,30,0x18,0x1E,Read,NAK
1.705607375000000,31,0x18,0x3F,Write,ACK
1.705629875000000,31,0x18,0x8C,Write,ACK
1.705650437500000,31,0x18,0x88,Write,ACK
1.705672937500000,31,0x18,0x80,Write,ACK
1.705695437500000,31,0x18,0x90,Write,ACK
1.705717937500000,31,0x18,0xBF,Write,ACK
1.705740500000000,31,0x18,0x0B,Write,ACK
1.705763000000000,31,0x18,0x87,Write,NAK
1.705785500000000,31,0x18,0x0A,Write,ACK
1.705808000000000,31,0x18,0x80,Write,ACK
1.705830500000000,31,0x18,0x94,Write,ACK
1.705853000000000,31,0x18,0xBF,Write,ACK
1.705875500000000,31,0x18,0x2F,Write,ACK
1.705898000000000,31,0x18,0x87,Write,NAK
1.705920500000000,31,0x18,0x24,Write,ACK
1.705943000000000,31,0x18,0x80,Write,ACK
1.705965562500000,31,0x18,0x11,Write,ACK
1.705988062500000,31,0x18,0xBF,Write,ACK
1.706010562500000,31,0x18,0x2F,Write,ACK
1.706033062500000,31,0x18,0x87,Write,NAK
1.706055562500000,31,0x18,0x23,Write,ACK
1.706078062500000,31,0x18,0x80,Write,ACK
1.706100562500000,31,0x18,0x1B,Write,ACK
1.706123062500000,31,0x18,0xBF,Write,ACK
1.706145625000000,31,0x18,0x36,Write,ACK
1.706168125000000,31,0x18,0x87,Write,NAK
1.706190625000000,31,0x18,0x3F,Write,ACK
1.706213125000000,31,0x18,0x80,Write,ACK
1.706235625000000,31,0x18,0x17,Write,ACK
1.706258125000000,31,0x18,0xBF,Write,ACK
1.706280625000000,31,0x18,0x1B,Write,ACK
1.706303125000000,31,0x18,0x87,Write,NAK
1.706369062500000,32,0x18,0x3F,Write,ACK
1.706417125000000,33,0x18,0x1D,Read,ACK
1.706439625000000,33,0x18,0x01,Read,ACK
1.706462125000000,33,0x18,0x31,Read,ACK
1.706484625000000,33,0x18,0xFC,Read,ACK
1.706507125000000,33,0x18,0x65,Read,ACK
1.706529625000000,33,0x18,0x1E,Read,ACK
1.706552125000000,33,0x18,0xDD,Read,ACK
1.706574687500000,33,0x18,0x00,Read,ACK
1.706597187500000,33,0x18,0x45,Read,ACK
1.706619687500000,33,0x18,0xFC,Read,ACK
1.706642187500000,33,0x18,0xC5,Read,ACK
1.706664687500000,33,0x18,0x1E,Read,ACK
1.706687187500000,33,0x18,0xE9,Read,ACK
1.706709687500000,33,0x18,0x00,Read,ACK
1.706732187500000,33,0x18,0x49,Read,ACK
1.706754687500000,33,0x18,0xFC,Read,ACK
1.706777250000000,33,0x18,0xC5,Read,ACK
1.706799750000000,33,0x18,0x1E,Read,ACK
1.706822250000000,33,0x18,0xD9,Read,ACK
1.706844750000000,33,0x18,0x00,Read,ACK
1.706867250000000,33,0x18,0x4D,Read,ACK
1.706889750000000,33,0x18,0xFC,Read,ACK
1.706912250000000,33,0x18,0x2D,Read,ACK
1.706934750000000,33,0x18,0x1E,Read,ACK
1.706957250000000,33,0x18,0xD1,Read,ACK
1.706979812500000,33,0x18,0x00,Read,ACK
1.707002312500000,33,0x18,0x4D,Read,ACK
1.707024812500000,33,0x18,0xFC,Read,ACK
1.707047312500000,33,0x18,0xC5,Read,ACK
1.707069812500000,33,0x18,0x1E,Read,NAK
1.707130687500000,34,0x18,0x3F,Write,ACK
1.707178812500000,35,0x18,0x29,Read,ACK
1.707201312500000,35,0x18,0x01,Read,ACK
1.707223812500000,35,0x18,0x65,Read,ACK
1.707246312500000,35,0x18,0xFC,Read,ACK
1.707268812500000,35,0x18,0xC9,Read,ACK
1.707291312500000,35,0x18,0x1E,Read,ACK
1.707313812500000,35,0x18,0x39,Read,ACK
1.707336312500000,35,0x18,0x01,Read,ACK
1.707358812500000,35,0x18,0x61,Read,ACK
1.707381312500000,35,0x18,0xFC,Read,ACK
1.707403875000000,35,0x18,0xBD,Read,ACK
1.707426375000000,35,0x18,0x1E,Read,ACK
1.707448875000000,35,0x18,0x21,Read,ACK
1.707471375000000,35,0x18,0x01,Read,ACK
1.707493875000000,35,0x18,0x65,Read,ACK
1.707516375000000,35,0x18,0xFC,Read,ACK
1.707538875000000,35,0x18,0xA5,Read,ACK
1.707561375000000,35,0x18,0x1E,Read,ACK
1.707583875000000,35,0x18,0xC5,Read,ACK
1.707606437500000,35,0x18,0x00,Read,ACK
1.707628937500000,35,0x18,0x5D,Read,ACK
1.707651437500000,35,0x18,0xFC,Read,ACK
1.707673937500000,35,0x18,0x8D,Read,ACK
1.707696437500000,35,0x18,0x1E,Read,ACK
1.707718937500000,35,0x18,0x55,Read,ACK
1.707741437500000,35,0x18,0x01,Read,ACK
1.707763937500000,35,0x18,0x75,Read,ACK
1.707786437500000,35,0x18,0xFC,Read,ACK
1.707809000000000,35,0x18,0x85,Read,ACK
1.707831500000000,35,0x18,0x1E,Read,NAK
1.707892375000000,36,0x18,0x3F,Write,ACK
1.707940437500000,37,0x18,0x39,Read,ACK
1.707962937500000,37,0x18,0x01,Read,ACK
1.707985437500000,37,0x18,0x55,Read,ACK
1.708007937500000,37,0x18,0xFC,Read,ACK
1.708030500000000,37,0x18,0xDD,Read,ACK
1.708053000000000,37,0x18,0x1E,Read,ACK
1.708075500000000,37,0x18,0x89,Read,ACK
1.708098000000000,37,0x18,0x00,Read,ACK
1.708120500000000,37,0x18,0x59,Read,ACK
1.708143000000000,37,0x18,0xFC,Read,ACK
1.708165500000000,37,0x18,0x01,Read,ACK
1.708188000000000,37,0x18,0x1E,Read,ACK
1.708210562500000,37,0x18,0x1D,Read,ACK
1.708233062500000,37,0x18,0x01,Read,ACK
1.708255562500000,37,0x18,0x5D,Read,ACK
1.708278062500000,37,0x18,0xFC,Read,ACK
1.708300562500000,37,0x18,0xA1,Read,ACK
1.708323062500000,37,0x18,0x1E,Read,ACK
1.708345562500000,37,0x18,0xED,Read,ACK
1.708368062500000,37,0x18,0x00,Read,ACK
1.708390562500000,37,0x18,0x15,Read,ACK
