Time [s],Packet ID,Address,Data,Read/Write,ACK/NAK
0.173659562500000,0,0x18,0x0E,Write,ACK
0.173682062500000,0,0x18,0x8C,Write,ACK
0.173702625000000,0,0x18,0x87,Write,NAK
0.173785125000000,1,0x18,0x3F,Write,ACK
0.173833187500000,2,0x18,0x0D,Read,ACK
0.173855687500000,2,0x18,0x01,Read,ACK
0.173878187500000,2,0x18,0x31,Read,ACK
0.173900687500000,2,0x18,0xFC,Read,ACK
0.173923187500000,2,0x18,0x39,Read,ACK
0.173945687500000,2,0x18,0x1E,Read,ACK
0.173968187500000,2,0x18,0xED,Read,ACK
0.173990750000000,2,0x18,0x00,Read,ACK
0.174013250000000,2,0x18,0x41,Read,ACK
0.174035750000000,2,0x18,0xFC,Read,ACK
0.174058250000000,2,0x18,0xD9,Read,ACK
0.174080750000000,2,0x18,0x1E,Read,ACK
0.174103250000000,2,0x18,0xC5,Read,ACK
0.174125750000000,2,0x18,0x00,Read,ACK
0.174148250000000,2,0x18,0x39,Read,ACK
0.174170750000000,2,0x18,0xFC,Read,ACK
0.174193250000000,2,0x18,0xF1,Read,ACK
0.174215812500000,2,0x18,0x1E,Read,ACK
0.174238312500000,2,0x18,0x45,Read,ACK
0.174260812500000,2,0x18,0x00,Read,ACK
0.174283312500000,2,0x18,0x35,Read,ACK
0.174305812500000,2,0x18,0xFC,Read,ACK
0.174328312500000,2,0x18,0xD1,Read,ACK
0.174350812500000,2,0x18,0x1E,Read,ACK
0.174373312500000,2,0x18,0x09,Read,ACK
0.174395812500000,2,0x18,0x01,Read,ACK
0.174418375000000,2,0x18,0x35,Read,ACK
0.174440875000000,2,0x18,0xFC,Read,ACK
0.174463375000000,2,0x18,0x99,Read,ACK
0.174485875000000,2,0x18,0x1E,Read,NAK
0.174546750000000,3,0x18,0x3F,Write,ACK
0.174594812500000,4,0x18,0x8D,Read,ACK
0.174617375000000,4,0x18,0x00,Read,ACK
0.174639875000000,4,0x18,0x4D,Read,ACK
0.174662375000000,4,0x18,0xFC,Read,ACK
0.174684875000000,4,0x18,0xD1,Read,ACK
0.174707375000000,4,0x18,0x1E,Read,ACK
0.174729875000000,4,0x18,0x1D,Read,ACK
0.174752375000000,4,0x18,0x01,Read,ACK
0.174774875000000,4,0x18,0x4D,Read,ACK
0.174797375000000,4,0x18,0xFC,Read,ACK
0.174819937500000,4,0x18,0xC5,Read,ACK
0.174842437500000,4,0x18,0x1E,Read,ACK
0.174864937500000,4,0x18,0x45,Read,ACK
0.174887437500000,4,0x18,0x01,Read,ACK
0.174909937500000,4,0x18,0x5D,Read,ACK
0.174932437500000,4,0x18,0xFC,Read,ACK
0.174954937500000,4,0x18,0x7D,Read,ACK
0.174977437500000,4,0x18,0x1E,Read,ACK
0.174999937500000,4,0x18,0x5D,Read,ACK
0.175022500000000,4,0x18,0x01,Read,ACK
0.175045000000000,4,0x18,0x5D,Read,ACK
0.175067500000000,4,0x18,0xFC,Read,ACK
0.175090000000000,4,0x18,0x01,Read,ACK
0.175112500000000,4,0x18,0x1E,Read,ACK
0.175135000000000,4,0x18,0x6D,Read,ACK
0.175157500000000,4,0x18,0x00,Read,ACK
0.175180000000000,4,0x18,0x4D,Read,ACK
0.175202500000000,4,0x18,0xFC,Read,ACK
0.175225062500000,4,0x18,0xF5,Read,ACK
0.175247562500000,4,0x18,0x1E,Read,NAK
0.175308437500000,5,0x18,0x3F,Write,ACK
0.175356500000000,6,0x18,0xC1,Read,ACK
0.175379000000000,6,0x18,0x00,Read,ACK
0.175401500000000,6,0x18,0xA9,Read,ACK
0.175424000000000,6,0x18,0xFC,Read,ACK
0.175446562500000,6,0x18,0xA9,Read,ACK
0.175469062500000,6,0x18,0x1E,Read,ACK
0.175491562500000,6,0x18,0xF5,Read,ACK
0.175514062500000,6,0x18,0x00,Read,ACK
0.175536562500000,6,0x18,0x61,Read,ACK
0.175559062500000,6,0x18,0xFC,Read,ACK
0.175581562500000,6,0x18,0xC9,Read,ACK
0.175604062500000,6,0x18,0x1E,Read,ACK
0.175626625000000,6,0x18,0x05,Read,ACK
0.175649125000000,6,0x18,0x01,Read,ACK
0.175671625000000,6,0x18,0x89,Read,ACK
0.175694125000000,6,0x18,0xFC,Read,ACK
0.175716625000000,6,0x18,0x11,Read,ACK
0.175739125000000,6,0x18,0x1F,Read,ACK
0.175761625000000,6,0x18,0x19,Read,ACK
0.175784125000000,6,0x18,0x01,Read,ACK
0.175806625000000,6,0x18,0x89,Read,ACK
0.175829125000000,6,0x18,0xFC,Read,ACK
0.175851687500000,6,0x18,0x6D,Read,ACK
0.175874187500000,6,0x18,0x1E,Read,ACK
0.175896687500000,6,0x18,0xE9,Read,ACK
0.175919187500000,6,0x18,0x00,Read,ACK
0.175941687500000,6,0x18,0x41,Read,ACK
0.175964187500000,6,0x18,0xFC,Read,ACK
0.175986687500000,6,0x18,0x75,Read,ACK
0.176009187500000,6,0x18,0x1E,Read,NAK
0.176070125000000,7,0x18,0x3F,Write,ACK
0.176118187500000,8,0x18,0x0D,Read,ACK
0.176140687500000,8,0x18,0x01,Read,ACK
0.176163187500000,8,0x18,0x71,Read,ACK
0.176185687500000,8,0x18,0xFC,Read,ACK
0.176208187500000,8,0x18,0x51,Read,ACK
0.176230687500000,8,0x18,0x1E,Read,ACK
0.176253250000000,8,0x18,0x19,Read,ACK
0.176275750000000,8,0x18,0x01,Read,ACK
0.176298250000000,8,0x18,0x2D,Read,ACK
0.176320750000000,8,0x18,0xFC,Read,ACK
0.176343250000000,8,0x18,0x29,Read,ACK
0.176365750000000,8,0x18,0x1E,Read,ACK
0.176388250000000,8,0x18,0x1D,Read,ACK
0.176410750000000,8,0x18,0x01,Read,ACK
0.176433250000000,8,0x18,0x6D,Read,ACK
0.176455750000000,8,0x18,0xFC,Read,ACK
0.176478312500000,8,0x18,0xBD,Read,ACK
0.176500812500000,8,0x18,0x1E,Read,ACK
0.176523312500000,8,0x18,0x09,Read,ACK
0.176545812500000,8,0x18,0x01,Read,ACK
0.176568312500000,8,0x18,0x79,Read,ACK
0.176590812500000,8,0x18,0xFC,Read,ACK
0.176613312500000,8,0x18,0x99,Read,ACK
0.176635812500000,8,0x18,0x1E,Read,ACK
0.176658312500000,8,0x18,0xF5,Read,ACK
0.176680875000000,8,0x18,0x00,Read,ACK
0.176703375000000,8,0x18,0x25,Read,ACK
0.176725875000000,8,0x18,0xFC,Read,ACK
0.176748375000000,8,0x18,0xE1,Read,ACK
0.176770875000000,8,0x18,0x1E,Read,NAK
0.176831750000000,9,0x18,0x3F,Write,ACK
0.176879875000000,10,0x18,0x0D,Read,ACK
0.176902375000000,10,0x18,0x01,Read,ACK
0.176924875000000,10,0x18,0x75,Read,ACK
0.176947375000000,10,0x18,0xFC,Read,ACK
0.176969875000000,10,0x18,0xD5,Read,ACK
0.176992375000000,10,0x18,0x1E,Read,ACK
0.177014875000000,10,0x18,0xF5,Read,ACK
0.177037375000000,10,0x18,0x00,Read,ACK
0.177059875000000,10,0x18,0x31,Read,ACK
0.177082437500000,10,0x18,0xFC,Read,ACK
0.177104937500000,10,0x18,0xAD,Read,ACK
0.177127437500000,10,0x18,0x1E,Read,ACK
0.177149937500000,10,0x18,0xA1,Read,ACK
0.177172437500000,10,0x18,0x00,Read,ACK
0.177194937500000,10,0x18,0x55,Read,ACK
0.177217437500000,10,0x18,0xFC,Read,ACK
0.177239937500000,10,0x18,0x39,Read,ACK
0.177262437500000,10,0x18,0x1E,Read,ACK
0.177285000000000,10,0x18,0x05,Read,ACK
0.177307500000000,10,0x18,0x01,Read,ACK
0.177330000000000,10,0x18,0x41,Read,ACK
0.177352500000000,10,0x18,0xFC,Read,ACK
0.177375000000000,10,0x18,0xC5,Read,ACK
0.177397500000000,10,0x18,0x1E,Read,ACK
0.177420000000000,10,0x18,0x19,Read,ACK
0.177442500000000,10,0x18,0x01,Read,ACK
0.177465000000000,10,0x18,0x29,Read,ACK
0.177487500000000,10,0x18,0xFC,Read,ACK
0.177510062500000,10,0x18,0x7D,Read,ACK
0.177532562500000,10,0x18,0x1E,Read,NAK
0.177593437500000,11,0x18,0x3F,Write,ACK
0.177641500000000,12,0x18,0xC5,Read,ACK
0.177664000000000,12,0x18,0x00,Read,ACK
0.177686562500000,12,0x18,0x61,Read,ACK
0.177709062500000,12,0x18,0xFC,Read,ACK
0.177731562500000,12,0x18,0xAD,Read,ACK
0.177754062500000,12,0x18,0x1E,Read,ACK
0.177776562500000,12,0x18,0x09,Read,ACK
0.177799062500000,12,0x18,0x01,Read,ACK
0.177821562500000,12,0x18,0x51,Read,ACK
0.177844062500000,12,0x18,0xFC,Read,ACK
0.177866562500000,12,0x18,0xA1,Read,ACK
0.177889125000000,12,0x18,0x1E,Read,ACK
0.177911625000000,12,0x18,0xB1,Read,ACK
0.177934125000000,12,0x18,0x00,Read,ACK
0.177956625000000,12,0x18,0x4D,Read,ACK
0.177979125000000,12,0x18,0xFC,Read,ACK
0.178001625000000,12,0x18,0x11,Read,ACK
0.178024125000000,12,0x18,0x1E,Read,ACK
0.178046625000000,12,0x18,0x95,Read,ACK
0.178069125000000,12,0x18,0x00,Read,ACK
0.178091687500000,12,0x18,0x59,Read,ACK
0.178114187500000,12,0x18,0xFC,Read,ACK
0.178136687500000,12,0x18,0xBD,Read,ACK
0.178159187500000,12,0x18,0x1E,Read,ACK
0.178181687500000,12,0x18,0xF5,Read,ACK
0.178204187500000,12,0x18,0x00,Read,ACK
0.178226687500000,12,0x18,0x1D,Read,ACK
0.178249187500000,12,0x18,0xFC,Read,ACK
0.178271687500000,12,0x18,0xA1,Read,ACK
0.178294187500000,12,0x18,0x1E,Read,NAK
0.178356000000000,13,0x18,0x3E,Write,ACK
0.178378562500000,13,0x18,0x40,Write,ACK
0.973332312500000,14,0x18,0x0E,Write,ACK
0.973380375000000,15,0x18,0x1E,Read,NAK
0.973457875000000,16,0x18,0x3F,Write,ACK
0.973505937500000,17,0x18,0xF5,Read,ACK
0.973528437500000,17,0x18,0x00,Read,ACK
0.973550937500000,17,0x18,0x61,Read,ACK
0.973573437500000,17,0x18,0xFC,Read,ACK
0.973595937500000,17,0x18,0xFD,Read,ACK
0.973618437500000,17,0x18,0x1E,Read,ACK
0.973641000000000,17,0x18,0x89,Read,ACK
0.973663500000000,17,0x18,0x00,Read,ACK
0.973686000000000,17,0x18,0x35,Read,ACK
0.973708500000000,17,0x18,0xFC,Read,ACK
0.973731000000000,17,0x18,0x8D,Read,ACK
0.973753500000000,17,0x18,0x1E,Read,ACK
0.973776000000000,17,0x18,0x39,Read,ACK
0.973798500000000,17,0x18,0x01,Read,ACK
0.973821000000000,17,0x18,0x39,Read,ACK
0.973843500000000,17,0x18,0xFC,Read,ACK
0.973866062500000,17,0x18,0x29,Read,ACK
0.973888562500000,17,0x18,0x1E,Read,ACK
0.973911062500000,17,0x18,0x39,Read,ACK
0.973933562500000,17,0x18,0x01,Read,ACK
0.973956062500000,17,0x18,0x49,Read,ACK
0.973978562500000,17,0x18,0xFC,Read,ACK
0.974001062500000,17,0x18,0x9D,Read,ACK
0.974023562500000,17,0x18,0x1E,Read,ACK
0.974046062500000,17,0x18,0xE9,Read,ACK
0.974068625000000,17,0x18,0x00,Read,ACK
0.974091125000000,17,0x18,0x3D,Read,ACK
0.974113625000000,17,0x18,0xFC,Read,ACK
0.974136125000000,17,0x18,0x81,Read,ACK
0.974158625000000,17,0x18,0x1E,Read,NAK
0.974219500000000,18,0x18,0x3F,Write,ACK
0.974267625000000,19,0x18,0x2D,Read,ACK
0.974290125000000,19,0x18,0x01,Read,ACK
0.974312625000000,19,0x18,0x9D,Read,ACK
0.974335125000000,19,0x18,0xFC,Read,ACK
0.974357625000000,19,0x18,0x11,Read,ACK
0.974380125000000,19,0x18,0x1E,Read,ACK
0.974402625000000,19,0x18,0x31,Read,ACK
0.974425125000000,19,0x18,0x01,Read,ACK
0.974447625000000,19,0x18,0x2D,Read,ACK
0.974470187500000,19,0x18,0xFC,Read,ACK
0.974492687500000,19,0x18,0x6D,Read,ACK
0.974515187500000,19,0x18,0x1E,Read,ACK
0.974537687500000,19,0x18,0x91,Read,ACK
0.974560187500000,19,0x18,0x00,Read,ACK
0.974582687500000,19,0x18,0x61,Read,ACK
0.974605187500000,19,0x18,0xFC,Read,ACK
0.974627687500000,19,0x18,0x01,Read,ACK
0.974650187500000,19,0x18,0x1E,Read,ACK
0.974672750000000,19,0x18,0x25,Read,ACK
0.974695250000000,19,0x18,0x01,Read,ACK
0.974717750000000,19,0x18,0x49,Read,ACK
0.974740250000000,19,0x18,0xFC,Read,ACK
0.974762750000000,19,0x18,0xC1,Read,ACK
0.974785250000000,19,0x18,0x1E,Read,ACK
0.974807750000000,19,0x18,0x7D,Read,ACK
0.974830250000000,19,0x18,0x00,Read,ACK
0.974852750000000,19,0x18,0x35,Read,ACK
0.974875312500000,19,0x18,0xFC,Read,ACK
0.974897812500000,19,0x18,0x9D,Read,ACK
0.974920312500000,19,0x18,0x1E,Read,NAK
0.974981187500000,20,0x18,0x3F,Write,ACK
0.975029250000000,21,0x18,0x09,Read,ACK
0.975051750000000,21,0x18,0x01,Read,ACK
0.975074312500000,21,0x18,0x75,Read,ACK
0.975096812500000,21,0x18,0xFC,Read,ACK
0.975119312500000,21,0x18,0x19,Read,ACK
0.975141812500000,21,0x18,0x1E,Read,ACK
0.975164312500000,21,0x18,0x09,Read,ACK
0.975186812500000,21,0x18,0x01,Read,ACK
0.975209312500000,21,0x18,0x0D,Read,ACK
0.975231812500000,21,0x18,0xFC,Read,ACK
0.975254312500000,21,0x18,0xB9,Read,ACK
0.975276875000000,21,0x18,0x1E,Read,ACK
0.975299375000000,21,0x18,0x2D,Read,ACK
0.975321875000000,21,0x18,0x01,Read,ACK
0.975344375000000,21,0x18,0x4D,Read,ACK
0.975366875000000,21,0x18,0xFC,Read,ACK
0.975389375000000,21,0x18,0xD9,Read,ACK
0.975411875000000,21,0x18,0x1E,Read,ACK
0.975434375000000,21,0x18,0x25,Read,ACK
0.975456875000000,21,0x18,0x01,Read,ACK
0.975479437500000,21,0x18,0x69,Read,ACK
0.975501937500000,21,0x18,0xFC,Read,ACK
0.975524437500000,21,0x18,0x81,Read,ACK
0.975546937500000,21,0x18,0x1E,Read,ACK
0.975569437500000,21,0x18,0x31,Read,ACK
0.975591937500000,21,0x18,0x01,Read,ACK
0.975614437500000,21,0x18,0x71,Read,ACK
0.975636937500000,21,0x18,0xFC,Read,ACK
0.975659437500000,21,0x18,0x8D,Read,ACK
0.975681937500000,21,0x18,0x1E,Read,NAK
0.975742875000000,22,0x18,0x3F,Write,ACK
0.975790937500000,23,0x18,0x1D,Read,ACK
0.975813437500000,23,0x18,0x01,Read,ACK
0.975835937500000,23,0x18,0x95,Read,ACK
0.975858437500000,23,0x18,0xFC,Read,ACK
0.975880937500000,23,0x18,0xBD,Read,ACK
0.975903500000000,23,0x18,0x1E,Read,ACK
0.975926000000000,23,0x18,0x01,Read,ACK
0.975948500000000,23,0x18,0x01,Read,ACK
0.975971000000000,23,0x18,0x61,Read,ACK
0.975993500000000,23,0x18,0xFC,Read,ACK
0.976016000000000,23,0x18,0xD1,Read,ACK
0.976038500000000,23,0x18,0x1E,Read,ACK
0.976061000000000,23,0x18,0x19,Read,ACK
0.976083500000000,23,0x18,0x01,Read,ACK
0.976106062500000,23,0x18,0x19,Read,ACK
0.976128562500000,23,0x18,0xFC,Read,ACK
0.976151062500000,23,0x18,0x61,Read,ACK
0.976173562500000,23,0x18,0x1E,Read,ACK
0.976196062500000,23,0x18,0x95,Read,ACK
0.976218562500000,23,0x18,0x00,Read,ACK
0.976241062500000,23,0x18,0x35,Read,ACK
0.976263562500000,23,0x18,0xFC,Read,ACK
0.976286062500000,23,0x18,0x29,Read,ACK
0.976308625000000,23,0x18,0x1E,Read,ACK
0.976331125000000,23,0x18,0xE9,Read,ACK
0.976353625000000,23,0x18,0x00,Read,ACK
0.976376125000000,23,0x18,0x69,Read,ACK
0.976398625000000,23,0x18,0xFC,Read,ACK
0.976421125000000,23,0x18,0x39,Read,ACK
0.976443625000000,23,0x18,0x1E,Read,NAK
0.976504500000000,24,0x18,0x3F,Write,ACK
0.976552625000000,25,0x18,0xF9,Read,ACK
0.976575125000000,25,0x18,0x00,Read,ACK
0.976597625000000,25,0x18,0x65,Read,ACK
0.976620125000000,25,0x18,0xFC,Read,ACK
0.976642625000000,25,0x18,0xB9,Read,ACK
0.976665125000000,25,0x18,0x1E,Read,ACK
0.976687625000000,25,0x18,0x91,Read,ACK
0.976710125000000,25,0x18,0x00,Read,ACK
0.976732687500000,25,0x18,0x71,Read,ACK
0.976755187500000,25,0x18,0xFC,Read,ACK
0.976777687500000,25,0x18,0x35,Read,ACK
0.976800187500000,25,0x18,0x1E,Read,ACK
0.976822687500000,25,0x18,0x31,Read,ACK
0.976845187500000,25,0x18,0x01,Read,ACK
0.976867687500000,25,0x18,0x59,Read,ACK
0.976890187500000,25,0x18,0xFC,Read,ACK
0.976912687500000,25,0x18,0xC9,Read,ACK
0.976935250000000,25,0x18,0x1E,Read,ACK
0.976957750000000,25,0x18,0x3D,Read,ACK
0.976980250000000,25,0x18,0x01,Read,ACK
0.977002750000000,25,0x18,0x41,Read,ACK
0.977025250000000,25,0x18,0xFC,Read,ACK
0.977047750000000,25,0x18,0x91,Read,ACK
0.977070250000000,25,0x18,0x1E,Read,ACK
0.977092750000000,25,0x18,0x11,Read,ACK
0.977115250000000,25,0x18,0x01,Read,ACK
0.977137812500000,25,0x18,0x69,Read,ACK
0.977160312500000,25,0x18,0xFC,Read,ACK
0.977182812500000,25,0x18,0x09,Read,ACK
0.977205312500000,25,0x18,0x1E,Read,NAK
0.977266187500000,26,0x18,0x3F,Write,ACK
0.977314250000000,27,0x18,0x19,Read,ACK
0.977336812500000,27,0x18,0x01,Read,ACK
0.977359312500000,27,0x18,0x55,Read,ACK
0.977381812500000,27,0x18,0xFC,Read,ACK
0.977404312500000,27,0x18,0xB5,Read,ACK
0.977426812500000,27,0x18,0x1E,Read,ACK
0.977449312500000,27,0x18,0xED,Read,ACK
0.977471812500000,27,0x18,0x00,Read,ACK
0.977494312500000,27,0x18,0x45,Read,ACK
0.977516812500000,27,0x18,0xFC,Read,ACK
0.977539312500000,27,0x18,0xA5,Read,ACK
0.977561875000000,27,0x18,0x1E,Read,ACK
0.977584375000000,27,0x18,0x05,Read,ACK
0.977606875000000,27,0x18,0x01,Read,ACK
0.977629375000000,27,0x18,0x65,Read,ACK
0.977651875000000,27,0x18,0xFC,Read,ACK
0.977674375000000,27,0x18,0xC5,Read,ACK
0.977696875000000,27,0x18,0x1E,Read,ACK
0.977719375000000,27,0x18,0x7D,Read,ACK
0.977741937500000,27,0x18,0x00,Read,ACK
0.977764437500000,27,0x18,0x7D,Read,ACK
0.977786937500000,27,0x18,0xFC,Read,ACK
0.977809437500000,27,0x18,0x55,Read,ACK
0.977831937500000,27,0x18,0x1E,Read,ACK
0.977854437500000,27,0x18,0x0D,Read,ACK
0.977876937500000,27,0x18,0x01,Read,ACK
0.977899437500000,27,0x18,0x61,Read,ACK
0.977921937500000,27,0x18,0xFC,Read,ACK
0.977944437500000,27,0x18,0xBD,Read,ACK
0.977967000000000,27,0x18,0x1E,Read,NAK
0.978028750000000,28,0x18,0x3E,Write,ACK
0.978051312500000,28,0x18,0x40,Write,ACK
1.775033437500000,29,0x18,0x0E,Write,ACK
1.775055937500000,29,0x18,0x8C,Write,ACK
1.775076500000000,29,0x18,0x87,Write,NAK
1.775158937500000,30,0x18,0x3F,Write,ACK
1.775207062500000,31,0x18,0x31,Read,ACK
1.775229562500000,31,0x18,0x01,Read,ACK
1.775252062500000,31,0x18,0x75,Read,ACK
1.775274562500000,31,0x18,0xFC,Read,ACK
1.775297062500000,31,0x18,0xB5,Read,ACK
1.775319562500000,31,0x18,0x1E,Read,ACK
1.775342062500000,31,0x18,0x15,Read,ACK
1.775364625000000,31,0x18,0x01,Read,ACK
1.775387125000000,31,0x18,0x35,Read,ACK
1.775409625000000,31,0x18,0xFC,Read,ACK
1.775432125000000,31,0x18,0x21,Read,ACK
1.775454625000000,31,0x18,0x1E,Read,ACK
1.775477125000000,31,0x18,0xED,Read,ACK
1.775499625000000,31,0x18,0x00,Read,ACK
1.775522125000000,31,0x18,0x55,Read,ACK
1.775544625000000,31,0x18,0xFC,Read,ACK
1.775567125000000,31,0x18,0xA9,Read,ACK
1.775589687500000,31,0x18,0x1E,Read,ACK
1.775612187500000,31,0x18,0x21,Read,ACK
1.775634687500000,31,0x18,0x01,Read,ACK
1.775657187500000,31,0x18,0x55,Read,ACK
1.775679687500000,31,0x18,0xFC,Read,ACK
1.775702187500000,31,0x18,0x35,Read,ACK
1.775724687500000,31,0x18,0x1E,Read,ACK
1.775747187500000,31,0x18,0x91,Read,ACK
1.775769687500000,31,0x18,0x00,Read,ACK
1.775792250000000,31,0x18,0x49,Read,ACK
1.775814750000000,31,0x18,0xFC,Read,ACK
1.775837250000000,31,0x18,0x35,Read,ACK
1.775859750000000,31,0x18,0x1E,Read,NAK
1.775920625000000,32,0x18,0x3F,Write,ACK
1.775968687500000,33,0x18,0xE9,Read,ACK
1.775991250000000,33,0x18,0x00,Read,ACK
1.776013750000000,33,0x18,0x65,Read,ACK
1.776036250000000,33,0x18,0xFC,Read,ACK
1.776058750000000,33,0x18,0xD1,Read,ACK
1.776081250000000,33,0x18,0x1E,Read,ACK
1.776103750000000,33,0x18,0x59,Read,ACK
1.776126250000000,33,0x18,0x00,Read,ACK
1.776148750000000,33,0x18,0x51,Read,ACK
1.776171250000000,33,0x18,0xFC,Read,ACK
1.776193750000000,33,0x18,0x85,Read,ACK
1.776216312500000,33,0x18,0x1E,Read,ACK
1.776238812500000,33,0x18,0x15,Read,ACK
1.776261312500000,33,0x18,0x01,Read,ACK
1.776283812500000,33,0x18,0x59,Read,ACK
1.776306312500000,33,0x18,0xFC,Read,ACK
1.776328812500000,33,0x18,0x29,Read,ACK
1.776351312500000,33,0x18,0x1E,Read,ACK
1.776373812500000,33,0x18,0x11,Read,ACK
1.776396375000000,33,0x18,0x01,Read,ACK
1.776418875000000,33,0x18,0x45,Read,ACK
1.776441375000000,33,0x18,0xFC,Read,ACK
1.776463875000000,33,0x18,0xAD,Read,ACK
1.776486375000000,33,0x18,0x1E,Read,ACK
1.776508875000000,33,0x18,0x1D,Read,ACK
1.776531375000000,33,0x18,0x01,Read,ACK
1.776553875000000,33,0x18,0x59,Read,ACK
1.776576375000000,33,0x18,0xFC,Read,ACK
1.776598875000000,33,0x18,0x91,Read,ACK
1.776621437500000,33,0x18,0x1E,Read,NAK
1.776682312500000,34,0x18,0x3F,Write,ACK
1.776704812500000,34,0x18,0x8C,Write,ACK
1.776725375000000,34,0x18,0xAC,Write,ACK
1.776747875000000,34,0x18,0x80,Write,ACK
1.776770375000000,34,0x18,0x1A,Write,ACK
1.776792875000000,34,0x18,0xBF,Write,ACK
1.776815437500000,34,0x18,0x34,Write,ACK
1.776837937500000,34,0x18,0x87,Write,NAK
1.776860437500000,34,0x18,0x3E,Write,ACK
1.776882937500000,34,0x18,0x80,Write,ACK
1.776905437500000,34,0x18,0x17,Write,ACK
1.776927937500000,34,0x18,0xBF,Write,ACK
1.776950437500000,34,0x18,0x2D,Write,ACK
1.776972937500000,34,0x18,0x87,Write,NAK
1.776995437500000,34,0x18,0x3E,Write,ACK
1.777017937500000,34,0x18,0x80,Write,ACK
1.777040500000000,34,0x18,0x22,Write,ACK
1.777063000000000,34,0x18,0xBF,Write,ACK
1.777085500000000,34,0x18,0x08,Write,ACK
1.777108000000000,34,0x18,0x87,Write,NAK
1.777130500000000,34,0x18,0x01,Write,ACK
1.777153000000000,34,0x18,0x80,Write,ACK
1.777175500000000,34,0x18,0x97,Write,ACK
1.777198000000000,34,0x18,0xBF,Write,ACK
1.777220562500000,34,0x18,0x27,Write,ACK
1.777243062500000,34,0x18,0x87,Write,NAK
1.777265562500000,34,0x18,0x03,Write,ACK
1.777288062500000,34,0x18,0x80,Write,ACK
1.777310562500000,34,0x18,0x98,Write,ACK
1.777333062500000,34,0x18,0xBF,Write,ACK
1.777355562500000,34,0x18,0x29,Write,ACK
1.777378062500000,34,0x18,0x87,Write,NAK
1.777444000000000,35,0x18,0x3F,Write,ACK
1.777492062500000,36,0x18,0x11,Read,ACK
1.777514562500000,36,0x18,0x01,Read,ACK
1.777537062500000,36,0x18,0x59,Read,ACK
1.777559562500000,36,0x18,0xFC,Read,ACK
1.777582062500000,36,0x18,0x9D,Read,ACK
1.777604562500000,36,0x18,0x1E,Read,ACK
1.777627062500000,36,0x18,0x8D,Read,ACK
1.777649625000000,36,0x18,0x00,Read,ACK
1.777672125000000,36,0x18,0x59,Read,ACK
1.777694625000000,36,0x18,0xFC,Read,ACK
1.777717125000000,36,0x18,0x41,Read,ACK
1.777739625000000,36,0x18,0x1E,Read,ACK
1.777762125000000,36,0x18,0x15,Read,ACK
1.777784625000000,36,0x18,0x01,Read,ACK
1.777807125000000,36,0x18,0x81,Read,ACK
1.777829625000000,36,0x18,0xFC,Read,ACK
1.777852187500000,36,0x18,0xAD,Read,ACK
1.777874687500000,36,0x18,0x1E,Read,ACK
1.777897187500000,36,0x18,0x05,Read,ACK
1.777919687500000,36,0x18,0x01,Read,ACK
1.777942187500000,36,0x18,0x41,Read,ACK
