Time [s],Packet ID,Address,Data,Read/Write,ACK/NAK
0.173659562500000,0,0x18,0x0E,Write,ACK
0.173682062500000,0,0x18,0x8C,Write,ACK
0.173702625000000,0,0x18,0x87,Write,NAK
0.173785125000000,1,0x18,0x3F,Write,ACK
0.173833187500000,2,0x18,0x0D,Read,ACK
0.173855687500000,2,0x18,0x01,Read,ACK
0.173878187500000,2,0x18,0x31,Read,ACK
0.173900687500000,2,0x18,0xFC,Read,ACK
0.173923187500000,2,0x18,0x39,Read,ACK
0.173945687500000,2,0x18,0x1E,Read,ACK
0.173968187500000,2,0x18,0xED,Read,ACK
0.173990750000000,2,0x18,0x00,Read,ACK
0.174013250000000,2,0x18,0x41,Read,ACK
0.174035750000000,2,0x18,0xFC,Read,ACK
0.174058250000000,2,0x18,0xD9,Read,ACK
0.174080750000000,2,0x18,0x1E,Read,ACK
0.174103250000000,2,0x18,0xC5,Read,ACK
0.174125750000000,2,0x18,0x00,Read,ACK
0.174148250000000,2,0x18,0x39,Read,ACK
0.174170750000000,2,0x18,0xFC,Read,ACK
0.174193250000000,2,0x18,0xF1,Read,ACK
0.174215812500000,2,0x18,0x1E,Read,ACK
0.174238312500000,2,0x18,0x45,Read,ACK
0.174260812500000,2,0x18,0x00,Read,ACK
0.174283312500000,2,0x18,0x35,Read,ACK
0.174305812500000,2,0x18,0xFC,Read,ACK
0.174328312500000,2,0x18,0xD1,Read,ACK
0.174350812500000,2,0x18,0x1E,Read,ACK
0.174373312500000,2,0x18,0x09,Read,ACK
0.174395812500000,2,0x18,0x01,Read,ACK
0.174418375000000,2,0x18,0x35,Read,ACK
0.174440875000000,2,0x18,0xFC,Read,ACK
0.174463375000000,2,0x18,0x99,Read,ACK
0.174485875000000,2,0x18,0x1E,Read,NAK
0.174546750000000,3,0x18,0x3F,Write,ACK
0.174594812500000,4,0x18,0x8D,Read,ACK
0.174617375000000,4,0x18,0x00,Read,ACK
0.174639875000000,4,0x18,0x4D,Read,ACK
0.174662375000000,4,0x18,0xFC,Read,ACK
0.174684875000000,4,0x18,0xD1,Read,ACK
0.174707375000000,4,0x18,0x1E,Read,ACK
0.174729875000000,4,0x18,0x1D,Read,ACK
0.174752375000000,4,0x18,0x01,Read,ACK
0.174774875000000,4,0x18,0x4D,Read,ACK
0.174797375000000,4,0x18,0xFC,Read,ACK
0.174819937500000,4,0x18,0xC5,Read,ACK
0.174842437500000,4,0x18,0x1E,Read,ACK
0.174864937500000,4,0x18,0x45,Read,ACK
0.174887437500000,4,0x18,0x01,Read,ACK
0.174909937500000,4,0x18,0x5D,Read,ACK
0.174932437500000,4,0x18,0xFC,Read,ACK
0.174954937500000,4,0x18,0x7D,Read,ACK
0.174977437500000,4,0x18,0x1E,Read,ACK
0.174999937500000,4,0x18,0x5D,Read,ACK
0.175022500000000,4,0x18,0x01,Read,ACK
0.175045000000000,4,0x18,0x5D,Read,ACK
0.175067500000000,4,0x18,0xFC,Read,ACK
0.175090000000000,4,0x18,0x01,Read,ACK
0.175112500000000,4,0x18,0x1E,Read,ACK
0.175135000000000,4,0x18,0x6D,Read,ACK
0.175157500000000,4,0x18,0x00,Read,ACK
0.175180000000000,4,0x18,0x4D,Read,ACK
0.175202500000000,4,0x18,0xFC,Read,ACK
0.175225062500000,4,0x18,0xF5,Read,ACK
0.175247562500000,4,0x18,0x1E,Read,NAK
0.175308437500000,5,0x18,0x3F,Write,ACK
0.175356500000000,6,0x18,0xC1,Read,ACK
0.175379000000000,6,0x18,0x00,Read,ACK
0.175401500000000,6,0x18,0xA9,Read,ACK
0.175424000000000,6,0x18,0xFC,Read,ACK
0.175446562500000,6,0x18,0xA9,Read,ACK
0.175469062500000,6,0x18,0x1E,Read,ACK
0.175491562500000,6,0x18,0xF5,Read,ACK
0.175514062500000,6,0x18,0x00,Read,ACK
0.175536562500000,6,0x18,0x61,Read,ACK
0.175559062500000,6,0x18,0xFC,Read,ACK
0.175581562500000,6,0x18,0xC9,Read,ACK
0.175604062500000,6,0x18,0x1E,Read,ACK
0.175626625000000,6,0x18,0x05,Read,ACK
0.175649125000000,6,0x18,0x01,Read,ACK
0.175671625000000,6,0x18,0x89,Read,ACK
0.175694125000000,6,0x18,0xFC,Read,ACK
0.175716625000000,6,0x18,0x11,Read,ACK
0.175739125000000,6,0x18,0x1F,Read,ACK
0.175761625000000,6,0x18,0x19,Read,ACK
0.175784125000000,6,0x18,0x01,Read,ACK
0.175806625000000,6,0x18,0x89,Read,ACK
0.175829125000000,6,0x18,0xFC,Read,ACK
0.175851687500000,6,0x18,0x6D,Read,ACK
0.175874187500000,6,0x18,0x1E,Read,ACK
0.175896687500000,6,0x18,0xE9,Read,ACK
0.175919187500000,6,0x18,0x00,Read,ACK
0.175941687500000,6,0x18,0x41,Read,ACK
0.175964187500000,6,0x18,0xFC,Read,ACK
0.175986687500000,6,0x18,0x75,Read,ACK
0.176009187500000,6,0x18,0x1E,Read,NAK
0.176070125000000,7,0x18,0x3F,Write,ACK
0.176118187500000,8,0x18,0x0D,Read,ACK
0.176140687500000,8,0x18,0x01,Read,ACK
0.176163187500000,8,0x18,0x71,Read,ACK
0.176185687500000,8,0x18,0xFC,Read,ACK
0.176208187500000,8,0x18,0x51,Read,ACK
0.176230687500000,8,0x18,0x1E,Read,ACK
0.176253250000000,8,0x18,0x19,Read,ACK
0.176275750000000,8,0x18,0x01,Read,ACK
0.176298250000000,8,0x18,0x2D,Read,ACK
0.176320750000000,8,0x18,0xFC,Read,ACK
0.176343250000000,8,0x18,0x29,Read,ACK
0.176365750000000,8,0x18,0x1E,Read,ACK
0.176388250000000,8,0x18,0x1D,Read,ACK
0.176410750000000,8,0x18,0x01,Read,ACK
0.176433250000000,8,0x18,0x6D,Read,ACK
0.176455750000000,8,0x18,0xFC,Read,ACK
0.176478312500000,8,0x18,0xBD,Read,ACK
0.176500812500000,8,0x18,0x1E,Read,ACK
0.176523312500000,8,0x18,0x09,Read,ACK
0.176545812500000,8,0x18,0x01,Read,ACK
0.176568312500000,8,0x18,0x79,Read,ACK
0.176590812500000,8,0x18,0xFC,Read,ACK
0.176613312500000,8,0x18,0x99,Read,ACK
0.176635812500000,8,0x18,0x1E,Read,ACK
0.176658312500000,8,0x18,0xF5,Read,ACK
0.176680875000000,8,0x18,0x00,Read,ACK
0.176703375000000,8,0x18,0x25,Read,ACK
0.176725875000000,8,0x18,0xFC,Read,ACK
0.176748375000000,8,0x18,0xE1,Read,ACK
0.176770875000000,8,0x18,0x1E,Read,NAK
0.176831750000000,9,0x18,0x3F,Write,ACK
0.176879875000000,10,0x18,0x0D,Read,ACK
0.176902375000000,10,0x18,0x01,Read,ACK
0.176924875000000,10,0x18,0x75,Read,ACK
0.176947375000000,10,0x18,0xFC,Read,ACK
0.176969875000000,10,0x18,0xD5,Read,ACK
0.176992375000000,10,0x18,0x1E,Read,ACK
0.177014875000000,10,0x18,0xF5,Read,ACK
0.177037375000000,10,0x18,0x00,Read,ACK
0.177059875000000,10,0x18,0x31,Read,ACK
0.177082437500000,10,0x18,0xFC,Read,ACK
0.177104937500000,10,0x18,0xAD,Read,ACK
0.177127437500000,10,0x18,0x1E,Read,ACK
0.177149937500000,10,0x18,0xA1,Read,ACK
0.177172437500000,10,0x18,0x00,Read,ACK
0.177194937500000,10,0x18,0x55,Read,ACK
0.177217437500000,10,0x18,0xFC,Read,ACK
0.177239937500000,10,0x18,0x39,Read,ACK
0.177262437500000,10,0x18,0x1E,Read,ACK
0.177285000000000,10,0x18,0x05,Read,ACK
0.177307500000000,10,0x18,0x01,Read,ACK
0.177330000000000,10,0x18,0x41,Read,ACK
0.177352500000000,10,0x18,0xFC,Read,ACK
0.177375000000000,10,0x18,0xC5,Read,ACK
0.177397500000000,10,0x18,0x1E,Read,ACK
0.177420000000000,10,0x18,0x19,Read,ACK
0.177442500000000,10,0x18,0x01,Read,ACK
0.177465000000000,10,0x18,0x29,Read,ACK
0.177487500000000,10,0x18,0xFC,Read,ACK
0.177510062500000,10,0x18,0x7D,Read,ACK
0.177532562500000,10,0x18,0x1E,Read,NAK
0.177593437500000,11,0x18,0x3F,Write,ACK
0.177641500000000,12,0x18,0xC5,Read,ACK
0.177664000000000,12,0x18,0x00,Read,ACK
0.177686562500000,12,0x18,0x61,Read,ACK
0.177709062500000,12,0x18,0xFC,Read,ACK
0.177731562500000,12,0x18,0xAD,Read,ACK
0.177754062500000,12,0x18,0x1E,Read,ACK
0.177776562500000,12,0x18,0x09,Read,ACK
0.177799062500000,12,0x18,0x01,Read,ACK
0.177821562500000,12,0x18,0x51,Read,ACK
0.177844062500000,12,0x18,0xFC,Read,ACK
0.177866562500000,12,0x18,0xA1,Read,ACK
0.177889125000000,12,0x18,0x1E,Read,ACK
0.177911625000000,12,0x18,0xB1,Read,ACK
0.177934125000000,12,0x18,0x00,Read,ACK
0.177956625000000,12,0x18,0x4D,Read,ACK
0.177979125000000,12,0x18,0xFC,Read,ACK
0.178001625000000,12,0x18,0x11,Read,ACK
0.178024125000000,12,0x18,0x1E,Read,ACK
0.178046625000000,12,0x18,0x95,Read,ACK
0.178069125000000,12,0x18,0x00,Read,ACK
0.178091687500000,12,0x18,0x59,Read,ACK
0.178114187500000,12,0x18,0xFC,Read,ACK
0.178136687500000,12,0x18,0xBD,Read,ACK
0.178159187500000,12,0x18,0x1E,Read,ACK
0.178181687500000,12,0x18,0xF5,Read,ACK
0.178204187500000,12,0x18,0x00,Read,ACK
0.178226687500000,12,0x18,0x1D,Read,ACK
0.178249187500000,12,0x18,0xFC,Read,ACK
0.178271687500000,12,0x18,0xA1,Read,ACK
0.178294187500000,12,0x18,0x1E,Read,NAK
0.178356000000000,13,0x18,0x3E,Write,ACK
0.178378562500000,13,0x18,0x40,Write,ACK
0.973332312500000,14,0x18,0x0E,Write,ACK
0.973380375000000,15,0x18,0x1E,Read,NAK
0.973457875000000,16,0x18,0x3F,Write,ACK
0.973505937500000,17,0x18,0xF5,Read,ACK
0.973528437500000,17,0x18,0x00,Read,ACK
0.973550937500000,17,0x18,0x61,Read,ACK
0.973573437500000,17,0x18,0xFC,Read,ACK
0.973595937500000,17,0x18,0xFD,Read,ACK
0.973618437500000,17,0x18,0x1E,Read,ACK
0.973641000000000,17,0x18,0x89,Read,ACK
0.973663500000000,17,0x18,0x00,Read,ACK
0.973686000000000,17,0x18,0x35,Read,ACK
0.973708500000000,17,0x18,0xFC,Read,ACK
0.973731000000000,17,0x18,0x8D,Read,ACK
0.973753500000000,17,0x18,0x1E,Read,ACK
0.973776000000000,17,0x18,0x39,Read,ACK
0.973798500000000,17,0x18,0x01,Read,ACK
0.973821000000000,17,0x18,0x39,Read,ACK
0.973843500000000,17,0x18,0xFC,Read,ACK
0.973866062500000,17,0x18,0x29,Read,ACK
0.973888562500000,17,0x18,0x1E,Read,ACK
0.973911062500000,17,0x18,0x39,Read,ACK
0.973933562500000,17,0x18,0x01,Read,ACK
0.973956062500000,17,0x18,0x49,Read,ACK
0.973978562500000,17,0x18,0xFC,Read,ACK
0.974001062500000,17,0x18,0x9D,Read,ACK
0.974023562500000,17,0x18,0x1E,Read,ACK
0.974046062500000,17,0x18,0xE9,Read,ACK
0.974068625000000,17,0x18,0x00,Read,ACK
0.974091125000000,17,0x18,0x3D,Read,ACK
0.974113625000000,17,0x18,0xFC,Read,ACK
0.974136125000000,17,0x18,0x81,Read,ACK
0.974158625000000,17,0x18,0x1E,Read,NAK
0.974219500000000,18,0x18,0x3F,Write,ACK
0.974267625000000,19,0x18,0x2D,Read,ACK
0.974290125000000,19,0x18,0x01,Read,ACK
0.974312625000000,19,0x18,0x9D,Read,ACK
0.974335125000000,19,0x18,0xFC,Read,ACK
0.974357625000000,19,0x18,0x11,Read,ACK
0.974380125000000,19,0x18,0x1E,Read,ACK
0.974402625000000,19,0x18,0x31,Read,ACK
0.974425125000000,19,0x18,0x01,Read,ACK
0.974447625000000,19,0x18,0x2D,Read,ACK
0.974470187500000,19,0x18,0xFC,Read,ACK
0.974492687500000,19,0x18,0x6D,Read,ACK
0.974515187500000,19,0x18,0x1E,Read,ACK
0.974537687500000,19,0x18,0x91,Read,ACK
0.974560187500000,19,0x18,0x00,Read,ACK
0.974582687500000,19,0x18,0x61,Read,ACK
0.974605187500000,19,0x18,0xFC,Read,ACK
0.974627687500000,19,0x18,0x01,Read,ACK
0.974650187500000,19,0x18,0x1E,Read,ACK
0.974672750000000,19,0x18,0x25,Read,ACK
0.974695250000000,19,0x18,0x01,Read,ACK
0.974717750000000,19,0x18,0x49,Read,ACK
0.974740250000000,19,0x18,0xFC,Read,ACK
0.974762750000000,19,0x18,0xC1,Read,ACK
0.974785250000000,19,0x18,0x1E,Read,ACK
0.974807750000000,19,0x18,0x7D,Read,ACK
0.974830250000000,19,0x18,0x00,Read,ACK
0.974852750000000,19,0x18,0x35,Read,ACK
0.974875312500000,19,0x18,0xFC,Read,ACK
0.974897812500000,19,0x18,0x9D,Read,ACK
0.974920312500000,19,0x18,0x1E,Read,NAK
0.974981187500000,20,0x18,0x3F,Write,ACK
0.975029250000000,21,0x18,0x09,Read,ACK
0.975051750000000,21,0x18,0x01,Read,ACK
0.975074312500000,21,0x18,0x75,Read,ACK
0.975096812500000,21,0x18,0xFC,Read,ACK
0.975119312500000,21,0x18,0x19,Read,ACK
0.975141812500000,21,0x18,0x1E,Read,ACK
0.975164312500000,21,0x18,0x09,Read,ACK
0.975186812500000,21,0x18,0x01,Read,ACK
0.975209312500000,21,0x18,0x0D,Read,ACK
0.975231812500000,21,0x18,0xFC,Read,ACK
0.975254312500000,21,0x18,0xB9,Read,ACK
0.975276875000000,21,0x18,0x1E,Read,ACK
0.975299375000000,21,0x18,0x2D,Read,ACK
0.975321875000000,21,0x18,0x01,Read,ACK
0.975344375000000,21,0x18,0x4D,Read,ACK
0.975366875000000,21,0x18,0xFC,Read,ACK
0.975389375000000,21,0x18,0xD9,Read,ACK
0.975411875000000,21,0x18,0x1E,Read,ACK
0.975434375000000,21,0x18,0x25,Read,ACK
0.975456875000000,21,0x18,0x01,Read,ACK
0.975479437500000,21,0x18,0x69,Read,ACK
0.975501937500000,21,0x18,0xFC,Read,ACK
0.975524437500000,21,0x18,0x81,Read,ACK
0.975546937500000,21,0x18,0x1E,Read,ACK
0.975569437500000,21,0x18,0x31,Read,ACK
0.975591937500000,21,0x18,0x01,Read,ACK
0.975614437500000,21,0x18,0x71,Read,ACK
0.975636937500000,21,0x18,0xFC,Read,ACK
0.975659437500000,21,0x18,0x8D,Read,ACK
0.975681937500000,21,0x18,0x1E,Read,NAK
0.975742875000000,22,0x18,0x3F,Write,ACK
0.975790937500000,23,0x18,0x1D,Read,ACK
0.975813437500000,23,0x18,0x01,Read,ACK
0.975835937500000,23,0x18,0x95,Read,ACK
0.975858437500000,23,0x18,0xFC,Read,ACK
0.975880937500000,23,0x18,0xBD,Read,ACK
0.975903500000000,23,0x18,0x1E,Read,ACK
0.975926000000000,23,0x18,0x01,Read,ACK
0.975948500000000,23,0x18,0x01,Read,ACK
0.975971000000000,23,0x18,0x61,Read,ACK
0.975993500000000,23,0x18,0xFC,Read,ACK
0.976016000000000,23,0x18,0xD1,Read,ACK
0.976038500000000,23,0x18,0x1E,Read,ACK
0.976061000000000,23,0x18,0x19,Read,ACK
0.976083500000000,23,0x18,0x01,Read,ACK
0.976106062500000,23,0x18,0x19,Read,ACK
0.976128562500000,23,0x18,0xFC,Read,ACK
0.976151062500000,23,0x18,0x61,Read,ACK
0.976173562500000,23,0x18,0x1E,Read,ACK
0.976196062500000,23,0x18,0x95,Read,ACK
0.976218562500000,23,0x18,0x00,Read,ACK
0.976241062500000,23,0x18,0x35,Read,ACK
0.976263562500000,23,0x18,0xFC,Read,ACK
0.976286062500000,23,0x18,0x29,Read,ACK
0.976308625000000,23,0x18,0x1E,Read,ACK
0.976331125000000,23,0x18,0xE9,Read,ACK
0.976353625000000,23,0x18,0x00,Read,ACK
0.976376125000000,23,0x18,0x69,Read,ACK
0.976398625000000,23,0x18,0xFC,Read,ACK
0.976421125000000,23,0x18,0x39,Read,ACK
0.976443625000000,23,0x18,0x1E,Read,NAK
0.976504500000000,24,0x18,0x3F,Write,ACK
0.976552625000000,25,0x18,0xF9,Read,ACK
0.976575125000000,25,0x18,0x00,Read,ACK
0.976597625000000,25,0x18,0x65,Read,ACK
0.976620125000000,25,0x18,0xFC,Read,ACK
0.976642625000000,25,0x18,0xB9,Read,ACK
0.976665125000000,25,0x18,0x1E,Read,ACK
0.976687625000000,25,0x18,0x91,Read,ACK
0.976710125000000,25,0x18,0x00,Read,ACK
0.976732687500000,25,0x18,0x71,Read,ACK
0.976755187500000,25,0x18,0xFC,Read,ACK
0.976777687500000,25,0x18,0x35,Read,ACK
0.976800187500000,25,0x18,0x1E,Read,ACK
0.976822687500000,25,0x18,0x31,Read,ACK
0.976845187500000,25,0x18,0x01,Read,ACK
0.976867687500000,25,0x18,0x59,Read,ACK
0.976890187500000,25,0x18,0xFC,Read,ACK
0.976912687500000,25,0x18,0xC9,Read,ACK
0.976935250000000,25,0x18,0x1E,Read,ACK
0.976957750000000,25,0x18,0x3D,Read,ACK
0.976980250000000,25,0x18,0x01,Read,ACK
0.977002750000000,25,0x18,0x41,Read,ACK
0.977025250000000,25,0x18,0xFC,Read,ACK
0.977047750000000,25,0x18,0x91,Read,ACK
0.977070250000000,25,0x18,0x1E,Read,ACK
0.977092750000000,25,0x18,0x11,Read,ACK
0.977115250000000,25,0x18,0x01,Read,ACK
0.977137812500000,25,0x18,0x69,Read,ACK
0.977160312500000,25,0x18,0xFC,Read,ACK
0.977182812500000,25,0x18,0x09,Read,ACK
0.977205312500000,25,0x18,0x1E,Read,NAK
0.977266187500000,26,0x18,0x3F,Write,ACK
0.977314250000000,27,0x18,0x19,Read,ACK
0.977336812500000,27,0x18,0x01,Read,ACK
0.977359312500000,27,0x18,0x55,Read,ACK
0.977381812500000,27,0x18,0xFC,Read,ACK
0.977404312500000,27,0x18,0xB5,Read,ACK
0.977426812500000,27,0x18,0x1E,Read,ACK
0.977449312500000,27,0x18,0xED,Read,ACK
0.977471812500000,27,0x18,0x00,Read,ACK
0.977494312500000,27,0x18,0x45,Read,ACK
0.977516812500000,27,0x18,0xFC,Read,ACK
0.977539312500000,27,0x18,0xA5,Read,ACK
0.977561875000000,27,0x18,0x1E,Read,ACK
0.977584375000000,27,0x18,0x05,Read,ACK
0.977606875000000,27,0x18,0x01,Read,ACK
0.977629375000000,27,0x18,0x65,Read,ACK
0.977651875000000,27,0x18,0xFC,Read,ACK
0.977674375000000,27,0x18,0xC5,Read,ACK
0.977696875000000,27,0x18,0x1E,Read,ACK
0.977719375000000,27,0x18,0x7D,Read,ACK
0.977741937500000,27,0x18,0x00,Read,ACK
0.977764437500000,27,0x18,0x7D,Read,ACK
0.977786937500000,27,0x18,0xFC,Read,ACK
0.977809437500000,27,0x18,0x55,Read,ACK
0.977831937500000,27,0x18,0x1E,Read,ACK
0.977854437500000,27,0x18,0x0D,Read,ACK
0.977876937500000,27,0x18,0x01,Read,ACK
0.977899437500000,27,0x18,0x61,Read,ACK
0.977921937500000,27,0x18,0xFC,Read,ACK
0.977944437500000,27,0x18,0xBD,Read,ACK
0.977967000000000,27,0x18,0x1E,Read,NAK
0.978028750000000,28,0x18,0x3E,Write,ACK
0.978051312500000,28,0x18,0x40,Write,ACK
1.775033437500000,29,0x18,0x0E,Write,ACK
1.775055937500000,29,0x18,0x8C,Write,ACK
1.775076500000000,29,0x18,0x87,Write,NAK
1.775158937500000,30,0x18,0x3F,Write,ACK
1.775207062500000,31,0x18,0x31,Read,ACK
1.775229562500000,31,0x18,0x01,Read,ACK
1.775252062500000,31,0x18,0x75,Read,ACK
1.775274562500000,31,0x18,0xFC,Read,ACK
1.775297062500000,31,0x18,0xB5,Read,ACK
1.775319562500000,31,0x18,0x1E,Read,ACK
1.775342062500000,31,0x18,0x15,Read,ACK
1.775364625000000,31,0x18,0x01,Read,ACK
1.775387125000000,31,0x18,0x35,Read,ACK
1.775409625000000,31,0x18,0xFC,Read,ACK
1.775432125000000,31,0x18,0x21,Read,ACK
1.775454625000000,31,0x18,0x1E,Read,ACK
1.775477125000000,31,0x18,0xED,Read,ACK
1.775499625000000,31,0x18,0x00,Read,ACK
1.775522125000000,31,0x18,0x55,Read,ACK
1.775544625000000,31,0x18,0xFC,Read,ACK
1.775567125000000,31,0x18,0xA9,Read,ACK
1.775589687500000,31,0x18,0x1E,Read,ACK
1.775612187500000,31,0x18,0x21,Read,ACK
1.775634687500000,31,0x18,0x01,Read,ACK
1.775657187500000,31,0x18,0x55,Read,ACK
1.775679687500000,31,0x18,0xFC,Read,ACK
1.775702187500000,31,0x18,0x35,Read,ACK
1.775724687500000,31,0x18,0x1E,Read,ACK
1.775747187500000,31,0x18,0x91,Read,ACK
1.775769687500000,31,0x18,0x00,Read,ACK
1.775792250000000,31,0x18,0x49,Read,ACK
1.775814750000000,31,0x18,0xFC,Read,ACK
1.775837250000000,31,0x18,0x35,Read,ACK
1.775859750000000,31,0x18,0x1E,Read,NAK
1.775920625000000,32,0x18,0x3F,Write,ACK
1.775968687500000,33,0x18,0xE9,Read,ACK
1.775991250000000,33,0x18,0x00,Read,ACK
1.776013750000000,33,0x18,0x65,Read,ACK
1.776036250000000,33,0x18,0xFC,Read,ACK
1.776058750000000,33,0x18,0xD1,Read,ACK
1.776081250000000,33,0x18,0x1E,Read,ACK
1.776103750000000,33,0x18,0x59,Read,ACK
1.776126250000000,33,0x18,0x00,Read,ACK
1.776148750000000,33,0x18,0x51,Read,ACK
1.776171250000000,33,0x18,0xFC,Read,ACK
1.776193750000000,33,0x18,0x85,Read,ACK
1.776216312500000,33,0x18,0x1E,Read,ACK
1.776238812500000,33,0x18,0x15,Read,ACK
1.776261312500000,33,0x18,0x01,Read,ACK
1.776283812500000,33,0x18,0x59,Read,ACK
1.776306312500000,33,0x18,0xFC,Read,ACK
1.776328812500000,33,0x18,0x29,Read,ACK
1.776351312500000,33,0x18,0x1E,Read,ACK
1.776373812500000,33,0x18,0x11,Read,ACK
1.776396375000000,33,0x18,0x01,Read,ACK
1.776418875000000,33,0x18,0x45,Read,ACK
1.776441375000000,33,0x18,0xFC,Read,ACK
1.776463875000000,33,0x18,0xAD,Read,ACK
1.776486375000000,33,0x18,0x1E,Read,ACK
1.776508875000000,33,0x18,0x1D,Read,ACK
1.776531375000000,33,0x18,0x01,Read,ACK
1.776553875000000,33,0x18,0x59,Read,ACK
1.776576375000000,33,0x18,0xFC,Read,ACK
1.776598875000000,33,0x18,0x91,Read,ACK
1.776621437500000,33,0x18,0x1E,Read,NAK
1.776682312500000,34,0x18,0x3F,Write,ACK
1.776704812500000,34,0x18,0x8C,Write,ACK
1.776725375000000,34,0x18,0xAC,Write,ACK
1.776747875000000,34,0x18,0x80,Write,ACK
1.776770375000000,34,0x18,0x1A,Write,ACK
1.776792875000000,34,0x18,0xBF,Write,ACK
1.776815437500000,34,0x18,0x34,Write,ACK
1.776837937500000,34,0x18,0x87,Write,NAK
1.776860437500000,34,0x18,0x3E,Write,ACK
1.776882937500000,34,0x18,0x80,Write,ACK
1.776905437500000,34,0x18,0x17,Write,ACK
1.776927937500000,34,0x18,0xBF,Write,ACK
1.776950437500000,34,0x18,0x2D,Write,ACK
1.776972937500000,34,0x18,0x87,Write,NAK
1.776995437500000,34,0x18,0x3E,Write,ACK
1.777017937500000,34,0x18,0x80,Write,ACK
1.777040500000000,34,0x18,0x22,Write,ACK
1.777063000000000,34,0x18,0xBF,Write,ACK
1.777085500000000,34,0x18,0x08,Write,ACK
1.777108000000000,34,0x18,0x87,Write,NAK
1.777130500000000,34,0x18,0x01,Write,ACK
1.777153000000000,34,0x18,0x80,Write,ACK
1.777175500000000,34,0x18,0x97,Write,ACK
1.777198000000000,34,0x18,0xBF,Write,ACK
1.777220562500000,34,0x18,0x27,Write,ACK
1.777243062500000,34,0x18,0x87,Write,NAK
1.777265562500000,34,0x18,0x03,Write,ACK
1.777288062500000,34,0x18,0x80,Write,ACK
1.777310562500000,34,0x18,0x98,Write,ACK
1.777333062500000,34,0x18,0xBF,Write,ACK
1.777355562500000,34,0x18,0x29,Write,ACK
1.777378062500000,34,0x18,0x87,Write,NAK
1.777444000000000,35,0x18,0x3F,Write,ACK
1.777492062500000,36,0x18,0x11,Read,ACK
1.777514562500000,36,0x18,0x01,Read,ACK
1.777537062500000,36,0x18,0x59,Read,ACK
1.777559562500000,36,0x18,0xFC,Read,ACK
1.777582062500000,36,0x18,0x9D,Read,ACK
1.777604562500000,36,0x18,0x1E,Read,ACK
1.777627062500000,36,0x18,0x8D,Read,ACK
1.777649625000000,36,0x18,0x00,Read,ACK
1.777672125000000,36,0x18,0x59,Read,ACK
1.777694625000000,36,0x18,0xFC,Read,ACK
1.777717125000000,36,0x18,0x41,Read,ACK
1.777739625000000,36,0x18,0x1E,Read,ACK
1.777762125000000,36,0x18,0x15,Read,ACK
1.777784625000000,36,0x18,0x01,Read,ACK
1.777807125000000,36,0x18,0x81,Read,ACK
1.777829625000000,36,0x18,0xFC,Read,ACK
1.777852187500000,36,0x18,0xAD,Read,ACK
1.777874687500000,36,0x18,0x1E,Read,ACK
1.777897187500000,36,0x18,0x05,Read,ACK
1.777919687500000,36,0x18,0x01,Read,ACK
1.777942187500000,36,0x18,0x41,Read,ACK
1.777964687500000,36,0x18,0xFC,Read,ACK
1.777987187500000,36,0x18,0x19,Read,ACK
1.778009687500000,36,0x18,0x1E,Read,ACK
1.778032187500000,36,0x18,0x01,Read,ACK
1.778054750000000,36,0x18,0x01,Read,ACK
1.778077250000000,36,0x18,0x55,Read,ACK
1.778099750000000,36,0x18,0xFC,Read,ACK
1.778122250000000,36,0x18,0xB1,Read,ACK
1.778144750000000,36,0x18,0x1E,Read,NAK
1.778205625000000,37,0x18,0x3F,Write,ACK
1.778253750000000,38,0x18,0x05,Read,ACK
1.778276250000000,38,0x18,0x01,Read,ACK
1.778298750000000,38,0x18,0x55,Read,ACK
1.778321250000000,38,0x18,0xFC,Read,ACK
1.778343750000000,38,0x18,0x31,Read,ACK
1.778366250000000,38,0x18,0x1E,Read,ACK
1.778388750000000,38,0x18,0x15,Read,ACK
1.778411250000000,38,0x18,0x01,Read,ACK
1.778433750000000,38,0x18,0x69,Read,ACK
1.778456250000000,38,0x18,0xFC,Read,ACK
1.778478812500000,38,0x18,0xB9,Read,ACK
1.778501312500000,38,0x18,0x1E,Read,ACK
1.778523812500000,38,0x18,0x01,Read,ACK
1.778546312500000,38,0x18,0x01,Read,ACK
1.778568812500000,38,0x18,0x51,Read,ACK
1.778591312500000,38,0x18,0xFC,Read,ACK
1.778613812500000,38,0x18,0xB5,Read,ACK
1.778636312500000,38,0x18,0x1E,Read,ACK
1.778658812500000,38,0x18,0x09,Read,ACK
1.778681375000000,38,0x18,0x01,Read,ACK
1.778703875000000,38,0x18,0x5D,Read,ACK
1.778726375000000,38,0x18,0xFC,Read,ACK
1.778748875000000,38,0x18,0xB5,Read,ACK
1.778771375000000,38,0x18,0x1E,Read,ACK
1.778793875000000,38,0x18,0x21,Read,ACK
1.778816375000000,38,0x18,0x01,Read,ACK
1.778838875000000,38,0x18,0x71,Read,ACK
1.778861375000000,38,0x18,0xFC,Read,ACK
1.778883937500000,38,0x18,0xBD,Read,ACK
1.778906437500000,38,0x18,0x1E,Read,NAK
1.778967312500000,39,0x18,0x3F,Write,ACK
1.779015375000000,40,0x18,0x01,Read,ACK
1.779037875000000,40,0x18,0x01,Read,ACK
1.779060375000000,40,0x18,0x61,Read,ACK
1.779082937500000,40,0x18,0xFC,Read,ACK
1.779105437500000,40,0x18,0xA9,Read,ACK
1.779127937500000,40,0x18,0x1E,Read,ACK
1.779150437500000,40,0x18,0xFD,Read,ACK
1.779172937500000,40,0x18,0x00,Read,ACK
1.779195437500000,40,0x18,0x61,Read,ACK
1.779217937500000,40,0x18,0xFC,Read,ACK
1.779240437500000,40,0x18,0x31,Read,ACK
1.779262937500000,40,0x18,0x1E,Read,ACK
1.779285500000000,40,0x18,0x09,Read,ACK
1.779308000000000,40,0x18,0x01,Read,ACK
1.779330500000000,40,0x18,0x7D,Read,ACK
1.779353000000000,40,0x18,0xFC,Read,ACK
1.779375500000000,40,0x18,0x2D,Read,ACK
1.779398000000000,40,0x18,0x1E,Read,ACK
1.779420500000000,40,0x18,0x0D,Read,ACK
1.779443000000000,40,0x18,0x01,Read,ACK
1.779465500000000,40,0x18,0x55,Read,ACK
1.779488000000000,40,0x18,0xFC,Read,ACK
1.779510562500000,40,0x18,0xB1,Read,ACK
1.779533062500000,40,0x18,0x1E,Read,ACK
1.779555562500000,40,0x18,0x21,Read,ACK
1.779578062500000,40,0x18,0x01,Read,ACK
1.779600562500000,40,0x18,0x49,Read,ACK
1.779623062500000,40,0x18,0xFC,Read,ACK
1.779645562500000,40,0x18,0x11,Read,ACK
1.779668062500000,40,0x18,0x1E,Read,NAK
1.779729875000000,41,0x18,0x3E,Write,ACK
1.779752437500000,41,0x18,0x40,Write,ACK
2.574745500000000,42,0x18,0x0E,Write,ACK
2.574793562500000,43,0x18,0x1F,Read,NAK
2.574871000000000,44,0x18,0x3F,Write,ACK
2.574919062500000,45,0x18,0x15,Read,ACK
2.574941625000000,45,0x18,0x01,Read,ACK
2.574964125000000,45,0x18,0x6D,Read,ACK
2.574986625000000,45,0x18,0xFC,Read,ACK
2.575009125000000,45,0x18,0x9D,Read,ACK
2.575031625000000,45,0x18,0x1E,Read,ACK
2.575054125000000,45,0x18,0x15,Read,ACK
2.575076625000000,45,0x18,0x01,Read,ACK
2.575099125000000,45,0x18,0x59,Read,ACK
2.575121625000000,45,0x18,0xFC,Read,ACK
2.575144125000000,45,0x18,0xCD,Read,ACK
2.575166687500000,45,0x18,0x1E,Read,ACK
2.575189187500000,45,0x18,0x89,Read,ACK
2.575211687500000,45,0x18,0x00,Read,ACK
2.575234187500000,45,0x18,0x4D,Read,ACK
2.575256687500000,45,0x18,0xFC,Read,ACK
2.575279187500000,45,0x18,0xED,Read,ACK
2.575301687500000,45,0x18,0x1E,Read,ACK
2.575324187500000,45,0x18,0x79,Read,ACK
2.575346687500000,45,0x18,0x00,Read,ACK
2.575369250000000,45,0x18,0x55,Read,ACK
2.575391750000000,45,0x18,0xFC,Read,ACK
2.575414250000000,45,0x18,0xE9,Read,ACK
2.575436750000000,45,0x18,0x1E,Read,ACK
2.575459250000000,45,0x18,0x11,Read,ACK
2.575481750000000,45,0x18,0x01,Read,ACK
2.575504250000000,45,0x18,0x6D,Read,ACK
2.575526750000000,45,0x18,0xFC,Read,ACK
2.575549312500000,45,0x18,0x29,Read,ACK
2.575571812500000,45,0x18,0x1E,Read,NAK
2.575632687500000,46,0x18,0x3F,Write,ACK
2.575655187500000,46,0x18,0x8C,Write,ACK
2.575675750000000,46,0x18,0xA8,Write,ACK
2.575698250000000,46,0x18,0x80,Write,ACK
2.575720750000000,46,0x18,0x11,Write,ACK
2.575743250000000,46,0x18,0xBF,Write,ACK
2.575765812500000,46,0x18,0x0A,Write,ACK
2.575788312500000,46,0x18,0x87,Write,NAK
2.575810812500000,46,0x18,0x06,Write,ACK
2.575833312500000,46,0x18,0x80,Write,ACK
2.575855812500000,46,0x18,0x91,Write,ACK
2.575878312500000,46,0x18,0xBF,Write,ACK
2.575900812500000,46,0x18,0x07,Write,ACK
2.575923312500000,46,0x18,0x87,Write,NAK
2.575945812500000,46,0x18,0x02,Write,ACK
2.575968312500000,46,0x18,0x80,Write,ACK
2.575990875000000,46,0x18,0x94,Write,ACK
2.576013375000000,46,0x18,0xBF,Write,ACK
2.576035875000000,46,0x18,0x32,Write,ACK
2.576058375000000,46,0x18,0x87,Write,NAK
2.576080875000000,46,0x18,0x02,Write,ACK
2.576103375000000,46,0x18,0x80,Write,ACK
2.576125875000000,46,0x18,0x8E,Write,ACK
2.576148375000000,46,0x18,0xBF,Write,ACK
2.576170937500000,46,0x18,0x2E,Write,ACK
2.576193437500000,46,0x18,0x87,Write,NAK
2.576215937500000,46,0x18,0x3E,Write,ACK
2.576238437500000,46,0x18,0x80,Write,ACK
2.576260937500000,46,0x18,0x15,Write,ACK
2.576283437500000,46,0x18,0xBF,Write,ACK
2.576305937500000,46,0x18,0x10,Write,ACK
2.576328437500000,46,0x18,0x87,Write,NAK
2.576394375000000,47,0x18,0x3F,Write,ACK
2.576442437500000,48,0x18,0x09,Read,ACK
2.576464937500000,48,0x18,0x01,Read,ACK
2.576487437500000,48,0x18,0x61,Read,ACK
2.576509937500000,48,0x18,0xFC,Read,ACK
2.576532437500000,48,0x18,0x35,Read,ACK
2.576554937500000,48,0x18,0x1E,Read,ACK
2.576577437500000,48,0x18,0xA1,Read,ACK
2.576600000000000,48,0x18,0x00,Read,ACK
2.576622500000000,48,0x18,0x7D,Read,ACK
2.576645000000000,48,0x18,0xFC,Read,ACK
2.576667500000000,48,0x18,0xB1,Read,ACK
2.576690000000000,48,0x18,0x1E,Read,ACK
2.576712500000000,48,0x18,0x09,Read,ACK
2.576735000000000,48,0x18,0x01,Read,ACK
2.576757500000000,48,0x18,0x7D,Read,ACK
2.576780000000000,48,0x18,0xFC,Read,ACK
2.576802562500000,48,0x18,0x11,Read,ACK
2.576825062500000,48,0x18,0x1E,Read,ACK
2.576847562500000,48,0x18,0xA9,Read,ACK
2.576870062500000,48,0x18,0x00,Read,ACK
2.576892562500000,48,0x18,0x4D,Read,ACK
2.576915062500000,48,0x18,0xFC,Read,ACK
2.576937562500000,48,0x18,0x99,Read,ACK
2.576960062500000,48,0x18,0x1E,Read,ACK
2.576982562500000,48,0x18,0x21,Read,ACK
2.577005125000000,48,0x18,0x01,Read,ACK
2.577027625000000,48,0x18,0x4D,Read,ACK
2.577050125000000,48,0x18,0xFC,Read,ACK
2.577072625000000,48,0x18,0x49,Read,ACK
2.577095125000000,48,0x18,0x1E,Read,NAK
2.577156000000000,49,0x18,0x3F,Write,ACK
2.577204125000000,50,0x18,0x09,Read,ACK
2.577226625000000,50,0x18,0x01,Read,ACK
2.577249125000000,50,0x18,0x65,Read,ACK
2.577271625000000,50,0x18,0xFC,Read,ACK
2.577294125000000,50,0x18,0xB5,Read,ACK
2.577316625000000,50,0x18,0x1E,Read,ACK
2.577339125000000,50,0x18,0x01,Read,ACK
2.577361625000000,50,0x18,0x01,Read,ACK
2.577384125000000,50,0x18,0x4D,Read,ACK
2.577406625000000,50,0x18,0xFC,Read,ACK
2.577429187500000,50,0x18,0xAD,Read,ACK
2.577451687500000,50,0x18,0x1E,Read,ACK
2.577474187500000,50,0x18,0xE5,Read,ACK
2.577496687500000,50,0x18,0x00,Read,ACK
2.577519187500000,50,0x18,0x69,Read,ACK
2.577541687500000,50,0x18,0xFC,Read,ACK
2.577564187500000,50,0x18,0xDD,Read,ACK
2.577586687500000,50,0x18,0x1E,Read,ACK
2.577609187500000,50,0x18,0x09,Read,ACK
2.577631750000000,50,0x18,0x01,Read,ACK
2.577654250000000,50,0x18,0x6D,Read,ACK
2.577676750000000,50,0x18,0xFC,Read,ACK
2.577699250000000,50,0x18,0x25,Read,ACK
2.577721750000000,50,0x18,0x1E,Read,ACK
2.577744250000000,50,0x18,0x81,Read,ACK
2.577766750000000,50,0x18,0x00,Read,ACK
2.577789250000000,50,0x18,0x65,Read,ACK
2.577811750000000,50,0x18,0xFC,Read,ACK
2.577834312500000,50,0x18,0xB1,Read,ACK
2.577856812500000,50,0x18,0x1E,Read,NAK
2.577917687500000,51,0x18,0x3F,Write,ACK
2.577965750000000,52,0x18,0x05,Read,ACK
2.577988250000000,52,0x18,0x01,Read,ACK
2.578010750000000,52,0x18,0x45,Read,ACK
2.578033250000000,52,0x18,0xFC,Read,ACK
2.578055812500000,52,0x18,0x3D,Read,ACK
2.578078312500000,52,0x18,0x1E,Read,ACK
2.578100812500000,52,0x18,0x15,Read,ACK
2.578123312500000,52,0x18,0x01,Read,ACK
2.578145812500000,52,0x18,0x59,Read,ACK
2.578168312500000,52,0x18,0xFC,Read,ACK
2.578190812500000,52,0x18,0x25,Read,ACK
2.578213312500000,52,0x18,0x1E,Read,ACK
2.578235875000000,52,0x18,0x01,Read,ACK
2.578258375000000,52,0x18,0x01,Read,ACK
2.578280875000000,52,0x18,0x79,Read,ACK
2.578303375000000,52,0x18,0xFC,Read,ACK
2.578325875000000,52,0x18,0xB9,Read,ACK
2.578348375000000,52,0x18,0x1E,Read,ACK
2.578370875000000,52,0x18,0x9D,Read,ACK
2.578393375000000,52,0x18,0x00,Read,ACK
2.578415875000000,52,0x18,0x71,Read,ACK
2.578438375000000,52,0x18,0xFC,Read,ACK
2.578460937500000,52,0x18,0xC1,Read,ACK
2.578483437500000,52,0x18,0x1E,Read,ACK
2.578505937500000,52,0x18,0xFD,Read,ACK
2.578528437500000,52,0x18,0x00,Read,ACK
2.578550937500000,52,0x18,0x39,Read,ACK
2.578573437500000,52,0x18,0xFC,Read,ACK
2.578595937500000,52,0x18,0xB9,Read,ACK
2.578618437500000,52,0x18,0x1E,Read,NAK
2.578679375000000,53,0x18,0x3F,Write,ACK
2.578727437500000,54,0x18,0x01,Read,ACK
2.578749937500000,54,0x18,0x01,Read,ACK
2.578772437500000,54,0x18,0x5D,Read,ACK
2.578794937500000,54,0x18,0xFC,Read,ACK
2.578817437500000,54,0x18,0x25,Read,ACK
2.578839937500000,54,0x18,0x1E,Read,ACK
2.578862500000000,54,0x18,0x29,Read,ACK
2.578885000000000,54,0x18,0x01,Read,ACK
2.578907500000000,54,0x18,0x59,Read,ACK
2.578930000000000,54,0x18,0xFC,Read,ACK
2.578952500000000,54,0x18,0xA1,Read,ACK
2.578975000000000,54,0x18,0x1E,Read,ACK
2.578997500000000,54,0x18,0x09,Read,ACK
2.579020000000000,54,0x18,0x01,Read,ACK
2.579042500000000,54,0x18,0x69,Read,ACK
2.579065000000000,54,0x18,0xFC,Read,ACK
2.579087562500000,54,0x18,0xB5,Read,ACK
2.579110062500000,54,0x18,0x1E,Read,ACK
2.579132562500000,54,0x18,0x05,Read,ACK
2.579155062500000,54,0x18,0x01,Read,ACK
2.579177562500000,54,0x18,0x39,Read,ACK
2.579200062500000,54,0x18,0xFC,Read,ACK
2.579222562500000,54,0x18,0xC9,Read,ACK
2.579245062500000,54,0x18,0x1E,Read,ACK
2.579267562500000,54,0x18,0xA5,Read,ACK
2.579290125000000,54,0x18,0x00,Read,ACK
2.579312625000000,54,0x18,0x2D,Read,ACK
2.579335125000000,54,0x18,0xFC,Read,ACK
2.579357625000000,54,0x18,0x29,Read,ACK
2.579380125000000,54,0x18,0x1E,Read,NAK
2.579441250000000,55,0x18,0x3F,Write,ACK
2.579489375000000,56,0x18,0x25,Read,ACK
2.579511875000000,56,0x18,0x01,Read,ACK
2.579534375000000,56,0x18,0x51,Read,ACK
2.579556875000000,56,0x18,0xFC,Read,ACK
2.579579375000000,56,0x18,0xB9,Read,ACK
2.579601875000000,56,0x18,0x1E,Read,NAK
2.579654812500000,57,0x18,0x3E,Write,ACK
2.579677437500000,57,0x18,0x40,Write,ACK
3.374567187500000,58,0x18,0x0E,Write,ACK
3.374615250000000,59,0x18,0x1E,Read,NAK
3.374692687500000,60,0x18,0x3F,Write,ACK
3.374740812500000,61,0x18,0x15,Read,ACK
3.374763312500000,61,0x18,0x01,Read,ACK
3.374785812500000,61,0x18,0x51,Read,ACK
3.374808312500000,61,0x18,0xFC,Read,ACK
3.374830812500000,61,0x18,0xB1,Read,ACK
3.374853312500000,61,0x18,0x1E,Read,ACK
3.374875812500000,61,0x18,0x81,Read,ACK
3.374898312500000,61,0x18,0x00,Read,ACK
3.374920812500000,61,0x18,0x65,Read,ACK
3.374943312500000,61,0x18,0xFC,Read,ACK
3.374965875000000,61,0x18,0x19,Read,ACK
3.374988375000000,61,0x18,0x1E,Read,ACK
3.375010875000000,61,0x18,0x1D,Read,ACK
3.375033375000000,61,0x18,0x01,Read,ACK
3.375055875000000,61,0x18,0x39,Read,ACK
3.375078375000000,61,0x18,0xFC,Read,ACK
3.375100875000000,61,0x18,0x31,Read,ACK
3.375123375000000,61,0x18,0x1E,Read,ACK
3.375145937500000,61,0x18,0x01,Read,ACK
3.375168437500000,61,0x18,0x01,Read,ACK
3.375190937500000,61,0x18,0x59,Read,ACK
3.375213437500000,61,0x18,0xFC,Read,ACK
3.375235937500000,61,0x18,0x1D,Read,ACK
3.375258437500000,61,0x18,0x1E,Read,ACK
3.375280937500000,61,0x18,0x21,Read,ACK
3.375303437500000,61,0x18,0x01,Read,ACK
3.375325937500000,61,0x18,0x39,Read,ACK
3.375348437500000,61,0x18,0xFC,Read,ACK
3.375371000000000,61,0x18,0xE5,Read,ACK
3.375393500000000,61,0x18,0x1E,Read,NAK
3.375454375000000,62,0x18,0x3F,Write,ACK
3.375502437500000,63,0x18,0x1D,Read,ACK
3.375524937500000,63,0x18,0x01,Read,ACK
3.375547437500000,63,0x18,0x59,Read,ACK
3.375570000000000,63,0x18,0xFC,Read,ACK
3.375592500000000,63,0x18,0x21,Read,ACK
3.375615000000000,63,0x18,0x1E,Read,ACK
3.375637500000000,63,0x18,0xF1,Read,ACK
3.375660000000000,63,0x18,0x00,Read,ACK
3.375682500000000,63,0x18,0x35,Read,ACK
3.375705000000000,63,0x18,0xFC,Read,ACK
3.375727500000000,63,0x18,0x2D,Read,ACK
3.375750000000000,63,0x18,0x1E,Read,ACK
3.375772562500000,63,0x18,0xA5,Read,ACK
3.375795062500000,63,0x18,0x00,Read,ACK
3.375817562500000,63,0x18,0x35,Read,ACK
3.375840062500000,63,0x18,0xFC,Read,ACK
3.375862562500000,63,0x18,0xAD,Read,ACK
3.375885062500000,63,0x18,0x1E,Read,ACK
3.375907562500000,63,0x18,0x01,Read,ACK
3.375930062500000,63,0x18,0x01,Read,ACK
3.375952562500000,63,0x18,0x59,Read,ACK
3.375975125000000,63,0x18,0xFC,Read,ACK
3.375997625000000,63,0x18,0xD5,Read,ACK
3.376020125000000,63,0x18,0x1E,Read,ACK
3.376042625000000,63,0x18,0xED,Read,ACK
3.376065125000000,63,0x18,0x00,Read,ACK
3.376087625000000,63,0x18,0x4D,Read,ACK
3.376110125000000,63,0x18,0xFC,Read,ACK
3.376132625000000,63,0x18,0xB5,Read,ACK
3.376155125000000,63,0x18,0x1E,Read,NAK
3.376216062500000,64,0x18,0x3F,Write,ACK
3.376264125000000,65,0x18,0xF9,Read,ACK
3.376286625000000,65,0x18,0x00,Read,ACK
3.376309125000000,65,0x18,0x79,Read,ACK
3.376331625000000,65,0x18,0xFC,Read,ACK
3.376354125000000,65,0x18,0xB9,Read,ACK
3.376376687500000,65,0x18,0x1E,Read,ACK
3.376399187500000,65,0x18,0x99,Read,ACK
3.376421687500000,65,0x18,0x00,Read,ACK
3.376444187500000,65,0x18,0x71,Read,ACK
3.376466687500000,65,0x18,0xFC,Read,ACK
3.376489187500000,65,0x18,0x39,Read,ACK
3.376511687500000,65,0x18,0x1E,Read,ACK
3.376534187500000,65,0x18,0x1D,Read,ACK
3.376556687500000,65,0x18,0x01,Read,ACK
3.376579250000000,65,0x18,0x65,Read,ACK
3.376601750000000,65,0x18,0xFC,Read,ACK
3.376624250000000,65,0x18,0xD9,Read,ACK
3.376646750000000,65,0x18,0x1E,Read,ACK
3.376669250000000,65,0x18,0x1D,Read,ACK
3.376691750000000,65,0x18,0x01,Read,ACK
3.376714250000000,65,0x18,0x61,Read,ACK
3.376736750000000,65,0x18,0xFC,Read,ACK
3.376759250000000,65,0x18,0x99,Read,ACK
3.376781750000000,65,0x18,0x1E,Read,ACK
3.376804312500000,65,0x18,0x01,Read,ACK
3.376826812500000,65,0x18,0x01,Read,ACK
3.376849312500000,65,0x18,0x79,Read,ACK
3.376871812500000,65,0x18,0xFC,Read,ACK
3.376894312500000,65,0x18,0xB9,Read,ACK
3.376916812500000,65,0x18,0x1E,Read,NAK
3.376977687500000,66,0x18,0x3F,Write,ACK
3.377025812500000,67,0x18,0x8D,Read,ACK
3.377048312500000,67,0x18,0x00,Read,ACK
3.377070812500000,67,0x18,0x3D,Read,ACK
3.377093312500000,67,0x18,0xFC,Read,ACK
3.377115812500000,67,0x18,0xAD,Read,ACK
3.377138312500000,67,0x18,0x1E,Read,ACK
3.377160812500000,67,0x18,0x0D,Read,ACK
3.377183312500000,67,0x18,0x01,Read,ACK
3.377205875000000,67,0x18,0x45,Read,ACK
3.377228375000000,67,0x18,0xFC,Read,ACK
3.377250875000000,67,0x18,0x95,Read,ACK
3.377273375000000,67,0x18,0x1E,Read,ACK
3.377295875000000,67,0x18,0x0D,Read,ACK
3.377318375000000,67,0x18,0x01,Read,ACK
3.377340875000000,67,0x18,0x45,Read,ACK
3.377363375000000,67,0x18,0xFC,Read,ACK
3.377385875000000,67,0x18,0x1D,Read,ACK
3.377408437500000,67,0x18,0x1E,Read,ACK
3.377430937500000,67,0x18,0x19,Read,ACK
3.377453437500000,67,0x18,0x01,Read,ACK
3.377475937500000,67,0x18,0x49,Read,ACK
3.377498437500000,67,0x18,0xFC,Read,ACK
3.377520937500000,67,0x18,0xC9,Read,ACK
3.377543437500000,67,0x18,0x1E,Read,ACK
3.377565937500000,67,0x18,0x7D,Read,ACK
3.377588437500000,67,0x18,0x00,Read,ACK
3.377610937500000,67,0x18,0x69,Read,ACK
3.377633500000000,67,0x18,0xFC,Read,ACK
3.377656000000000,67,0x18,0xB1,Read,ACK
3.377678500000000,67,0x18,0x1E,Read,NAK
3.377739375000000,68,0x18,0x3F,Write,ACK
3.377787437500000,69,0x18,0x19,Read,ACK
3.377809937500000,69,0x18,0x01,Read,ACK
3.377832500000000,69,0x18,0x69,Read,ACK
3.377855000000000,69,0x18,0xFC,Read,ACK
3.377877500000000,69,0x18,0x31,Read,ACK
3.377900000000000,69,0x18,0x1E,Read,ACK
3.377922500000000,69,0x18,0xFD,Read,ACK
3.377945000000000,69,0x18,0x00,Read,ACK
3.377967500000000,69,0x18,0x4D,Read,ACK
3.377990000000000,69,0x18,0xFC,Read,ACK
3.378012500000000,69,0x18,0xC5,Read,ACK
3.378035062500000,69,0x18,0x1E,Read,ACK
3.378057562500000,69,0x18,0x19,Read,ACK
3.378080062500000,69,0x18,0x01,Read,ACK
3.378102562500000,69,0x18,0x59,Read,ACK
3.378125062500000,69,0x18,0xFC,Read,ACK
3.378147562500000,69,0x18,0xC9,Read,ACK
3.378170062500000,69,0x18,0x1E,Read,ACK
3.378192562500000,69,0x18,0x99,Read,ACK
3.378215062500000,69,0x18,0x00,Read,ACK
3.378237625000000,69,0x18,0x5D,Read,ACK
3.378260125000000,69,0x18,0xFC,Read,ACK
3.378282625000000,69,0x18,0x1D,Read,ACK
3.378305125000000,69,0x18,0x1E,Read,ACK
3.378327625000000,69,0x18,0x05,Read,ACK
3.378350125000000,69,0x18,0x01,Read,ACK
3.378372625000000,69,0x18,0x6D,Read,ACK
3.378395125000000,69,0x18,0xFC,Read,ACK
3.378417625000000,69,0x18,0xD9,Read,ACK
3.378440187500000,69,0x18,0x1E,Read,NAK
3.378501062500000,70,0x18,0x3F,Write,ACK
3.378549125000000,71,0x18,0xA1,Read,ACK
3.378571625000000,71,0x18,0x00,Read,ACK
3.378594125000000,71,0x18,0x5D,Read,ACK
3.378616625000000,71,0x18,0xFC,Read,ACK
3.378639125000000,71,0x18,0xB5,Read,ACK
3.378661687500000,71,0x18,0x1E,Read,ACK
3.378684187500000,71,0x18,0x29,Read,ACK
3.378706687500000,71,0x18,0x01,Read,ACK
3.378729187500000,71,0x18,0x1D,Read,ACK
3.378751687500000,71,0x18,0xFC,Read,ACK
3.378774187500000,71,0x18,0x1D,Read,ACK
3.378796687500000,71,0x18,0x1E,Read,ACK
3.378819187500000,71,0x18,0x11,Read,ACK
3.378841687500000,71,0x18,0x01,Read,ACK
3.378864250000000,71,0x18,0x4D,Read,ACK
3.378886750000000,71,0x18,0xFC,Read,ACK
3.378909250000000,71,0x18,0x61,Read,ACK
3.378931750000000,71,0x18,0x1E,Read,ACK
3.378954250000000,71,0x18,0x01,Read,ACK
3.378976750000000,71,0x18,0x01,Read,ACK
3.378999250000000,71,0x18,0x6D,Read,ACK
3.379021750000000,71,0x18,0xFC,Read,ACK
3.379044250000000,71,0x18,0xC9,Read,ACK
3.379066750000000,71,0x18,0x1E,Read,ACK
3.379089312500000,71,0x18,0x8D,Read,ACK
3.379111812500000,71,0x18,0x00,Read,ACK
3.379134312500000,71,0x18,0x55,Read,ACK
3.379156812500000,71,0x18,0xFC,Read,ACK
3.379179312500000,71,0x18,0xC1,Read,ACK
3.379201812500000,71,0x18,0x1E,Read,NAK
3.379263625000000,72,0x18,0x3E,Write,ACK
3.379286187500000,72,0x18,0x40,Write,ACK
4.175525187500000,73,0x18,0x0E,Write,ACK
4.175573250000000,74,0x18,0x1E,Read,NAK
4.175650687500000,75,0x18,0x3F,Write,ACK
4.175698750000000,76,0x18,0xA9,Read,ACK
4.175721250000000,76,0x18,0x00,Read,ACK
4.175743812500000,76,0x18,0x81,Read,ACK
4.175766312500000,76,0x18,0xFC,Read,ACK
4.175788812500000,76,0x18,0xF1,Read,ACK
4.175811312500000,76,0x18,0x1E,Read,ACK
4.175833812500000,76,0x18,0x0D,Read,ACK
4.175856312500000,76,0x18,0x01,Read,ACK
4.175878812500000,76,0x18,0x4D,Read,ACK
4.175901312500000,76,0x18,0xFC,Read,ACK
4.175923812500000,76,0x18,0xE9,Read,ACK
4.175946375000000,76,0x18,0x1E,Read,ACK
4.175968875000000,76,0x18,0x31,Read,ACK
4.175991375000000,76,0x18,0x01,Read,ACK
4.176013875000000,76,0x18,0x75,Read,ACK
4.176036375000000,76,0x18,0xFC,Read,ACK
4.176058875000000,76,0x18,0xB9,Read,ACK
4.176081375000000,76,0x18,0x1E,Read,ACK
4.176103875000000,76,0x18,0x7D,Read,ACK
4.176126375000000,76,0x18,0x00,Read,ACK
4.176148937500000,76,0x18,0x65,Read,ACK
4.176171437500000,76,0x18,0xFC,Read,ACK
4.176193937500000,76,0x18,0x91,Read,ACK
4.176216437500000,76,0x18,0x1E,Read,ACK
4.176238937500000,76,0x18,0xE9,Read,ACK
4.176261437500000,76,0x18,0x00,Read,ACK
4.176283937500000,76,0x18,0x55,Read,ACK
4.176306437500000,76,0x18,0xFC,Read,ACK
4.176328937500000,76,0x18,0x21,Read,ACK
4.176351500000000,76,0x18,0x1E,Read,NAK
4.176412375000000,77,0x18,0x3F,Write,ACK
4.176460437500000,78,0x18,0x21,Read,ACK
4.176482937500000,78,0x18,0x01,Read,ACK
4.176505437500000,78,0x18,0x69,Read,ACK
4.176527937500000,78,0x18,0xFC,Read,ACK
4.176550500000000,78,0x18,0x05,Read,ACK
4.176573000000000,78,0x18,0x1E,Read,ACK
4.176595500000000,78,0x18,0x85,Read,ACK
4.176618000000000,78,0x18,0x00,Read,ACK
4.176640500000000,78,0x18,0x61,Read,ACK
4.176663000000000,78,0x18,0xFC,Read,ACK
4.176685500000000,78,0x18,0xA9,Read,ACK
4.176708000000000,78,0x18,0x1E,Read,ACK
4.176730500000000,78,0x18,0x05,Read,ACK
4.176753062500000,78,0x18,0x01,Read,ACK
4.176775562500000,78,0x18,0x65,Read,ACK
4.176798062500000,78,0x18,0xFC,Read,ACK
4.176820562500000,78,0x18,0x3D,Read,ACK
4.176843062500000,78,0x18,0x1E,Read,ACK
4.176865562500000,78,0x18,0x99,Read,ACK
4.176888062500000,78,0x18,0x00,Read,ACK
4.176910562500000,78,0x18,0x51,Read,ACK
4.176933062500000,78,0x18,0xFC,Read,ACK
4.176955562500000,78,0x18,0xBD,Read,ACK
4.176978125000000,78,0x18,0x1E,Read,ACK
4.177000625000000,78,0x18,0x0D,Read,ACK
4.177023125000000,78,0x18,0x01,Read,ACK
4.177045625000000,78,0x18,0x6D,Read,ACK
4.177068125000000,78,0x18,0xFC,Read,ACK
4.177090625000000,78,0x18,0xC9,Read,ACK
4.177113125000000,78,0x18,0x1E,Read,NAK
4.177174062500000,79,0x18,0x3F,Write,ACK
4.177222125000000,80,0x18,0x05,Read,ACK
4.177244625000000,80,0x18,0x01,Read,ACK
4.177267125000000,80,0x18,0x5D,Read,ACK
4.177289625000000,80,0x18,0xFC,Read,ACK
4.177312125000000,80,0x18,0x31,Read,ACK
4.177334625000000,80,0x18,0x1E,Read,ACK
4.177357125000000,80,0x18,0x19,Read,ACK
4.177379687500000,80,0x18,0x01,Read,ACK
4.177402187500000,80,0x18,0x31,Read,ACK
4.177424687500000,80,0x18,0xFC,Read,ACK
4.177447187500000,80,0x18,0x8D,Read,ACK
4.177469687500000,80,0x18,0x1E,Read,ACK
4.177492187500000,80,0x18,0x65,Read,ACK
4.177514687500000,80,0x18,0xFE,Read,ACK
4.177537187500000,80,0x18,0xA1,Read,ACK
4.177559687500000,80,0x18,0x00,Read,ACK
4.177582187500000,80,0x18,0x85,Read,ACK
4.177604750000000,80,0x18,0x1A,Read,ACK
4.177627250000000,80,0x18,0xA5,Read,ACK
4.177649750000000,80,0x18,0x0E,Read,ACK
4.177672250000000,80,0x18,0xE5,Read,ACK
4.177694750000000,80,0x18,0xFB,Read,ACK
4.177717250000000,80,0x18,0x2D,Read,ACK
4.177739750000000,80,0x18,0x45,Read,ACK
4.177762250000000,80,0x18,0x29,Read,ACK
4.177784812500000,80,0x18,0x14,Read,ACK
4.177807312500000,80,0x18,0xC5,Read,ACK
4.177829812500000,80,0x18,0x05,Read,ACK
4.177852312500000,80,0x18,0x05,Read,ACK
4.177874812500000,80,0x18,0xEE,Read,NAK
4.177935687500000,81,0x18,0x3F,Write,ACK
4.177983750000000,82,0x18,0x55,Read,ACK
4.178006312500000,82,0x18,0x02,Read,ACK
4.178028812500000,82,0x18,0xB9,Read,ACK
4.178051312500000,82,0x18,0x0A,Read,ACK
4.178073812500000,82,0x18,0x4D,Read,ACK
4.178096312500000,82,0x18,0x29,Read,ACK
4.178118812500000,82,0x18,0x5D,Read,ACK
4.178141312500000,82,0x18,0x0D,Read,ACK
4.178163812500000,82,0x18,0x5D,Read,ACK
4.178186312500000,82,0x18,0xFF,Read,ACK
4.178208875000000,82,0x18,0xF9,Read,ACK
4.178231375000000,82,0x18,0x0A,Read,ACK
4.178253875000000,82,0x18,0x85,Read,ACK
4.178276375000000,82,0x18,0x00,Read,ACK
4.178298875000000,82,0x18,0x99,Read,ACK
4.178321375000000,82,0x18,0xFD,Read,ACK
4.178343875000000,82,0x18,0x31,Read,ACK
4.178366375000000,82,0x18,0x16,Read,ACK
4.178388875000000,82,0x18,0x29,Read,ACK
4.178411375000000,82,0x18,0xF9,Read,ACK
4.178433937500000,82,0x18,0x61,Read,ACK
4.178456437500000,82,0x18,0x02,Read,ACK
4.178478937500000,82,0x18,0x3D,Read,ACK
4.178501437500000,82,0x18,0x27,Read,ACK
4.178523937500000,82,0x18,0xCD,Read,ACK
4.178546437500000,82,0x18,0xFF,Read,ACK
4.178568937500000,82,0x18,0x49,Read,ACK
4.178591437500000,82,0x18,0x01,Read,ACK
4.178614000000000,82,0x18,0x61,Read,ACK
4.178636500000000,82,0x18,0x2B,Read,NAK
4.178697375000000,83,0x18,0x3F,Write,ACK
4.178719875000000,83,0x18,0x8C,Write,ACK
4.178740437500000,83,0x18,0xA2,Write,ACK
4.178762937500000,83,0x18,0x80,Write,ACK
4.178785437500000,83,0x18,0xB7,Write,ACK
4.178807937500000,83,0x18,0xBE,Write,NAK
4.178830500000000,83,0x18,0x28,Write,ACK
4.178853000000000,83,0x18,0x85,Write,ACK
4.178875500000000,83,0x18,0x11,Write,ACK
4.178898000000000,83,0x18,0x80,Write,ACK
4.178920500000000,83,0x18,0x8B,Write,ACK
4.178943000000000,83,0x18,0xBF,Write,NAK
4.178965500000000,83,0x18,0x01,Write,ACK
4.178988000000000,83,0x18,0x86,Write,NAK
4.179010500000000,83,0x18,0x98,Write,ACK
4.179033062500000,83,0x18,0x80,Write,ACK
4.179055562500000,83,0x18,0x86,Write,ACK
4.179078062500000,83,0x18,0xBF,Write,NAK
4.179100562500000,83,0x18,0xA7,Write,ACK
4.179123062500000,83,0x18,0x88,Write,NAK
4.179145562500000,83,0x18,0x09,Write,ACK
4.179168062500000,83,0x18,0x80,Write,ACK
4.179190562500000,83,0x18,0xA0,Write,ACK
4.179213062500000,83,0x18,0xBF,Write,ACK
4.179235625000000,83,0x18,0x3C,Write,ACK
4.179258125000000,83,0x18,0x87,Write,ACK
4.179280625000000,83,0x18,0x05,Write,ACK
4.179303125000000,83,0x18,0x80,Write,ACK
4.179325625000000,83,0x18,0xB4,Write,ACK
4.179348125000000,83,0x18,0xBF,Write,ACK
4.179370625000000,83,0x18,0x20,Write,ACK
4.179393125000000,83,0x18,0x87,Write,ACK
4.179459062500000,84,0x18,0x3F,Write,ACK
4.179507125000000,85,0x18,0x09,Read,ACK
4.179529625000000,85,0x18,0x00,Read,ACK
4.179552125000000,85,0x18,0x15,Read,ACK
4.179574625000000,85,0x18,0xFE,Read,ACK
4.179597125000000,85,0x18,0xF1,Read,ACK
4.179619625000000,85,0x18,0x21,Read,ACK
4.179642187500000,85,0x18,0x79,Read,ACK
4.179664687500000,85,0x18,0x00,Read,ACK
4.179687187500000,85,0x18,0x11,Read,ACK
4.179709687500000,85,0x18,0xFD,Read,ACK
4.179732187500000,85,0x18,0x65,Read,ACK
4.179754687500000,85,0x18,0x1F,Read,ACK
4.179777187500000,85,0x18,0x09,Read,ACK
4.179799687500000,85,0x18,0x01,Read,ACK
4.179822187500000,85,0x18,0x21,Read,ACK
4.179844687500000,85,0x18,0xFC,Read,ACK
4.179867250000000,85,0x18,0x81,Read,ACK
4.179889750000000,85,0x18,0x1A,Read,ACK
4.179912250000000,85,0x18,0xA1,Read,ACK
4.179934750000000,85,0x18,0x00,Read,ACK
4.179957250000000,85,0x18,0x3D,Read,ACK
4.179979750000000,85,0x18,0xFD,Read,ACK
4.180002250000000,85,0x18,0x75,Read,ACK
4.180024750000000,85,0x18,0x1F,Read,ACK
4.180047250000000,85,0x18,0x89,Read,ACK
4.180069812500000,85,0x18,0x00,Read,ACK
4.180092312500000,85,0x18,0xBD,Read,ACK
4.180114812500000,85,0x18,0xFD,Read,ACK
4.180137312500000,85,0x18,0x89,Read,ACK
4.180159812500000,85,0x18,0x1D,Read,NAK
4.180221562500000,86,0x18,0x3E,Write,ACK
4.180244125000000,86,0x18,0x40,Write,ACK
4.975183500000000,87,0x18,0x0E,Write,ACK
4.975231625000000,88,0x18,0x1E,Read,NAK
4.975309062500000,89,0x18,0x3F,Write,ACK
4.975331562500000,89,0x18,0x8C,Write,ACK
4.975352125000000,89,0x18,0xAA,Write,ACK
4.975374625000000,89,0x18,0x80,Write,ACK
4.975397125000000,89,0x18,0x0F,Write,ACK
4.975419625000000,89,0x18,0xBF,Write,ACK
4.975442187500000,89,0x18,0x3F,Write,ACK
4.975464687500000,89,0x18,0x87,Write,ACK
4.975487187500000,89,0x18,0x95,Write,ACK
4.975509687500000,89,0x18,0x80,Write,ACK
4.975532187500000,89,0x18,0xA1,Write,ACK
4.975554687500000,89,0x18,0xBF,Write,ACK
4.975577187500000,89,0x18,0x87,Write,ACK
4.975599687500000,89,0x18,0x87,Write,NAK
4.975622187500000,89,0x18,0x0D,Write,ACK
4.975644687500000,89,0x18,0x80,Write,ACK
4.975667250000000,89,0x18,0x00,Write,ACK
4.975689750000000,89,0x18,0xBF,Write,ACK
4.975712250000000,89,0x18,0x83,Write,ACK
4.975734750000000,89,0x18,0x87,Write,NAK
4.975757250000000,89,0x18,0x82,Write,ACK
4.975779750000000,89,0x18,0x80,Write,ACK
4.975802250000000,89,0x18,0x0E,Write,ACK
4.975824750000000,89,0x18,0xBF,Write,ACK
4.975847250000000,89,0x18,0xBE,Write,ACK
4.975869812500000,89,0x18,0x87,Write,ACK
4.975892312500000,89,0x18,0x0B,Write,ACK
4.975914812500000,89,0x18,0x80,Write,ACK
4.975937312500000,89,0x18,0x0A,Write,ACK
4.975959812500000,89,0x18,0xBF,Write,ACK
4.975982312500000,89,0x18,0x85,Write,ACK
4.976004812500000,89,0x18,0x88,Write,ACK
4.976070750000000,90,0x18,0x3F,Write,ACK
4.976118812500000,91,0x18,0x91,Read,ACK
4.976141312500000,91,0x18,0xFF,Read,ACK
4.976163812500000,91,0x18,0x49,Read,ACK
4.976186312500000,91,0x18,0xFD,Read,ACK
4.976208812500000,91,0x18,0x05,Read,ACK
4.976231312500000,91,0x18,0x1F,Read,ACK
4.976253812500000,91,0x18,0xD5,Read,ACK
4.976276375000000,91,0x18,0xFF,Read,ACK
4.976298875000000,91,0x18,0x25,Read,ACK
4.976321375000000,91,0x18,0xFD,Read,ACK
4.976343875000000,91,0x18,0x19,Read,ACK
4.976366375000000,91,0x18,0x1F,Read,ACK
4.976388875000000,91,0x18,0xD1,Read,ACK
4.976411375000000,91,0x18,0x00,Read,ACK
4.976433875000000,91,0x18,0xC5,Read,ACK
4.976456375000000,91,0x18,0xFC,Read,ACK
4.976478937500000,91,0x18,0x4D,Read,ACK
4.976501437500000,91,0x18,0x1E,Read,ACK
4.976523937500000,91,0x18,0x69,Read,ACK
4.976546437500000,91,0x18,0x00,Read,ACK
4.976568937500000,91,0x18,0x2D,Read,ACK
4.976591437500000,91,0x18,0xFD,Read,ACK
4.976613937500000,91,0x18,0xA5,Read,ACK
4.976636437500000,91,0x18,0x1F,Read,ACK
4.976658937500000,91,0x18,0x95,Read,ACK
4.976681500000000,91,0x18,0x00,Read,ACK
4.976704000000000,91,0x18,0x7D,Read,ACK
4.976726500000000,91,0x18,0xFD,Read,ACK
4.976749000000000,91,0x18,0xA5,Read,ACK
4.976771500000000,91,0x18,0x1E,Read,NAK
4.976832375000000,92,0x18,0x3F,Write,ACK
4.976880437500000,93,0x18,0xED,Read,ACK
4.976903000000000,93,0x18,0x00,Read,ACK
4.976925500000000,93,0x18,0x01,Read,ACK
4.976948000000000,93,0x18,0xFD,Read,ACK
4.976970500000000,93,0x18,0x09,Read,ACK
4.976993000000000,93,0x18,0x1E,Read,ACK
4.977015500000000,93,0x18,0x0D,Read,ACK
4.977038000000000,93,0x18,0x01,Read,ACK
4.977060500000000,93,0x18,0x55,Read,ACK
4.977083000000000,93,0x18,0xFD,Read,ACK
4.977105562500000,93,0x18,0xD5,Read,ACK
4.977128062500000,93,0x18,0x1D,Read,ACK
4.977150562500000,93,0x18,0x9D,Read,ACK
4.977173062500000,93,0x18,0x00,Read,ACK
4.977195562500000,93,0x18,0x1D,Read,ACK
4.977218062500000,93,0x18,0xFD,Read,ACK
4.977240562500000,93,0x18,0x41,Read,ACK
4.977263062500000,93,0x18,0x1E,Read,ACK
4.977285562500000,93,0x18,0xB5,Read,ACK
4.977308125000000,93,0x18,0x00,Read,ACK
4.977330625000000,93,0x18,0x29,Read,ACK
4.977353125000000,93,0x18,0xFD,Read,ACK
4.977375625000000,93,0x18,0x79,Read,ACK
4.977398125000000,93,0x18,0x1E,Read,ACK
4.977420625000000,93,0x18,0x61,Read,ACK
4.977443125000000,93,0x18,0x00,Read,ACK
4.977465625000000,93,0x18,0x25,Read,ACK
4.977488125000000,93,0x18,0xFD,Read,ACK
4.977510687500000,93,0x18,0xC1,Read,ACK
4.977533187500000,93,0x18,0x1E,Read,NAK
4.977594062500000,94,0x18,0x3F,Write,ACK
4.977642125000000,95,0x18,0xD5,Read,ACK
4.977664625000000,95,0x18,0xFF,Read,ACK
4.977687125000000,95,0x18,0xB1,Read,ACK
4.977709625000000,95,0x18,0xFC,Read,ACK
4.977732187500000,95,0x18,0x9D,Read,ACK
4.977754687500000,95,0x18,0x1E,Read,ACK
4.977777187500000,95,0x18,0xC5,Read,ACK
4.977799687500000,95,0x18,0x00,Read,ACK
4.977822187500000,95,0x18,0x45,Read,ACK
4.977844687500000,95,0x18,0xFD,Read,ACK
4.977867187500000,95,0x18,0xCD,Read,ACK
4.977889687500000,95,0x18,0x1D,Read,ACK
4.977912250000000,95,0x18,0x09,Read,ACK
4.977934750000000,95,0x18,0x00,Read,ACK
4.977957250000000,95,0x18,0xD9,Read,ACK
4.977979750000000,95,0x18,0xFC,Read,ACK
4.978002250000000,95,0x18,0x39,Read,ACK
4.978024750000000,95,0x18,0x1F,Read,ACK
4.978047250000000,95,0x18,0x79,Read,ACK
4.978069750000000,95,0x18,0x00,Read,ACK
4.978092250000000,95,0x18,0x51,Read,ACK
4.978114750000000,95,0x18,0xFD,Read,ACK
4.978137312500000,95,0x18,0x99,Read,ACK
4.978159812500000,95,0x18,0x1F,Read,ACK
4.978182312500000,95,0x18,0x75,Read,ACK
4.978204812500000,95,0x18,0x00,Read,ACK
4.978227312500000,95,0x18,0x71,Read,ACK
4.978249812500000,95,0x18,0xFD,Read,ACK
4.978272312500000,95,0x18,0x1D,Read,ACK
4.978294812500000,95,0x18,0x1F,Read,NAK
4.978355750000000,96,0x18,0x3F,Write,ACK
4.978403812500000,97,0x18,0xC5,Read,ACK
4.978426312500000,97,0x18,0x00,Read,ACK
4.978448812500000,97,0x18,0xC1,Read,ACK
4.978471312500000,97,0x18,0xFC,Read,ACK
4.978493812500000,97,0x18,0x9D,Read,ACK
4.978516312500000,97,0x18,0x1D,Read,ACK
4.978538875000000,97,0x18,0xC5,Read,ACK
4.978561375000000,97,0x18,0x00,Read,ACK
4.978583875000000,97,0x18,0x45,Read,ACK
4.978606375000000,97,0x18,0xFD,Read,ACK
4.978628875000000,97,0x18,0xB9,Read,ACK
4.978651375000000,97,0x18,0x1E,Read,ACK
4.978673875000000,97,0x18,0x49,Read,ACK
4.978696375000000,97,0x18,0x00,Read,ACK
4.978718875000000,97,0x18,0x31,Read,ACK
4.978741437500000,97,0x18,0xFD,Read,ACK
4.978763937500000,97,0x18,0xB5,Read,ACK
4.978786437500000,97,0x18,0x1E,Read,ACK
4.978808937500000,97,0x18,0x89,Read,ACK
4.978831437500000,97,0x18,0x00,Read,ACK
4.978853937500000,97,0x18,0xF1,Read,ACK
4.978876437500000,97,0x18,0xFC,Read,ACK
4.978898937500000,97,0x18,0xD9,Read,ACK
4.978921437500000,97,0x18,0x1E,Read,ACK
4.978944000000000,97,0x18,0xD5,Read,ACK
4.978966500000000,97,0x18,0x00,Read,ACK
4.978989000000000,97,0x18,0x05,Read,ACK
4.979011500000000,97,0x18,0xFD,Read,ACK
4.979034000000000,97,0x18,0xFD,Read,ACK
4.979056500000000,97,0x18,0x1D,Read,NAK
4.979117375000000,98,0x18,0x3F,Write,ACK
4.979165500000000,99,0x18,0x71,Read,ACK
4.979188000000000,99,0x18,0x00,Read,ACK
4.979210500000000,99,0x18,0xF9,Read,ACK
4.979233000000000,99,0x18,0xFC,Read,ACK
4.979255500000000,99,0x18,0x2D,Read,ACK
4.979278000000000,99,0x18,0x1E,Read,ACK
4.979300500000000,99,0x18,0x7D,Read,ACK
4.979323000000000,99,0x18,0x00,Read,ACK
4.979345562500000,99,0x18,0x45,Read,ACK
4.979368062500000,99,0x18,0xFD,Read,ACK
4.979390562500000,99,0x18,0x39,Read,ACK
4.979413062500000,99,0x18,0x1E,Read,ACK
4.979435562500000,99,0x18,0x89,Read,ACK
4.979458062500000,99,0x18,0x00,Read,ACK
4.979480562500000,99,0x18,0x1D,Read,ACK
4.979503062500000,99,0x18,0xFD,Read,ACK
4.979525562500000,99,0x18,0x99,Read,ACK
4.979548125000000,99,0x18,0x1E,Read,ACK
4.979570625000000,99,0x18,0x65,Read,ACK
4.979593125000000,99,0x18,0x00,Read,ACK
4.979615625000000,99,0x18,0x39,Read,ACK
4.979638125000000,99,0x18,0xFD,Read,ACK
4.979660625000000,99,0x18,0x61,Read,ACK
4.979683125000000,99,0x18,0x1E,Read,ACK
4.979705625000000,99,0x18,0x99,Read,ACK
4.979728125000000,99,0x18,0x00,Read,ACK
4.979750625000000,99,0x18,0x3D,Read,ACK
4.979773187500000,99,0x18,0xFD,Read,ACK
4.979795687500000,99,0x18,0x2D,Read,ACK
4.979818187500000,99,0x18,0x1E,Read,NAK
4.979879937500000,100,0x18,0x3E,Write,ACK
4.979902500000000,100,0x18,0x40,Write,ACK
5.775489812500000,101,0x18,0x0E,Write,ACK
5.775537937500000,102,0x18,0x1E,Read,NAK
5.775615375000000,103,0x18,0x3F,Write,ACK
5.775637875000000,103,0x18,0x8C,Write,ACK
5.775658437500000,103,0x18,0x98,Write,ACK
5.775680937500000,103,0x18,0x80,Write,ACK
5.775703437500000,103,0x18,0x15,Write,ACK
5.775725937500000,103,0x18,0xBF,Write,ACK
5.775748437500000,103,0x18,0xB0,Write,ACK
5.775771000000000,103,0x18,0x87,Write,NAK
5.775793500000000,103,0x18,0x36,Write,ACK
5.775816000000000,103,0x18,0xBF,Write,NAK
5.775838500000000,103,0x18,0x8D,Write,ACK
5.775861000000000,103,0x18,0xBF,Write,ACK
5.775883500000000,103,0x18,0x98,Write,ACK
5.775906000000000,103,0x18,0x87,Write,NAK
5.775928500000000,103,0x18,0xA6,Write,ACK
5.775951000000000,103,0x18,0x80,Write,ACK
5.775973562500000,103,0x18,0x09,Write,ACK
5.775996062500000,103,0x18,0xBF,Write,ACK
5.776018562500000,103,0x18,0xA8,Write,ACK
5.776041062500000,103,0x18,0x87,Write,NAK
5.776063562500000,103,0x18,0x27,Write,ACK
5.776086062500000,103,0x18,0x80,Write,ACK
5.776108562500000,103,0x18,0x07,Write,ACK
5.776131062500000,103,0x18,0xBF,Write,ACK
5.776153562500000,103,0x18,0x96,Write,ACK
5.776176125000000,103,0x18,0x87,Write,NAK
5.776198625000000,103,0x18,0x19,Write,ACK
5.776221125000000,103,0x18,0x80,Write,ACK
5.776243625000000,103,0x18,0x0F,Write,ACK
5.776266125000000,103,0x18,0xBF,Write,ACK
5.776288625000000,103,0x18,0xA1,Write,ACK
5.776311125000000,103,0x18,0x87,Write,NAK
5.776377062500000,104,0x18,0x3F,Write,ACK
5.776425125000000,105,0x18,0x81,Read,ACK
5.776447625000000,105,0x18,0x00,Read,ACK
5.776470125000000,105,0x18,0x51,Read,ACK
5.776492625000000,105,0x18,0xFD,Read,ACK
5.776515125000000,105,0x18,0xD5,Read,ACK
5.776537625000000,105,0x18,0x1E,Read,ACK
5.776560125000000,105,0x18,0x85,Read,ACK
5.776582687500000,105,0x18,0x00,Read,ACK
5.776605187500000,105,0x18,0x19,Read,ACK
5.776627687500000,105,0x18,0xFD,Read,ACK
5.776650187500000,105,0x18,0xF9,Read,ACK
5.776672687500000,105,0x18,0x1E,Read,ACK
5.776695187500000,105,0x18,0xB1,Read,ACK
5.776717687500000,105,0x18,0x00,Read,ACK
5.776740187500000,105,0x18,0x15,Read,ACK
5.776762687500000,105,0x18,0xFD,Read,ACK
5.776785250000000,105,0x18,0x2D,Read,ACK
5.776807750000000,105,0x18,0x1E,Read,ACK
5.776830250000000,105,0x18,0xCD,Read,ACK
5.776852750000000,105,0x18,0x00,Read,ACK
5.776875250000000,105,0x18,0x05,Read,ACK
5.776897750000000,105,0x18,0xFD,Read,ACK
5.776920250000000,105,0x18,0x1D,Read,ACK
5.776942750000000,105,0x18,0x1E,Read,ACK
5.776965250000000,105,0x18,0x29,Read,ACK
5.776987812500000,105,0x18,0x00,Read,ACK
5.777010312500000,105,0x18,0x05,Read,ACK
5.777032812500000,105,0x18,0xFD,Read,ACK
5.777055312500000,105,0x18,0xFD,Read,ACK
5.777077812500000,105,0x18,0x1E,Read,NAK
5.777138687500000,106,0x18,0x3F,Write,ACK
5.777186812500000,107,0x18,0x79,Read,ACK
5.777209312500000,107,0x18,0x00,Read,ACK
5.777231812500000,107,0x18,0x4D,Read,ACK
5.777254312500000,107,0x18,0xFD,Read,ACK
5.777276812500000,107,0x18,0x4D,Read,ACK
5.777299312500000,107,0x18,0x1F,Read,ACK
5.777321812500000,107,0x18,0x85,Read,ACK
5.777344312500000,107,0x18,0x00,Read,ACK
5.777366812500000,107,0x18,0xF5,Read,ACK
5.777389312500000,107,0x18,0xFC,Read,ACK
5.777411875000000,107,0x18,0x9D,Read,ACK
5.777434375000000,107,0x18,0x1E,Read,ACK
5.777456875000000,107,0x18,0xB9,Read,ACK
5.777479375000000,107,0x18,0x00,Read,ACK
5.777501875000000,107,0x18,0x15,Read,ACK
5.777524375000000,107,0x18,0xFD,Read,ACK
5.777546875000000,107,0x18,0x41,Read,ACK
5.777569375000000,107,0x18,0x1E,Read,ACK
5.777591875000000,107,0x18,0xAD,Read,ACK
5.777614437500000,107,0x18,0x00,Read,ACK
5.777636937500000,107,0x18,0x45,Read,ACK
5.777659437500000,107,0x18,0xFD,Read,ACK
5.777681937500000,107,0x18,0x55,Read,ACK
5.777704437500000,107,0x18,0x1E,Read,ACK
5.777726937500000,107,0x18,0x7D,Read,ACK
5.777749437500000,107,0x18,0x00,Read,ACK
5.777771937500000,107,0x18,0x2D,Read,ACK
5.777794437500000,107,0x18,0xFD,Read,ACK
5.777817000000000,107,0x18,0x51,Read,ACK
5.777839500000000,107,0x18,0x1F,Read,NAK
5.777900375000000,108,0x18,0x3F,Write,ACK
5.777948437500000,109,0x18,0x21,Read,ACK
5.777970937500000,109,0x18,0x00,Read,ACK
5.777993437500000,109,0x18,0x45,Read,ACK
5.778015937500000,109,0x18,0xFD,Read,ACK
5.778038500000000,109,0x18,0xF5,Read,ACK
5.778061000000000,109,0x18,0x1E,Read,ACK
5.778083500000000,109,0x18,0x99,Read,ACK
5.778106000000000,109,0x18,0x00,Read,ACK
5.778128500000000,109,0x18,0xE9,Read,ACK
5.778151000000000,109,0x18,0xFC,Read,ACK
5.778173500000000,109,0x18,0x75,Read,ACK
5.778196000000000,109,0x18,0x1E,Read,ACK
5.778218562500000,109,0x18,0x49,Read,ACK
5.778241062500000,109,0x18,0x00,Read,ACK
5.778263562500000,109,0x18,0x39,Read,ACK
5.778286062500000,109,0x18,0xFD,Read,ACK
5.778308562500000,109,0x18,0x65,Read,ACK
5.778331062500000,109,0x18,0x1E,Read,ACK
5.778353562500000,109,0x18,0x95,Read,ACK
5.778376062500000,109,0x18,0x00,Read,ACK
5.778398562500000,109,0x18,0x0D,Read,ACK
5.778421062500000,109,0x18,0xFD,Read,ACK
5.778443625000000,109,0x18,0xD9,Read,ACK
5.778466125000000,109,0x18,0x1E,Read,ACK
5.778488625000000,109,0x18,0x11,Read,ACK
5.778511125000000,109,0x18,0x00,Read,ACK
5.778533625000000,109,0x18,0x2D,Read,ACK
5.778556125000000,109,0x18,0xFD,Read,ACK
5.778578625000000,109,0x18,0x45,Read,ACK
5.778601125000000,109,0x18,0x1F,Read,NAK
5.778662062500000,110,0x18,0x3F,Write,ACK
5.778710125000000,111,0x18,0x99,Read,ACK
5.778732625000000,111,0x18,0x00,Read,ACK
5.778755125000000,111,0x18,0x2D,Read,ACK
5.778777625000000,111,0x18,0xFD,Read,ACK
5.778800125000000,111,0x18,0xA1,Read,ACK
5.778822625000000,111,0x18,0x1E,Read,ACK
5.778845187500000,111,0x18,0x95,Read,ACK
5.778867687500000,111,0x18,0x00,Read,ACK
5.778890187500000,111,0x18,0x09,Read,ACK
5.778912687500000,111,0x18,0xFD,Read,ACK
5.778935187500000,111,0x18,0xC5,Read,ACK
5.778957687500000,111,0x18,0x1D,Read,ACK
5.778980187500000,111,0x18,0xB5,Read,ACK
5.779002687500000,111,0x18,0x00,Read,ACK
5.779025187500000,111,0x18,0x25,Read,ACK
5.779047687500000,111,0x18,0xFD,Read,ACK
5.779070250000000,111,0x18,0xE9,Read,ACK
5.779092750000000,111,0x18,0x1D,Read,ACK
5.779115250000000,111,0x18,0x79,Read,ACK
5.779137750000000,111,0x18,0x00,Read,ACK
5.779160250000000,111,0x18,0x55,Read,ACK
5.779182750000000,111,0x18,0xFD,Read,ACK
5.779205250000000,111,0x18,0xA1,Read,ACK
5.779227750000000,111,0x18,0x1E,Read,ACK
5.779250312500000,111,0x18,0x65,Read,ACK
5.779272812500000,111,0x18,0x00,Read,ACK
5.779295312500000,111,0x18,0x4D,Read,ACK
5.779317812500000,111,0x18,0xFD,Read,ACK
5.779340312500000,111,0x18,0x45,Read,ACK
5.779362812500000,111,0x18,0x1F,Read,NAK
5.779423687500000,112,0x18,0x3F,Write,ACK
5.779471812500000,113,0x18,0xA9,Read,ACK
5.779494312500000,113,0x18,0x00,Read,ACK
5.779516812500000,113,0x18,0x31,Read,ACK
5.779539312500000,113,0x18,0xFD,Read,ACK
5.779561812500000,113,0x18,0x8D,Read,ACK
5.779584312500000,113,0x18,0x1E,Read,ACK
5.779606812500000,113,0x18,0xB9,Read,ACK
5.779629312500000,113,0x18,0x00,Read,ACK
5.779651812500000,113,0x18,0x05,Read,ACK
5.779674312500000,113,0x18,0xFD,Read,ACK
5.779696875000000,113,0x18,0x3D,Read,ACK
5.779719375000000,113,0x18,0x1E,Read,ACK
5.779741875000000,113,0x18,0x91,Read,ACK
5.779764375000000,113,0x18,0x00,Read,ACK
5.779786875000000,113,0x18,0x21,Read,ACK
5.779809375000000,113,0x18,0xFD,Read,ACK
5.779831875000000,113,0x18,0x59,Read,ACK
5.779854375000000,113,0x18,0x1E,Read,ACK
5.779876937500000,113,0x18,0x79,Read,ACK
5.779899437500000,113,0x18,0x00,Read,ACK
5.779921937500000,113,0x18,0x35,Read,ACK
5.779944437500000,113,0x18,0xFD,Read,ACK
5.779966937500000,113,0x18,0x2D,Read,ACK
5.779989437500000,113,0x18,0x1F,Read,ACK
5.780011937500000,113,0x18,0xB1,Read,ACK
5.780034437500000,113,0x18,0x00,Read,ACK
5.780056937500000,113,0x18,0x61,Read,ACK
5.780079437500000,113,0x18,0xFD,Read,ACK
5.780102000000000,113,0x18,0xE5,Read,ACK
5.780124500000000,113,0x18,0x1C,Read,NAK
5.780186250000000,114,0x18,0x3E,Write,ACK
5.780208812500000,114,0x18,0x40,Write,ACK
6.576255875000000,115,0x18,0x0E,Write,ACK
6.576304000000000,116,0x18,0x1E,Read,NAK
6.576381437500000,117,0x18,0x3F,Write,ACK
6.576429500000000,118,0x18,0x35,Read,ACK
6.576452000000000,118,0x18,0x00,Read,ACK
6.576474500000000,118,0x18,0xF5,Read,ACK
6.576497062500000,118,0x18,0xFC,Read,ACK
6.576519562500000,118,0x18,0xB9,Read,ACK
6.576542062500000,118,0x18,0x1E,Read,ACK
6.576564562500000,118,0x18,0x51,Read,ACK
6.576587062500000,118,0x18,0x00,Read,ACK
6.576609562500000,118,0x18,0xE9,Read,ACK
6.576632062500000,118,0x18,0xFC,Read,ACK
6.576654562500000,118,0x18,0x65,Read,ACK
6.576677062500000,118,0x18,0x1E,Read,ACK
6.576699625000000,118,0x18,0x65,Read,ACK
6.576722125000000,118,0x18,0x00,Read,ACK
6.576744625000000,118,0x18,0xF1,Read,ACK
6.576767125000000,118,0x18,0xFC,Read,ACK
6.576789625000000,118,0x18,0x45,Read,ACK
6.576812125000000,118,0x18,0x1F,Read,ACK
6.576834625000000,118,0x18,0x2D,Read,ACK
6.576857125000000,118,0x18,0x00,Read,ACK
6.576879625000000,118,0x18,0x21,Read,ACK
6.576902125000000,118,0x18,0xFE,Read,ACK
6.576924687500000,118,0x18,0xBD,Read,ACK
6.576947187500000,118,0x18,0x1F,Read,ACK
6.576969687500000,118,0x18,0x25,Read,ACK
6.576992187500000,118,0x18,0x00,Read,ACK
6.577014687500000,118,0x18,0x59,Read,ACK
6.577037187500000,118,0x18,0xFD,Read,ACK
6.577059687500000,118,0x18,0x85,Read,ACK
6.577082187500000,118,0x18,0x1E,Read,NAK
6.577143125000000,119,0x18,0x3F,Write,ACK
6.577191187500000,120,0x18,0x31,Read,ACK
6.577213687500000,120,0x18,0xFF,Read,ACK
6.577236187500000,120,0x18,0x41,Read,ACK
6.577258687500000,120,0x18,0xFD,Read,ACK
6.577281187500000,120,0x18,0x6D,Read,ACK
6.577303750000000,120,0x18,0x1E,Read,ACK
6.577326250000000,120,0x18,0x35,Read,ACK
6.577348750000000,120,0x18,0xFE,Read,ACK
6.577371250000000,120,0x18,0x79,Read,ACK
6.577393750000000,120,0x18,0xFF,Read,ACK
6.577416250000000,120,0x18,0x89,Read,ACK
6.577438750000000,120,0x18,0x1F,Read,ACK
6.577461250000000,120,0x18,0x39,Read,ACK
6.577483750000000,120,0x18,0xFF,Read,ACK
6.577506250000000,120,0x18,0x61,Read,ACK
6.577528812500000,120,0x18,0xFE,Read,ACK
6.577551312500000,120,0x18,0x45,Read,ACK
6.577573812500000,120,0x18,0x1E,Read,ACK
6.577596312500000,120,0x18,0xC5,Read,ACK
6.577618812500000,120,0x18,0xFE,Read,ACK
6.577641312500000,120,0x18,0xF5,Read,ACK
6.577663812500000,120,0x18,0xFF,Read,ACK
6.577686312500000,120,0x18,0x11,Read,ACK
6.577708812500000,120,0x18,0x1E,Read,ACK
6.577731375000000,120,0x18,0x4D,Read,ACK
6.577753875000000,120,0x18,0x00,Read,ACK
6.577776375000000,120,0x18,0x6D,Read,ACK
6.577798875000000,120,0x18,0xFF,Read,ACK
6.577821375000000,120,0x18,0x5D,Read,ACK
6.577843875000000,120,0x18,0x1A,Read,NAK
6.577904750000000,121,0x18,0x3F,Write,ACK
6.577952875000000,122,0x18,0xB5,Read,ACK
6.577975375000000,122,0x18,0xFD,Read,ACK
6.577997875000000,122,0x18,0x69,Read,ACK
6.578020375000000,122,0x18,0xFE,Read,ACK
6.578042875000000,122,0x18,0x45,Read,ACK
6.578065375000000,122,0x18,0x1C,Read,ACK
6.578087875000000,122,0x18,0x8D,Read,ACK
6.578110375000000,122,0x18,0x01,Read,ACK
6.578132937500000,122,0x18,0x21,Read,ACK
6.578155437500000,122,0x18,0xFE,Read,ACK
6.578177937500000,122,0x18,0x89,Read,ACK
6.578200437500000,122,0x18,0x1F,Read,ACK
6.578222937500000,122,0x18,0x35,Read,ACK
6.578245437500000,122,0x18,0xFB,Read,ACK
6.578267937500000,122,0x18,0xF1,Read,ACK
6.578290437500000,122,0x18,0xFD,Read,ACK
6.578312937500000,122,0x18,0xA1,Read,ACK
6.578335500000000,122,0x18,0x1B,Read,ACK
6.578358000000000,122,0x18,0xE9,Read,ACK
6.578380500000000,122,0x18,0xFC,Read,ACK
6.578403000000000,122,0x18,0x45,Read,ACK
6.578425500000000,122,0x18,0x01,Read,ACK
6.578448000000000,122,0x18,0xCD,Read,ACK
6.578470500000000,122,0x18,0x1F,Read,ACK
6.578493000000000,122,0x18,0x65,Read,ACK
6.578515500000000,122,0x18,0xFE,Read,ACK
6.578538062500000,122,0x18,0x11,Read,ACK
6.578560562500000,122,0x18,0xFE,Read,ACK
6.578583062500000,122,0x18,0xC5,Read,ACK
6.578605562500000,122,0x18,0x1C,Read,NAK
6.578666437500000,123,0x18,0x3F,Write,ACK
6.578714500000000,124,0x18,0x99,Read,ACK
6.578737000000000,124,0x18,0xFF,Read,ACK
6.578759562500000,124,0x18,0x25,Read,ACK
6.578782062500000,124,0x18,0xFF,Read,ACK
6.578804562500000,124,0x18,0x39,Read,ACK
6.578827062500000,124,0x18,0x18,Read,ACK
6.578849562500000,124,0x18,0x29,Read,ACK
6.578872062500000,124,0x18,0xFE,Read,ACK
6.578894562500000,124,0x18,0x81,Read,ACK
6.578917062500000,124,0x18,0x00,Read,ACK
6.578939562500000,124,0x18,0x89,Read,ACK
6.578962125000000,124,0x18,0x2D,Read,ACK
6.578984625000000,124,0x18,0x29,Read,ACK
6.579007125000000,124,0x18,0xFD,Read,ACK
6.579029625000000,124,0x18,0xF1,Read,ACK
6.579052125000000,124,0x18,0xFE,Read,ACK
6.579074625000000,124,0x18,0x9D,Read,ACK
6.579097125000000,124,0x18,0x22,Read,ACK
6.579119625000000,124,0x18,0xA1,Read,ACK
6.579142125000000,124,0x18,0xF9,Read,ACK
6.579164625000000,124,0x18,0xED,Read,ACK
6.579187187500000,124,0x18,0x02,Read,ACK
6.579209687500000,124,0x18,0xF9,Read,ACK
6.579232187500000,124,0x18,0x22,Read,ACK
6.579254687500000,124,0x18,0x5D,Read,ACK
6.579277187500000,124,0x18,0xFC,Read,ACK
6.579299687500000,124,0x18,0x6D,Read,ACK
6.579322187500000,124,0x18,0x00,Read,ACK
6.579344687500000,124,0x18,0x91,Read,ACK
6.579367250000000,124,0x18,0x1F,Read,NAK
6.579428125000000,125,0x18,0x3F,Write,ACK
6.579476187500000,126,0x18,0xED,Read,ACK
6.579498687500000,126,0x18,0xFD,Read,ACK
6.579521187500000,126,0x18,0x59,Read,ACK
6.579543687500000,126,0x18,0xF5,Read,ACK
6.579566187500000,126,0x18,0x8D,Read,ACK
6.579588750000000,126,0x18,0x25,Read,ACK
6.579611250000000,126,0x18,0x05,Read,ACK
6.579633750000000,126,0x18,0xFB,Read,ACK
6.579656250000000,126,0x18,0xB5,Read,ACK
6.579678750000000,126,0x18,0x05,Read,ACK
6.579701250000000,126,0x18,0xD1,Read,ACK
6.579723750000000,126,0x18,0x25,Read,ACK
6.579746250000000,126,0x18,0xA9,Read,ACK
6.579768750000000,126,0x18,0xF5,Read,ACK
6.579791312500000,126,0x18,0x0D,Read,ACK
6.579813812500000,126,0x18,0x08,Read,ACK
6.579836312500000,126,0x18,0xAD,Read,ACK
6.579858812500000,126,0x18,0x1D,Read,ACK
6.579881312500000,126,0x18,0x31,Read,ACK
6.579903812500000,126,0x18,0xFC,Read,ACK
6.579926312500000,126,0x18,0xBD,Read,ACK
6.579948812500000,126,0x18,0x03,Read,ACK
6.579971312500000,126,0x18,0xA1,Read,ACK
6.579993875000000,126,0x18,0x11,Read,ACK
6.580016375000000,126,0x18,0xF9,Read,ACK
6.580038875000000,126,0x18,0xFE,Read,ACK
6.580061375000000,126,0x18,0x69,Read,ACK
6.580083875000000,126,0x18,0x00,Read,ACK
6.580106375000000,126,0x18,0x7D,Read,ACK
6.580128875000000,126,0x18,0x19,Read,NAK
6.580189812500000,127,0x18,0x3F,Write,ACK
6.580237875000000,128,0x18,0x9D,Read,ACK
6.580260375000000,128,0x18,0xFF,Read,ACK
6.580282875000000,128,0x18,0xD1,Read,ACK
6.580305375000000,128,0x18,0x06,Read,ACK
6.580327875000000,128,0x18,0xF1,Read,ACK
6.580350375000000,128,0x18,0x19,Read,ACK
6.580372875000000,128,0x18,0xC9,Read,ACK
6.580395375000000,128,0x18,0x00,Read,ACK
6.580417937500000,128,0x18,0x95,Read,ACK
6.580440437500000,128,0x18,0x08,Read,ACK
6.580462937500000,128,0x18,0x41,Read,ACK
6.580485437500000,128,0x18,0x0E,Read,ACK
6.580507937500000,128,0x18,0x5D,Read,ACK
6.580530437500000,128,0x18,0xFE,Read,ACK
6.580552937500000,128,0x18,0x45,Read,ACK
6.580575437500000,128,0x18,0x00,Read,ACK
6.580597937500000,128,0x18,0x8D,Read,ACK
6.580620500000000,128,0x18,0x0D,Read,ACK
6.580643000000000,128,0x18,0x5D,Read,ACK
6.580665500000000,128,0x18,0x04,Read,ACK
6.580688000000000,128,0x18,0x85,Read,ACK
6.580710500000000,128,0x18,0xFF,Read,ACK
6.580733000000000,128,0x18,0x0D,Read,ACK
6.580755500000000,128,0x18,0x0C,Read,ACK
6.580778000000000,128,0x18,0x8D,Read,ACK
6.580800500000000,128,0x18,0xF6,Read,ACK
6.580823062500000,128,0x18,0x71,Read,ACK
6.580845562500000,128,0x18,0xF6,Read,ACK
6.580868062500000,128,0x18,0x25,Read,ACK
6.580890562500000,128,0x18,0x49,Read,NAK
6.580952312500000,129,0x18,0x3E,Write,ACK
6.580974875000000,129,0x18,0x40,Write,ACK
7.376435125000000,130,0x18,0x0E,Write,ACK
7.376483187500000,131,0x18,0x1E,Read,NAK
7.376560625000000,132,0x18,0x3F,Write,ACK
7.376608750000000,133,0x18,0x65,Read,ACK
7.376631250000000,133,0x18,0xE2,Read,ACK
7.376653750000000,133,0x18,0xED,Read,ACK
7.376676250000000,133,0x18,0xFE,Read,ACK
7.376698750000000,133,0x18,0x05,Read,ACK
7.376721250000000,133,0x18,0x24,Read,ACK
7.376743750000000,133,0x18,0x9D,Read,ACK
7.376766250000000,133,0x18,0xFE,Read,ACK
7.376788750000000,133,0x18,0x8D,Read,ACK
7.376811250000000,133,0x18,0xF1,Read,ACK
7.376833812500000,133,0x18,0x35,Read,ACK
7.376856312500000,133,0x18,0x10,Read,ACK
7.376878812500000,133,0x18,0x75,Read,ACK
7.376901312500000,133,0x18,0xFF,Read,ACK
7.376923812500000,133,0x18,0x69,Read,ACK
7.376946312500000,133,0x18,0x0A,Read,ACK
7.376968812500000,133,0x18,0x4D,Read,ACK
7.376991312500000,133,0x18,0x29,Read,ACK
7.377013812500000,133,0x18,0x95,Read,ACK
7.377036375000000,133,0x18,0xFD,Read,ACK
7.377058875000000,133,0x18,0xFD,Read,ACK
7.377081375000000,133,0x18,0xFB,Read,ACK
7.377103875000000,133,0x18,0x65,Read,ACK
7.377126375000000,133,0x18,0x17,Read,ACK
7.377148875000000,133,0x18,0x49,Read,ACK
7.377171375000000,133,0x18,0xFE,Read,ACK
7.377193875000000,133,0x18,0xF9,Read,ACK
7.377216437500000,133,0x18,0x00,Read,ACK
7.377238937500000,133,0x18,0xB1,Read,ACK
7.377261437500000,133,0x18,0x1B,Read,NAK
7.377322312500000,134,0x18,0x3F,Write,ACK
7.377370375000000,135,0x18,0x31,Read,ACK
7.377392875000000,135,0x18,0x01,Read,ACK
7.377415375000000,135,0x18,0xE1,Read,ACK
7.377437937500000,135,0x18,0xFE,Read,ACK
7.377460437500000,135,0x18,0x3D,Read,ACK
7.377482937500000,135,0x18,0x22,Read,ACK
7.377505437500000,135,0x18,0x35,Read,ACK
7.377527937500000,135,0x18,0xFB,Read,ACK
7.377550437500000,135,0x18,0xC1,Read,ACK
7.377572937500000,135,0x18,0xFF,Read,ACK
7.377595437500000,135,0x18,0xA9,Read,ACK
7.377617937500000,135,0x18,0x1D,Read,ACK
7.377640500000000,135,0x18,0xC9,Read,ACK
7.377663000000000,135,0x18,0xFC,Read,ACK
7.377685500000000,135,0x18,0xB5,Read,ACK
7.377708000000000,135,0x18,0x00,Read,ACK
7.377730500000000,135,0x18,0x79,Read,ACK
7.377753000000000,135,0x18,0x22,Read,ACK
7.377775500000000,135,0x18,0xFD,Read,ACK
7.377798000000000,135,0x18,0xFB,Read,ACK
7.377820500000000,135,0x18,0xF1,Read,ACK
7.377843062500000,135,0x18,0x01,Read,ACK
7.377865562500000,135,0x18,0xB9,Read,ACK
7.377888062500000,135,0x18,0x1D,Read,ACK
7.377910562500000,135,0x18,0xE1,Read,ACK
7.377933062500000,135,0x18,0xFE,Read,ACK
7.377955562500000,135,0x18,0x91,Read,ACK
7.377978062500000,135,0x18,0xFF,Read,ACK
7.378000562500000,135,0x18,0x6D,Read,ACK
7.378023062500000,135,0x18,0x1C,Read,NAK
7.378084000000000,136,0x18,0x3F,Write,ACK
7.378132062500000,137,0x18,0x61,Read,ACK
7.378154562500000,137,0x18,0xFB,Read,ACK
7.378177062500000,137,0x18,0x01,Read,ACK
7.378199562500000,137,0x18,0x00,Read,ACK
7.378222062500000,137,0x18,0x89,Read,ACK
7.378244562500000,137,0x18,0x21,Read,ACK
7.378267125000000,137,0x18,0x09,Read,ACK
7.378289625000000,137,0x18,0x00,Read,ACK
7.378312125000000,137,0x18,0xA1,Read,ACK
7.378334625000000,137,0x18,0xFF,Read,ACK
7.378357125000000,137,0x18,0x59,Read,ACK
7.378379625000000,137,0x18,0x1A,Read,ACK
7.378402125000000,137,0x18,0xA1,Read,ACK
7.378424625000000,137,0x18,0xFE,Read,ACK
7.378447125000000,137,0x18,0x29,Read,ACK
7.378469687500000,137,0x18,0xFD,Read,ACK
7.378492187500000,137,0x18,0x19,Read,ACK
7.378514687500000,137,0x18,0x1F,Read,ACK
7.378537187500000,137,0x18,0x1D,Read,ACK
7.378559687500000,137,0x18,0xFE,Read,ACK
7.378582187500000,137,0x18,0xF9,Read,ACK
7.378604687500000,137,0x18,0xFE,Read,ACK
7.378627187500000,137,0x18,0xB1,Read,ACK
7.378649687500000,137,0x18,0x1C,Read,ACK
7.378672250000000,137,0x18,0xFD,Read,ACK
7.378694750000000,137,0x18,0xFD,Read,ACK
7.378717250000000,137,0x18,0xAD,Read,ACK
7.378739750000000,137,0x18,0xFF,Read,ACK
7.378762250000000,137,0x18,0x8D,Read,ACK
7.378784750000000,137,0x18,0x1F,Read,NAK
7.378845625000000,138,0x18,0x3F,Write,ACK
7.378893750000000,139,0x18,0x61,Read,ACK
7.378916250000000,139,0x18,0xFE,Read,ACK
7.378938750000000,139,0x18,0x7D,Read,ACK
7.378961250000000,139,0x18,0xFF,Read,ACK
7.378983750000000,139,0x18,0xD5,Read,ACK
7.379006250000000,139,0x18,0x1D,Read,ACK
7.379028750000000,139,0x18,0x55,Read,ACK
7.379051250000000,139,0x18,0xFE,Read,ACK
7.379073750000000,139,0x18,0xD1,Read,ACK
7.379096312500000,139,0x18,0xFE,Read,ACK
7.379118812500000,139,0x18,0xA9,Read,ACK
7.379141312500000,139,0x18,0x1E,Read,ACK
7.379163812500000,139,0x18,0x21,Read,ACK
7.379186312500000,139,0x18,0xFD,Read,ACK
7.379208812500000,139,0x18,0x85,Read,ACK
7.379231312500000,139,0x18,0x00,Read,ACK
7.379253812500000,139,0x18,0xE9,Read,ACK
7.379276375000000,139,0x18,0x1E,Read,ACK
7.379298875000000,139,0x18,0xED,Read,ACK
7.379321375000000,139,0x18,0xFD,Read,ACK
7.379343875000000,139,0x18,0xA5,Read,ACK
7.379366375000000,139,0x18,0xFF,Read,ACK
7.379388875000000,139,0x18,0xF5,Read,ACK
7.379411375000000,139,0x18,0x1F,Read,ACK
7.379433875000000,139,0x18,0x29,Read,ACK
7.379456375000000,139,0x18,0xFE,Read,ACK
7.379478875000000,139,0x18,0xD1,Read,ACK
7.379501437500000,139,0x18,0xFE,Read,ACK
7.379523937500000,139,0x18,0x8D,Read,ACK
7.379546437500000,139,0x18,0x20,Read,NAK
7.379607312500000,140,0x18,0x3F,Write,ACK
7.379655375000000,141,0x18,0xED,Read,ACK
7.379677875000000,141,0x18,0xFE,Read,ACK
7.379700437500000,141,0x18,0x0D,Read,ACK
7.379722937500000,141,0x18,0xFF,Read,ACK
7.379745437500000,141,0x18,0x9D,Read,ACK
7.379767937500000,141,0x18,0x1E,Read,ACK
7.379790437500000,141,0x18,0x35,Read,ACK
7.379812937500000,141,0x18,0xFF,Read,ACK
7.379835437500000,141,0x18,0xCD,Read,ACK
7.379857937500000,141,0x18,0xFD,Read,ACK
7.379880437500000,141,0x18,0xC5,Read,ACK
7.379903000000000,141,0x18,0x1D,Read,ACK
7.379925500000000,141,0x18,0x61,Read,ACK
7.379948000000000,141,0x18,0xFE,Read,ACK
7.379970500000000,141,0x18,0x1D,Read,ACK
7.379993000000000,141,0x18,0xFF,Read,ACK
7.380015500000000,141,0x18,0xC9,Read,ACK
7.380038000000000,141,0x18,0x1F,Read,ACK
7.380060500000000,141,0x18,0xA1,Read,ACK
7.380083000000000,141,0x18,0xFE,Read,ACK
7.380105562500000,141,0x18,0x31,Read,ACK
7.380128062500000,141,0x18,0xFE,Read,ACK
7.380150562500000,141,0x18,0x09,Read,ACK
7.380173062500000,141,0x18,0x1E,Read,ACK
7.380195562500000,141,0x18,0xB9,Read,ACK
7.380218062500000,141,0x18,0xFE,Read,ACK
7.380240562500000,141,0x18,0x31,Read,ACK
7.380263062500000,141,0x18,0xFE,Read,ACK
7.380285562500000,141,0x18,0x65,Read,ACK
7.380308125000000,141,0x18,0x1F,Read,NAK
7.380369000000000,142,0x18,0x3F,Write,ACK
7.380417062500000,143,0x18,0xE1,Read,ACK
7.380439562500000,143,0x18,0xFE,Read,ACK
7.380462062500000,143,0x18,0xDD,Read,ACK
7.380484562500000,143,0x18,0xFE,Read,ACK
7.380507062500000,143,0x18,0x01,Read,ACK
7.380529625000000,143,0x18,0x1F,Read,ACK
7.380552125000000,143,0x18,0x3D,Read,ACK
7.380574625000000,143,0x18,0xFF,Read,ACK
7.380597125000000,143,0x18,0x69,Read,ACK
7.380619625000000,143,0x18,0xFE,Read,ACK
7.380642125000000,143,0x18,0xC9,Read,ACK
7.380664625000000,143,0x18,0x1E,Read,ACK
7.380687125000000,143,0x18,0xE5,Read,ACK
7.380709625000000,143,0x18,0xFE,Read,ACK
7.380732187500000,143,0x18,0xBD,Read,ACK
7.380754687500000,143,0x18,0xFF,Read,ACK
7.380777187500000,143,0x18,0x2D,Read,ACK
7.380799687500000,143,0x18,0x1E,Read,ACK
7.380822187500000,143,0x18,0x11,Read,ACK
7.380844687500000,143,0x18,0xFF,Read,ACK
7.380867187500000,143,0x18,0x21,Read,ACK
7.380889687500000,143,0x18,0xFE,Read,ACK
7.380912187500000,143,0x18,0xB9,Read,ACK
7.380934750000000,143,0x18,0x1E,Read,ACK
7.380957250000000,143,0x18,0x25,Read,ACK
7.380979750000000,143,0x18,0xFF,Read,ACK
7.381002250000000,143,0x18,0x39,Read,ACK
7.381024750000000,143,0x18,0xFE,Read,ACK
7.381047250000000,143,0x18,0xB9,Read,ACK
7.381069750000000,143,0x18,0x1E,Read,NAK
7.381131500000000,144,0x18,0x3E,Write,ACK
7.381154125000000,144,0x18,0x40,Write,ACK
8.176690437500000,145,0x18,0x0E,Write,ACK
8.176738562500001,146,0x18,0x1E,Read,NAK
8.176816000000001,147,0x18,0x3F,Write,ACK
8.176838500000001,147,0x18,0x8C,Write,ACK
8.176859062500000,147,0x18,0xB3,Write,ACK
8.176881562500000,147,0x18,0xBF,Write,NAK
8.176904062500000,147,0x18,0x36,Write,ACK
8.176926562500000,147,0x18,0xBF,Write,NAK
8.176949125000000,147,0x18,0x3F,Write,ACK
8.176971625000000,147,0x18,0x87,Write,NAK
8.176994125000000,147,0x18,0x22,Write,ACK
8.177016625000000,147,0x18,0xBF,Write,NAK
8.177039125000000,147,0x18,0xAB,Write,ACK
8.177061625000000,147,0x18,0xBF,Write,ACK
8.177084125000000,147,0x18,0x81,Write,ACK
8.177106625000000,147,0x18,0x87,Write,ACK
8.177129125000000,147,0x18,0x88,Write,ACK
8.177151687500000,147,0x18,0xBF,Write,NAK
8.177174187500000,147,0x18,0x87,Write,ACK
8.177196687500000,147,0x18,0xBF,Write,NAK
8.177219187500000,147,0x18,0x1D,Write,ACK
8.177241687500000,147,0x18,0x87,Write,NAK
8.177264187500001,147,0x18,0x2B,Write,ACK
8.177286687500001,147,0x18,0xBF,Write,ACK
8.177309187500001,147,0x18,0xAF,Write,ACK
8.177331687500001,147,0x18,0xBF,Write,NAK
8.177354250000000,147,0x18,0x33,Write,ACK
8.177376750000001,147,0x18,0x86,Write,NAK
8.177399250000001,147,0x18,0x16,Write,ACK
8.177421750000001,147,0x18,0xBF,Write,NAK
8.177444250000001,147,0x18,0x25,Write,ACK
8.177466750000001,147,0x18,0xBF,Write,NAK
8.177489250000001,147,0x18,0x9F,Write,ACK
8.177511750000001,147,0x18,0x87,Write,ACK
8.177577687499999,148,0x18,0x3F,Write,ACK
8.177625750000001,149,0x18,0x19,Read,ACK
8.177648250000001,149,0x18,0xFD,Read,ACK
8.177670750000001,149,0x18,0xC5,Read,ACK
8.177693250000001,149,0x18,0x00,Read,ACK
8.177715750000001,149,0x18,0x75,Read,ACK
8.177738250000001,149,0x18,0x1D,Read,ACK
8.177760749999999,149,0x18,0xE5,Read,ACK
8.177783312500001,149,0x18,0xFE,Read,ACK
8.177805812500001,149,0x18,0x0D,Read,ACK
8.177828312500001,149,0x18,0xFE,Read,ACK
8.177850812499999,149,0x18,0x81,Read,ACK
8.177873312499999,149,0x18,0x1E,Read,ACK
8.177895812499999,149,0x18,0xD1,Read,ACK
8.177918312499999,149,0x18,0xFE,Read,ACK
8.177940812499999,149,0x18,0x55,Read,ACK
8.177963312499999,149,0x18,0xFF,Read,ACK
8.177985874999999,149,0x18,0x79,Read,ACK
8.178008374999999,149,0x18,0x1E,Read,ACK
8.178030874999999,149,0x18,0x01,Read,ACK
8.178053374999999,149,0x18,0xFF,Read,ACK
8.178075874999999,149,0x18,0x05,Read,ACK
8.178098374999999,149,0x18,0xFF,Read,ACK
8.178120874999999,149,0x18,0xA1,Read,ACK
8.178143374999999,149,0x18,0x1F,Read,ACK
8.178165937499999,149,0x18,0x45,Read,ACK
8.178188437499999,149,0x18,0xFF,Read,ACK
8.178210937499999,149,0x18,0x19,Read,ACK
8.178233437499999,149,0x18,0xFE,Read,ACK
8.178255937499999,149,0x18,0x0D,Read,ACK
8.178278437499999,149,0x18,0x1E,Read,NAK
8.178339312500000,150,0x18,0x3F,Write,ACK
8.178387437500000,151,0x18,0xFD,Read,ACK
8.178409937500000,151,0x18,0xFF,Read,ACK
8.178432437500000,151,0x18,0x2D,Read,ACK
8.178454937500000,151,0x18,0x01,Read,ACK
8.178477437500000,151,0x18,0x11,Read,ACK
8.178499937500000,151,0x18,0x20,Read,ACK
8.178522437500000,151,0x18,0xD9,Read,ACK
8.178544937500000,151,0x18,0xFE,Read,ACK
8.178567437500000,151,0x18,0x05,Read,ACK
8.178590000000000,151,0x18,0xFE,Read,ACK
8.178612500000000,151,0x18,0xFD,Read,ACK
8.178635000000000,151,0x18,0x1D,Read,ACK
8.178657500000000,151,0x18,0x49,Read,ACK
8.178680000000000,151,0x18,0xFE,Read,ACK
8.178702500000000,151,0x18,0x69,Read,ACK
8.178725000000000,151,0x18,0xFD,Read,ACK
8.178747500000000,151,0x18,0x49,Read,ACK
8.178770000000000,151,0x18,0x1C,Read,ACK
8.178792562500000,151,0x18,0x4D,Read,ACK
8.178815062500000,151,0x18,0xFF,Read,ACK
8.178837562500000,151,0x18,0xE5,Read,ACK
8.178860062500000,151,0x18,0xFE,Read,ACK
8.178882562500000,151,0x18,0x71,Read,ACK
8.178905062500000,151,0x18,0x1D,Read,ACK
8.178927562500000,151,0x18,0x8D,Read,ACK
8.178950062500000,151,0x18,0xFE,Read,ACK
8.178972562500000,151,0x18,0xE5,Read,ACK
8.178995125000000,151,0x18,0xFE,Read,ACK
8.179017625000000,151,0x18,0xA1,Read,ACK
8.179040125000000,151,0x18,0x1F,Read,NAK
8.179100999999999,152,0x18,0x3F,Write,ACK
8.179149062500001,153,0x18,0x51,Read,ACK
8.179171562500001,153,0x18,0xFE,Read,ACK
8.179194062500001,153,0x18,0xFD,Read,ACK
8.179216625000000,153,0x18,0xFE,Read,ACK
8.179239125000000,153,0x18,0x75,Read,ACK
8.179261625000001,153,0x18,0x1F,Read,ACK
8.179284125000001,153,0x18,0x8D,Read,ACK
8.179306625000001,153,0x18,0xFE,Read,ACK
8.179329125000001,153,0x18,0x69,Read,ACK
8.179351625000001,153,0x18,0xFF,Read,ACK
8.179374125000001,153,0x18,0x7D,Read,ACK
8.179396687500001,153,0x18,0x1F,Read,ACK
8.179419187500001,153,0x18,0xC5,Read,ACK
8.179441687500001,153,0x18,0xFE,Read,ACK
8.179464187500001,153,0x18,0xD1,Read,ACK
8.179486687500001,153,0x18,0xFD,Read,ACK
8.179509187500001,153,0x18,0x55,Read,ACK
8.179531687500001,153,0x18,0x1E,Read,ACK
8.179554187500001,153,0x18,0xE5,Read,ACK
8.179576687500001,153,0x18,0xFE,Read,ACK
8.179599187499999,153,0x18,0xBD,Read,ACK
8.179621750000001,153,0x18,0xFE,Read,ACK
8.179644250000001,153,0x18,0x61,Read,ACK
8.179666750000001,153,0x18,0x1F,Read,ACK
8.179689249999999,153,0x18,0x6D,Read,ACK
8.179711749999999,153,0x18,0x00,Read,ACK
8.179734249999999,153,0x18,0x4D,Read,ACK
8.179756749999999,153,0x18,0xFE,Read,ACK
8.179779249999999,153,0x18,0xDD,Read,ACK
8.179801749999999,153,0x18,0x1E,Read,NAK
8.179862687500000,154,0x18,0x3F,Write,ACK
8.179910749999999,155,0x18,0x1D,Read,ACK
8.179933249999999,155,0x18,0xFE,Read,ACK
8.179955750000000,155,0x18,0x55,Read,ACK
8.179978250000000,155,0x18,0xFF,Read,ACK
8.180000750000000,155,0x18,0x4D,Read,ACK
8.180023312499999,155,0x18,0x21,Read,ACK
8.180045812500000,155,0x18,0x81,Read,ACK
8.180068312500000,155,0x18,0xFA,Read,ACK
8.180090812500000,155,0x18,0xC9,Read,ACK
8.180113312500000,155,0x18,0xFF,Read,ACK
8.180135812500000,155,0x18,0x11,Read,ACK
8.180158312500000,155,0x18,0x1E,Read,ACK
8.180180812500000,155,0x18,0x35,Read,ACK
8.180203312500000,155,0x18,0x02,Read,ACK
8.180225875000000,155,0x18,0x19,Read,ACK
8.180248375000000,155,0x18,0xFC,Read,ACK
8.180270875000000,155,0x18,0x01,Read,ACK
8.180293375000000,155,0x18,0x1F,Read,ACK
8.180315875000000,155,0x18,0x85,Read,ACK
8.180338375000000,155,0x18,0x00,Read,ACK
8.180360875000000,155,0x18,0x2D,Read,ACK
8.180383375000000,155,0x18,0xFF,Read,ACK
8.180405875000000,155,0x18,0x4D,Read,ACK
8.180428437500000,155,0x18,0x1F,Read,ACK
8.180450937500000,155,0x18,0x59,Read,ACK
8.180473437500000,155,0x18,0xFA,Read,ACK
8.180495937500000,155,0x18,0x05,Read,ACK
8.180518437500000,155,0x18,0x02,Read,ACK
8.180540937500000,155,0x18,0x19,Read,ACK
8.180563437500000,155,0x18,0x23,Read,NAK
8.180624312500001,156,0x18,0x3F,Write,ACK
8.180672437500000,157,0x18,0x95,Read,ACK
8.180694937500000,157,0x18,0x00,Read,ACK
8.180717437500000,157,0x18,0x4D,Read,ACK
8.180739937500000,157,0x18,0xFC,Read,ACK
8.180762437500000,157,0x18,0x61,Read,ACK
8.180784937500000,157,0x18,0x1F,Read,ACK
8.180807500000000,157,0x18,0x45,Read,ACK
8.180829937500000,157,0x18,0xFF,Read,ACK
8.180852500000000,157,0x18,0xC5,Read,ACK
8.180875000000000,157,0x18,0xFC,Read,ACK
8.180897500000000,157,0x18,0xAD,Read,ACK
8.180920000000000,157,0x18,0x26,Read,ACK
8.180942500000000,157,0x18,0x09,Read,ACK
8.180965000000000,157,0x18,0xFD,Read,ACK
8.180987500000001,157,0x18,0xA9,Read,ACK
8.181010000000001,157,0x18,0xFB,Read,ACK
8.181032500000001,157,0x18,0x49,Read,ACK
8.181055062500000,157,0x18,0x1C,Read,ACK
8.181077562500001,157,0x18,0xA1,Read,ACK
8.181100062500001,157,0x18,0x02,Read,ACK
8.181122562500001,157,0x18,0xE9,Read,ACK
8.181145062500001,157,0x18,0xFE,Read,ACK
8.181167562500001,157,0x18,0x31,Read,ACK
8.181190062500001,157,0x18,0x25,Read,ACK
8.181212562500001,157,0x18,0xA5,Read,ACK
8.181235062500001,157,0x18,0x00,Read,ACK
8.181257562500001,157,0x18,0xB1,Read,ACK
8.181280125000001,157,0x18,0xFF,Read,ACK
8.181302625000001,157,0x18,0x45,Read,ACK
8.181325125000001,157,0x18,0x25,Read,NAK
8.181386874999999,158,0x18,0x3E,Write,ACK
8.181409437499999,158,0x18,0x40,Write,ACK
8.976302875000000,159,0x18,0x0E,Write,ACK
8.976350937499999,160,0x18,0x1E,Read,NAK
8.976428374999999,161,0x18,0x3F,Write,ACK
8.976476500000000,162,0x18,0xAD,Read,ACK
8.976499000000000,162,0x18,0x00,Read,ACK
8.976521500000000,162,0x18,0x51,Read,ACK
8.976544000000001,162,0x18,0x05,Read,ACK
8.976566500000001,162,0x18,0x01,Read,ACK
8.976589000000001,162,0x18,0x19,Read,ACK
8.976611500000001,162,0x18,0x21,Read,ACK
8.976634000000001,162,0x18,0x00,Read,ACK
8.976656500000001,162,0x18,0xC9,Read,ACK
8.976679062500001,162,0x18,0xFD,Read,ACK
8.976701562500001,162,0x18,0x29,Read,ACK
8.976724062500001,162,0x18,0x12,Read,ACK
8.976746562500001,162,0x18,0x59,Read,ACK
8.976769062500001,162,0x18,0x03,Read,ACK
8.976791562500001,162,0x18,0xD9,Read,ACK
8.976814062500001,162,0x18,0x05,Read,ACK
8.976836562500001,162,0x18,0xB9,Read,ACK
8.976859125000001,162,0x18,0x13,Read,ACK
8.976881625000001,162,0x18,0x21,Read,ACK
8.976904125000001,162,0x18,0x04,Read,ACK
8.976926625000001,162,0x18,0x91,Read,ACK
8.976949125000001,162,0x18,0x09,Read,ACK
8.976971624999999,162,0x18,0x99,Read,ACK
8.976994124999999,162,0x18,0x0E,Read,ACK
8.977016624999999,162,0x18,0xE5,Read,ACK
8.977039124999999,162,0x18,0x01,Read,ACK
8.977061624999999,162,0x18,0xA9,Read,ACK
8.977084187499999,162,0x18,0x04,Read,ACK
8.977106687499999,162,0x18,0x01,Read,ACK
8.977129187499999,162,0x18,0x0D,Read,NAK
8.977190062500000,163,0x18,0x3F,Write,ACK
8.977238125000000,164,0x18,0xB9,Read,ACK
8.977260625000000,164,0x18,0xFB,Read,ACK
8.977283187499999,164,0x18,0x41,Read,ACK
8.977305687499999,164,0x18,0x02,Read,ACK
8.977328187500000,164,0x18,0xE9,Read,ACK
8.977350687500000,164,0x18,0x0E,Read,ACK
8.977373187500000,164,0x18,0x9D,Read,ACK
8.977395687500000,164,0x18,0x04,Read,ACK
8.977418187500000,164,0x18,0x2D,Read,ACK
8.977440687500000,164,0x18,0xBA,Read,ACK
8.977463187500000,164,0x18,0xC5,Read,ACK
8.977485750000000,164,0x18,0x0E,Read,ACK
8.977508250000000,164,0x18,0x59,Read,ACK
8.977530750000000,164,0x18,0x0B,Read,ACK
8.977553250000000,164,0x18,0xD1,Read,ACK
8.977575750000000,164,0x18,0xD1,Read,ACK
8.977598250000000,164,0x18,0x11,Read,ACK
8.977620750000000,164,0x18,0x03,Read,ACK
8.977643250000000,164,0x18,0x39,Read,ACK
8.977665750000000,164,0x18,0x1F,Read,ACK
8.977688312500000,164,0x18,0x11,Read,ACK
8.977710812500000,164,0x18,0x01,Read,ACK
8.977733312500000,164,0x18,0x99,Read,ACK
8.977755812500000,164,0x18,0x13,Read,ACK
8.977778312500000,164,0x18,0x11,Read,ACK
8.977800812500000,164,0x18,0xFF,Read,ACK
8.977823312500000,164,0x18,0x39,Read,ACK
8.977845812500000,164,0x18,0xFD,Read,ACK
8.977868312500000,164,0x18,0xD5,Read,ACK
8.977890875000000,164,0x18,0x20,Read,NAK
8.977951750000001,165,0x18,0x3F,Write,ACK
8.977999812500000,166,0x18,0x89,Read,ACK
8.978022312500000,166,0x18,0xFB,Read,ACK
8.978044812500000,166,0x18,0x59,Read,ACK
8.978067312500000,166,0x18,0xF6,Read,ACK
8.978089812500000,166,0x18,0x59,Read,ACK
8.978112375000000,166,0x18,0x1A,Read,ACK
8.978134875000000,166,0x18,0xB5,Read,ACK
8.978157375000000,166,0x18,0xFE,Read,ACK
8.978179875000000,166,0x18,0xA5,Read,ACK
8.978202375000000,166,0x18,0x00,Read,ACK
8.978224875000000,166,0x18,0xB1,Read,ACK
8.978247375000000,166,0x18,0x1F,Read,ACK
8.978269875000001,166,0x18,0x49,Read,ACK
8.978292375000001,166,0x18,0xFE,Read,ACK
8.978314937500000,166,0x18,0x31,Read,ACK
8.978337437500000,166,0x18,0x00,Read,ACK
8.978359937500000,166,0x18,0xFD,Read,ACK
8.978382437500001,166,0x18,0x1A,Read,ACK
8.978404937500001,166,0x18,0x55,Read,ACK
8.978427437500001,166,0x18,0xFF,Read,ACK
8.978449937500001,166,0x18,0x6D,Read,ACK
8.978472437500001,166,0x18,0xFA,Read,ACK
8.978494937500001,166,0x18,0x3D,Read,ACK
8.978517500000001,166,0x18,0x1F,Read,ACK
8.978540000000001,166,0x18,0xCD,Read,ACK
8.978562500000001,166,0x18,0xFE,Read,ACK
8.978585000000001,166,0x18,0xD1,Read,ACK
8.978607500000001,166,0x18,0xFD,Read,ACK
8.978630000000001,166,0x18,0xF9,Read,ACK
8.978652500000001,166,0x18,0x1F,Read,NAK
8.978713375000000,167,0x18,0x3F,Write,ACK
8.978761499999999,168,0x18,0xB5,Read,ACK
8.978783999999999,168,0x18,0xFE,Read,ACK
8.978806499999999,168,0x18,0x3D,Read,ACK
8.978828999999999,168,0x18,0xFF,Read,ACK
8.978851499999999,168,0x18,0x65,Read,ACK
8.978873999999999,168,0x18,0x20,Read,ACK
8.978896499999999,168,0x18,0xED,Read,ACK
8.978918999999999,168,0x18,0xFF,Read,ACK
8.978941562499999,168,0x18,0xFD,Read,ACK
8.978964062499999,168,0x18,0xFC,Read,ACK
8.978986562499999,168,0x18,0x29,Read,ACK
8.979009062499999,168,0x18,0x1E,Read,ACK
8.979031562499999,168,0x18,0xF9,Read,ACK
8.979054062499999,168,0x18,0x00,Read,ACK
8.979076562500000,168,0x18,0x21,Read,ACK
8.979099062500000,168,0x18,0xFC,Read,ACK
8.979121562500000,168,0x18,0xBD,Read,ACK
8.979144124999999,168,0x18,0x1B,Read,ACK
8.979166625000000,168,0x18,0x6D,Read,ACK
8.979189125000000,168,0x18,0xFF,Read,ACK
8.979211625000000,168,0x18,0x5D,Read,ACK
8.979234125000000,168,0x18,0xFE,Read,ACK
8.979256625000000,168,0x18,0x0D,Read,ACK
8.979279125000000,168,0x18,0x20,Read,ACK
8.979301625000000,168,0x18,0x4D,Read,ACK
8.979324125000000,168,0x18,0xFF,Read,ACK
8.979346687500000,168,0x18,0xED,Read,ACK
8.979369187500000,168,0x18,0xFD,Read,ACK
8.979391687500000,168,0x18,0xD1,Read,ACK
8.979414187500000,168,0x18,0x1E,Read,NAK
8.979475062500001,169,0x18,0x3F,Write,ACK
8.979523125000000,170,0x18,0x5D,Read,ACK
8.979545687500000,170,0x18,0x00,Read,ACK
8.979568187500000,170,0x18,0x1D,Read,ACK
8.979590687500000,170,0x18,0xFD,Read,ACK
8.979613187500000,170,0x18,0xD5,Read,ACK
8.979635687500000,170,0x18,0x1D,Read,ACK
8.979658187500000,170,0x18,0x79,Read,ACK
8.979680687500000,170,0x18,0x00,Read,ACK
8.979703187500000,170,0x18,0x25,Read,ACK
8.979725687500000,170,0x18,0xFD,Read,ACK
8.979748250000000,170,0x18,0x1D,Read,ACK
8.979770750000000,170,0x18,0x1E,Read,ACK
8.979793250000000,170,0x18,0xFD,Read,ACK
8.979815750000000,170,0x18,0xFF,Read,ACK
8.979838250000000,170,0x18,0x6D,Read,ACK
8.979860750000000,170,0x18,0xFD,Read,ACK
8.979883250000000,170,0x18,0x89,Read,ACK
8.979905750000000,170,0x18,0x1F,Read,ACK
8.979928250000000,170,0x18,0x55,Read,ACK
8.979950812500000,170,0x18,0x00,Read,ACK
8.979973312500000,170,0x18,0x4D,Read,ACK
8.979995812500000,170,0x18,0xFD,Read,ACK
8.980018312500000,170,0x18,0x05,Read,ACK
8.980040812500000,170,0x18,0x1E,Read,ACK
8.980063312500000,170,0x18,0x51,Read,ACK
8.980085812500000,170,0x18,0x00,Read,ACK
8.980108312500001,170,0x18,0x51,Read,ACK
8.980130812500001,170,0x18,0xFD,Read,ACK
8.980153312500001,170,0x18,0xA5,Read,ACK
8.980175875000000,170,0x18,0x1E,Read,NAK
8.980236750000000,171,0x18,0x3F,Write,ACK
8.980259250000000,171,0x18,0x8C,Write,ACK
8.980279812499999,171,0x18,0xA2,Write,ACK
8.980302312499999,171,0x18,0xBF,Write,NAK
8.980324812499999,171,0x18,0x9D,Write,ACK
8.980347312499999,171,0x18,0xBF,Write,ACK
8.980369812499999,171,0x18,0x8A,Write,ACK
8.980392374999999,171,0x18,0x87,Write,NAK
8.980414874999999,171,0x18,0x8B,Write,ACK
8.980437374999999,171,0x18,0x80,Write,ACK
8.980459874999999,171,0x18,0x20,Write,ACK
8.980482374999999,171,0x18,0xBF,Write,ACK
8.980504874999999,171,0x18,0x96,Write,ACK
8.980527374999999,171,0x18,0x87,Write,NAK
8.980549874999999,171,0x18,0x11,Write,ACK
8.980572374999999,171,0x18,0x80,Write,ACK
8.980594937499999,171,0x18,0x10,Write,ACK
8.980617437499999,171,0x18,0xBF,Write,ACK
8.980639937499999,171,0x18,0xB5,Write,ACK
8.980662437499999,171,0x18,0x87,Write,NAK
8.980684937500000,171,0x18,0x03,Write,ACK
8.980707437500000,171,0x18,0x80,Write,ACK
8.980729937500000,171,0x18,0x10,Write,ACK
8.980752437500000,171,0x18,0xBF,Write,ACK
8.980774937500000,171,0x18,0x87,Write,ACK
8.980797500000000,171,0x18,0x87,Write,NAK
8.980820000000000,171,0x18,0x92,Write,ACK
8.980842500000000,171,0x18,0x80,Write,ACK
8.980865000000000,171,0x18,0x12,Write,ACK
8.980887500000000,171,0x18,0xBF,Write,ACK
8.980910000000000,171,0x18,0xB5,Write,ACK
8.980932500000000,171,0x18,0x87,Write,NAK
8.980999312500000,172,0x18,0x3E,Write,ACK
8.981021875000000,172,0x18,0x40,Write,ACK
9.777060875000000,173,0x18,0x0E,Write,ACK
9.777108937500000,174,0x18,0x1E,Read,NAK
9.777186437499999,175,0x18,0x3F,Write,ACK
9.777234500000000,176,0x18,0x4D,Read,ACK
9.777257000000001,176,0x18,0x00,Read,ACK
9.777279500000001,176,0x18,0x55,Read,ACK
9.777302000000001,176,0x18,0xFD,Read,ACK
9.777324500000001,176,0x18,0xCD,Read,ACK
9.777347062500001,176,0x18,0x1E,Read,ACK
9.777369562500001,176,0x18,0xBD,Read,ACK
9.777392062500001,176,0x18,0xFF,Read,ACK
9.777414562500001,176,0x18,0x6D,Read,ACK
9.777437062500001,176,0x18,0xFD,Read,ACK
9.777459562500001,176,0x18,0xF1,Read,ACK
9.777482062500001,176,0x18,0x1E,Read,ACK
9.777504562500001,176,0x18,0x11,Read,ACK
9.777527062500001,176,0x18,0x00,Read,ACK
9.777549625000001,176,0x18,0x51,Read,ACK
9.777572125000001,176,0x18,0xFD,Read,ACK
9.777594625000001,176,0x18,0x49,Read,ACK
9.777617125000001,176,0x18,0x1E,Read,ACK
9.777639625000001,176,0x18,0x31,Read,ACK
9.777662125000001,176,0x18,0x00,Read,ACK
9.777684624999999,176,0x18,0x5D,Read,ACK
9.777707124999999,176,0x18,0xFD,Read,ACK
9.777729624999999,176,0x18,0xD1,Read,ACK
9.777752187500001,176,0x18,0x1E,Read,ACK
9.777774687499999,176,0x18,0x2D,Read,ACK
9.777797187499999,176,0x18,0x00,Read,ACK
9.777819687499999,176,0x18,0x49,Read,ACK
9.777842187499999,176,0x18,0xFD,Read,ACK
9.777864687499999,176,0x18,0xA9,Read,ACK
9.777887187499999,176,0x18,0x1E,Read,NAK
9.777948125000000,177,0x18,0x3F,Write,ACK
9.777996187499999,178,0x18,0x55,Read,ACK
9.778018687499999,178,0x18,0x00,Read,ACK
9.778041187500000,178,0x18,0x4D,Read,ACK
9.778063687500000,178,0x18,0xFD,Read,ACK
9.778086187500000,178,0x18,0xBD,Read,ACK
9.778108687500000,178,0x18,0x1E,Read,ACK
9.778131187500000,178,0x18,0xD1,Read,ACK
9.778153687500000,178,0x18,0xFF,Read,ACK
9.778176250000000,178,0x18,0x51,Read,ACK
9.778198750000000,178,0x18,0xFD,Read,ACK
9.778221250000000,178,0x18,0xBD,Read,ACK
9.778243750000000,178,0x18,0x1E,Read,ACK
9.778266250000000,178,0x18,0x3D,Read,ACK
9.778288750000000,178,0x18,0x00,Read,ACK
9.778311250000000,178,0x18,0x39,Read,ACK
9.778333750000000,178,0x18,0xFD,Read,ACK
9.778356312500000,178,0x18,0x31,Read,ACK
9.778378812500000,178,0x18,0x1E,Read,ACK
9.778401312500000,178,0x18,0x51,Read,ACK
9.778423812500000,178,0x18,0x00,Read,ACK
9.778446312500000,178,0x18,0x61,Read,ACK
9.778468812500000,178,0x18,0xFD,Read,ACK
9.778491312500000,178,0x18,0xD9,Read,ACK
9.778513812500000,178,0x18,0x1E,Read,ACK
9.778536312500000,178,0x18,0x31,Read,ACK
9.778558875000000,178,0x18,0x00,Read,ACK
9.778581375000000,178,0x18,0x59,Read,ACK
9.778603875000000,178,0x18,0xFD,Read,ACK
9.778626375000000,178,0x18,0x21,Read,ACK
9.778648875000000,178,0x18,0x1E,Read,NAK
9.778709750000001,179,0x18,0x3F,Write,ACK
9.778757812500000,180,0x18,0x3D,Read,ACK
9.778780375000000,180,0x18,0x00,Read,ACK
9.778802875000000,180,0x18,0x3D,Read,ACK
9.778825375000000,180,0x18,0xFD,Read,ACK
9.778847875000000,180,0x18,0xC9,Read,ACK
9.778870375000000,180,0x18,0x1E,Read,ACK
9.778892875000000,180,0x18,0x41,Read,ACK
9.778915375000000,180,0x18,0x00,Read,ACK
9.778937875000000,180,0x18,0x39,Read,ACK
9.778960375000000,180,0x18,0xFD,Read,ACK
9.778982937500000,180,0x18,0x41,Read,ACK
9.779005437500000,180,0x18,0x1E,Read,ACK
9.779027937500000,180,0x18,0x39,Read,ACK
9.779050437500000,180,0x18,0x00,Read,ACK
9.779072937500001,180,0x18,0x3D,Read,ACK
9.779095437500001,180,0x18,0xFD,Read,ACK
9.779117937500001,180,0x18,0x25,Read,ACK
9.779140437500001,180,0x18,0x1E,Read,ACK
9.779162937500001,180,0x18,0x3D,Read,ACK
9.779185500000001,180,0x18,0x00,Read,ACK
9.779208000000001,180,0x18,0x49,Read,ACK
9.779230500000001,180,0x18,0xFD,Read,ACK
9.779253000000001,180,0x18,0xB9,Read,ACK
9.779275500000001,180,0x18,0x1E,Read,ACK
9.779298000000001,180,0x18,0x49,Read,ACK
9.779320500000001,180,0x18,0x00,Read,ACK
9.779343000000001,180,0x18,0x2D,Read,ACK
9.779365500000001,180,0x18,0xFD,Read,ACK
9.779388062500001,180,0x18,0x45,Read,ACK
9.779410562500001,180,0x18,0x1E,Read,NAK
9.779471437500000,181,0x18,0x3F,Write,ACK
9.779493937500000,181,0x18,0x8C,Write,ACK
9.779514499999999,181,0x18,0x8F,Write,ACK
9.779536999999999,181,0x18,0x80,Write,ACK
9.779559500000000,181,0x18,0x14,Write,ACK
9.779582000000000,181,0x18,0xBF,Write,ACK
9.779604562499999,181,0x18,0x89,Write,ACK
9.779627062499999,181,0x18,0x87,Write,NAK
9.779649562500000,181,0x18,0x11,Write,ACK
9.779672062500000,181,0x18,0x80,Write,ACK
9.779694562500000,181,0x18,0x14,Write,ACK
9.779717062500000,181,0x18,0xBF,Write,ACK
9.779739562500000,181,0x18,0x95,Write,ACK
9.779762062500000,181,0x18,0x87,Write,NAK
9.779784562500000,181,0x18,0x36,Write,ACK
9.779807062500000,181,0x18,0xBF,Write,NAK
9.779829625000000,181,0x18,0x91,Write,ACK
9.779852125000000,181,0x18,0xBF,Write,ACK
9.779874625000000,181,0x18,0xAD,Write,ACK
9.779897125000000,181,0x18,0x87,Write,NAK
9.779919625000000,181,0x18,0x0D,Write,ACK
9.779942125000000,181,0x18,0x80,Write,ACK
9.779964625000000,181,0x18,0x11,Write,ACK
9.779987125000000,181,0x18,0xBF,Write,ACK
9.780009625000000,181,0x18,0xAF,Write,ACK
9.780032187500000,181,0x18,0x87,Write,NAK
9.780054687500000,181,0x18,0x33,Write,ACK
9.780077187500000,181,0x18,0xBF,Write,NAK
9.780099687500000,181,0x18,0x8F,Write,ACK
9.780122187500000,181,0x18,0xBF,Write,ACK
9.780144687500000,181,0x18,0xBB,Write,ACK
9.780167187500000,181,0x18,0x87,Write,NAK
9.780233125000001,182,0x18,0x3F,Write,ACK
9.780281187500000,183,0x18,0x61,Read,ACK
9.780303687500000,183,0x18,0x00,Read,ACK
9.780326187500000,183,0x18,0x31,Read,ACK
9.780348687500000,183,0x18,0xFD,Read,ACK
9.780371187500000,183,0x18,0x9D,Read,ACK
9.780393687500000,183,0x18,0x1E,Read,ACK
9.780416250000000,183,0x18,0x75,Read,ACK
9.780438750000000,183,0x18,0x00,Read,ACK
9.780461250000000,183,0x18,0x49,Read,ACK
9.780483750000000,183,0x18,0xFD,Read,ACK
9.780506250000000,183,0x18,0x45,Read,ACK
9.780528750000000,183,0x18,0x1E,Read,ACK
9.780551250000000,183,0x18,0x6D,Read,ACK
9.780573750000000,183,0x18,0x00,Read,ACK
9.780596250000000,183,0x18,0x4D,Read,ACK
9.780618750000000,183,0x18,0xFD,Read,ACK
9.780641312500000,183,0x18,0x25,Read,ACK
9.780663812500000,183,0x18,0x1E,Read,ACK
9.780686312500000,183,0x18,0x2D,Read,ACK
9.780708812500000,183,0x18,0x00,Read,ACK
9.780731312500000,183,0x18,0x71,Read,ACK
9.780753812500000,183,0x18,0xFD,Read,ACK
9.780776312500000,183,0x18,0x61,Read,ACK
9.780798812500000,183,0x18,0x1E,Read,ACK
9.780821312500001,183,0x18,0xD9,Read,ACK
9.780843875000000,183,0x18,0xFF,Read,ACK
9.780866375000000,183,0x18,0x3D,Read,ACK
9.780888875000000,183,0x18,0xFD,Read,ACK
9.780911375000001,183,0x18,0x61,Read,ACK
9.780933875000001,183,0x18,0x1E,Read,NAK
9.780994750000000,184,0x18,0x3F,Write,ACK
9.781042875000001,185,0x18,0x59,Read,ACK
9.781065375000001,185,0x18,0x00,Read,ACK
9.781087875000001,185,0x18,0x4D,Read,ACK
9.781110375000001,185,0x18,0xFD,Read,ACK
9.781132875000001,185,0x18,0xCD,Read,ACK
9.781155375000001,185,0x18,0x1E,Read,ACK
9.781177874999999,185,0x18,0x61,Read,ACK
9.781200374999999,185,0x18,0x00,Read,ACK
9.781222874999999,185,0x18,0x55,Read,ACK
9.781245374999999,185,0x18,0xFD,Read,ACK
9.781267937499999,185,0x18,0xD5,Read,ACK
9.781290437499999,185,0x18,0x1E,Read,ACK
9.781312937499999,185,0x18,0x45,Read,ACK
9.781335437499999,185,0x18,0x00,Read,ACK
9.781357937499999,185,0x18,0x35,Read,ACK
9.781380437499999,185,0x18,0xFD,Read,ACK
9.781402937499999,185,0x18,0xCD,Read,ACK
9.781425437499999,185,0x18,0x1E,Read,ACK
9.781447937499999,185,0x18,0xBD,Read,ACK
9.781470499999999,185,0x18,0xFF,Read,ACK
9.781492999999999,185,0x18,0x41,Read,ACK
9.781515499999999,185,0x18,0xFD,Read,ACK
9.781537999999999,185,0x18,0x31,Read,ACK
9.781560499999999,185,0x18,0x1E,Read,ACK
9.781582999999999,185,0x18,0xDD,Read,ACK
9.781605500000000,185,0x18,0xFF,Read,ACK
9.781628000000000,185,0x18,0x31,Read,ACK
9.781650500000000,185,0x18,0xFD,Read,ACK
9.781673062499999,185,0x18,0x55,Read,ACK
9.781695562499999,185,0x18,0x1E,Read,NAK
9.781757312500000,186,0x18,0x3E,Write,ACK
9.781779875000000,186,0x18,0x40,Write,ACK
