Time [s],Packet ID,Address,Data,Read/Write,ACK/NAK
0.104803375000000,0,0x18,0x0E,Write,ACK
0.104851500000000,1,0x18,0x1E,Read,NAK
0.104928937500000,2,0x18,0x3F,Write,ACK
0.104951437500000,2,0x18,0x8C,Write,ACK
0.104972000000000,2,0x18,0x87,Write,ACK
0.104994500000000,2,0x18,0x80,Write,ACK
0.105017000000000,2,0x18,0x9C,Write,ACK
0.105039500000000,2,0x18,0xBF,Write,ACK
0.105062062500000,2,0x18,0x0C,Write,ACK
0.105084562500000,2,0x18,0x87,Write,NAK
0.105107062500000,2,0x18,0x1F,Write,ACK
0.105129562500000,2,0x18,0x80,Write,ACK
0.105152062500000,2,0x18,0x0A,Write,ACK
0.105174562500000,2,0x18,0xBF,Write,ACK
0.105197062500000,2,0x18,0x38,Write,ACK
0.105219562500000,2,0x18,0x87,Write,NAK
0.105242062500000,2,0x18,0x39,Write,ACK
0.105264562500000,2,0x18,0x80,Write,ACK
0.105287125000000,2,0x18,0x0F,Write,ACK
0.105309625000000,2,0x18,0xBF,Write,ACK
0.105332125000000,2,0x18,0x0E,Write,ACK
0.105354625000000,2,0x18,0x87,Write,NAK
0.105377125000000,2,0x18,0x3D,Write,ACK
0.105399625000000,2,0x18,0x80,Write,ACK
0.105422125000000,2,0x18,0x0D,Write,ACK
0.105444625000000,2,0x18,0xBF,Write,ACK
0.105467187500000,2,0x18,0x15,Write,ACK
0.105489687500000,2,0x18,0x87,Write,NAK
0.105512187500000,2,0x18,0x00,Write,ACK
0.105534687500000,2,0x18,0x80,Write,ACK
0.105557187500000,2,0x18,0x92,Write,ACK
0.105579687500000,2,0x18,0xBF,Write,ACK
0.105602187500000,2,0x18,0x13,Write,ACK
0.105624687500000,2,0x18,0x87,Write,NAK
0.105690625000000,3,0x18,0x3F,Write,ACK
0.105738687500000,4,0x18,0x85,Read,ACK
0.105761187500000,4,0x18,0x00,Read,ACK
0.105783687500000,4,0x18,0x41,Read,ACK
0.105806187500000,4,0x18,0xFC,Read,ACK
0.105828687500000,4,0x18,0xAD,Read,ACK
0.105851187500000,4,0x18,0x1E,Read,ACK
0.105873687500000,4,0x18,0x9D,Read,ACK
0.105896250000000,4,0x18,0x00,Read,ACK
0.105918750000000,4,0x18,0x3D,Read,ACK
0.105941250000000,4,0x18,0xFC,Read,ACK
0.105963750000000,4,0x18,0x21,Read,ACK
0.105986250000000,4,0x18,0x1E,Read,ACK
0.106008750000000,4,0x18,0x8D,Read,ACK
0.106031250000000,4,0x18,0x00,Read,ACK
0.106053750000000,4,0x18,0x75,Read,ACK
0.106076250000000,4,0x18,0xFC,Read,ACK
0.106098812500000,4,0x18,0xA5,Read,ACK
0.106121312500000,4,0x18,0x1E,Read,ACK
0.106143812500000,4,0x18,0x05,Read,ACK
0.106166312500000,4,0x18,0x01,Read,ACK
0.106188812500000,4,0x18,0x3D,Read,ACK
0.106211312500000,4,0x18,0xFC,Read,ACK
0.106233812500000,4,0x18,0xC1,Read,ACK
0.106256312500000,4,0x18,0x1E,Read,ACK
0.106278812500000,4,0x18,0x29,Read,ACK
0.106301375000000,4,0x18,0x01,Read,ACK
0.106323875000000,4,0x18,0x49,Read,ACK
0.106346375000000,4,0x18,0xFC,Read,ACK
0.106368875000000,4,0x18,0x19,Read,ACK
0.106391375000000,4,0x18,0x1E,Read,NAK
0.106452250000000,5,0x18,0x3F,Write,ACK
0.106500375000000,6,0x18,0x0D,Read,ACK
0.106522875000000,6,0x18,0x01,Read,ACK
0.106545375000000,6,0x18,0x59,Read,ACK
0.106567875000000,6,0x18,0xFC,Read,ACK
0.106590375000000,6,0x18,0xA9,Read,ACK
0.106612875000000,6,0x18,0x1E,Read,ACK
0.106635375000000,6,0x18,0xE5,Read,ACK
0.106657875000000,6,0x18,0x00,Read,ACK
0.106680375000000,6,0x18,0x45,Read,ACK
0.106702875000000,6,0x18,0xFC,Read,ACK
0.106725437500000,6,0x18,0x25,Read,ACK
0.106747937500000,6,0x18,0x1E,Read,ACK
0.106770437500000,6,0x18,0x11,Read,ACK
0.106792937500000,6,0x18,0x01,Read,ACK
0.106815437500000,6,0x18,0x4D,Read,ACK
0.106837937500000,6,0x18,0xFC,Read,ACK
0.106860437500000,6,0x18,0x1D,Read,ACK
0.106882937500000,6,0x18,0x1E,Read,ACK
0.106905500000000,6,0x18,0x01,Read,ACK
0.106928000000000,6,0x18,0x01,Read,ACK
0.106950500000000,6,0x18,0x49,Read,ACK
0.106973000000000,6,0x18,0xFC,Read,ACK
0.106995500000000,6,0x18,0xCD,Read,ACK
0.107018000000000,6,0x18,0x1E,Read,ACK
0.107040500000000,6,0x18,0x15,Read,ACK
0.107063000000000,6,0x18,0x01,Read,ACK
0.107085500000000,6,0x18,0x31,Read,ACK
0.107108000000000,6,0x18,0xFC,Read,ACK
0.107130562500000,6,0x18,0xBD,Read,ACK
0.107153062500000,6,0x18,0x1E,Read,NAK
0.107213937500000,7,0x18,0x3F,Write,ACK
0.107262000000000,8,0x18,0xF9,Read,ACK
0.107284500000000,8,0x18,0x00,Read,ACK
0.107307000000000,8,0x18,0x39,Read,ACK
0.107329562500000,8,0x18,0xFC,Read,ACK
0.107352062500000,8,0x18,0x09,Read,ACK
0.107374562500000,8,0x18,0x1E,Read,ACK
0.107397062500000,8,0x18,0x95,Read,ACK
0.107419562500000,8,0x18,0x00,Read,ACK
0.107442062500000,8,0x18,0x4D,Read,ACK
0.107464562500000,8,0x18,0xFC,Read,ACK
0.107487062500000,8,0x18,0x41,Read,ACK
0.107509562500000,8,0x18,0x1E,Read,ACK
0.107532125000000,8,0x18,0xFD,Read,ACK
0.107554625000000,8,0x18,0x00,Read,ACK
0.107577125000000,8,0x18,0x65,Read,ACK
0.107599625000000,8,0x18,0xFC,Read,ACK
0.107622125000000,8,0x18,0x55,Read,ACK
0.107644625000000,8,0x18,0x1E,Read,ACK
0.107667125000000,8,0x18,0x41,Read,ACK
0.107689625000000,8,0x18,0x01,Read,ACK
0.107712125000000,8,0x18,0x21,Read,ACK
0.107734687500000,8,0x18,0xFC,Read,ACK
0.107757187500000,8,0x18,0x8D,Read,ACK
0.107779687500000,8,0x18,0x1E,Read,ACK
0.107802187500000,8,0x18,0x21,Read,ACK
0.107824687500000,8,0x18,0x01,Read,ACK
0.107847187500000,8,0x18,0x39,Read,ACK
0.107869687500000,8,0x18,0xFC,Read,ACK
0.107892187500000,8,0x18,0x9D,Read,ACK
0.107914687500000,8,0x18,0x1E,Read,NAK
0.107975625000000,9,0x18,0x3F,Write,ACK
0.108023687500000,10,0x18,0xFD,Read,ACK
0.108046187500000,10,0x18,0x00,Read,ACK
0.108068687500000,10,0x18,0x59,Read,ACK
0.108091187500000,10,0x18,0xFC,Read,ACK
0.108113687500000,10,0x18,0xB5,Read,ACK
0.108136187500000,10,0x18,0x1E,Read,ACK
0.108158750000000,10,0x18,0x09,Read,ACK
0.108181250000000,10,0x18,0x01,Read,ACK
0.108203750000000,10,0x18,0x4D,Read,ACK
0.108226250000000,10,0x18,0xFC,Read,ACK
0.108248750000000,10,0x18,0x4D,Read,ACK
0.108271250000000,10,0x18,0x1E,Read,ACK
0.108293750000000,10,0x18,0x11,Read,ACK
0.108316250000000,10,0x18,0x01,Read,ACK
0.108338750000000,10,0x18,0x59,Read,ACK
0.108361312500000,10,0x18,0xFC,Read,ACK
0.108383812500000,10,0x18,0x41,Read,ACK
0.108406312500000,10,0x18,0x1E,Read,ACK
0.108428812500000,10,0x18,0x0D,Read,ACK
0.108451312500000,10,0x18,0x01,Read,ACK
0.108473812500000,10,0x18,0x51,Read,ACK
0.108496312500000,10,0x18,0xFC,Read,ACK
0.108518812500000,10,0x18,0xA9,Read,ACK
0.108541312500000,10,0x18,0x1E,Read,ACK
0.108563875000000,10,0x18,0x0D,Read,ACK
0.108586375000000,10,0x18,0x01,Read,ACK
0.108608875000000,10,0x18,0x3D,Read,ACK
0.108631375000000,10,0x18,0xFC,Read,ACK
0.108653875000000,10,0x18,0xB9,Read,ACK
0.108676375000000,10,0x18,0x1E,Read,NAK
0.108737250000000,11,0x18,0x3F,Write,ACK
0.108785375000000,12,0x18,0xF9,Read,ACK
0.108807875000000,12,0x18,0x00,Read,ACK
0.108830375000000,12,0x18,0x41,Read,ACK
0.108852875000000,12,0x18,0xFC,Read,ACK
0.108875375000000,12,0x18,0x41,Read,ACK
0.108897875000000,12,0x18,0x1E,Read,ACK
0.108920375000000,12,0x18,0x1D,Read,ACK
0.108942875000000,12,0x18,0x01,Read,ACK
0.108965437500000,12,0x18,0x39,Read,ACK
0.108987937500000,12,0x18,0xFC,Read,ACK
0.109010437500000,12,0x18,0xC1,Read,ACK
0.109032937500000,12,0x18,0x1E,Read,ACK
0.109055437500000,12,0x18,0x01,Read,ACK
0.109077937500000,12,0x18,0x01,Read,ACK
0.109100437500000,12,0x18,0x41,Read,ACK
0.109122937500000,12,0x18,0xFC,Read,ACK
0.109145437500000,12,0x18,0x0D,Read,ACK
0.109168000000000,12,0x18,0x1E,Read,ACK
0.109190500000000,12,0x18,0x29,Read,ACK
0.109213000000000,12,0x18,0x01,Read,ACK
0.109235500000000,12,0x18,0x51,Read,ACK
0.109258000000000,12,0x18,0xFC,Read,ACK
0.109280500000000,12,0x18,0x29,Read,ACK
0.109303000000000,12,0x18,0x1E,Read,ACK
0.109325500000000,12,0x18,0x01,Read,ACK
0.109348000000000,12,0x18,0x01,Read,ACK
0.109370562500000,12,0x18,0x59,Read,ACK
0.109393062500000,12,0x18,0xFC,Read,ACK
0.109415562500000,12,0x18,0x39,Read,ACK
0.109438062500000,12,0x18,0x1E,Read,NAK
0.109499812500000,13,0x18,0x3E,Write,ACK
0.109522375000000,13,0x18,0x40,Write,ACK
0.905114062500000,14,0x18,0x0E,Write,ACK
0.905162125000000,15,0x18,0x1E,Read,NAK
0.905239625000000,16,0x18,0x3F,Write,ACK
0.905287687500000,17,0x18,0xA5,Read,ACK
0.905310187500000,17,0x18,0x00,Read,ACK
0.905332687500000,17,0x18,0x49,Read,ACK
0.905355187500000,17,0x18,0xFC,Read,ACK
0.905377687500000,17,0x18,0xB5,Read,ACK
0.905400187500000,17,0x18,0x1E,Read,ACK
0.905422750000000,17,0x18,0x15,Read,ACK
0.905445250000000,17,0x18,0x01,Read,ACK
0.905467750000000,17,0x18,0x51,Read,ACK
0.905490250000000,17,0x18,0xFC,Read,ACK
0.905512750000000,17,0x18,0x29,Read,ACK
0.905535250000000,17,0x18,0x1E,Read,ACK
0.905557750000000,17,0x18,0xFD,Read,ACK
0.905580250000000,17,0x18,0x00,Read,ACK
0.905602750000000,17,0x18,0x5D,Read,ACK
0.905625250000000,17,0x18,0xFC,Read,ACK
0.905647812500000,17,0x18,0x1D,Read,ACK
0.905670312500000,17,0x18,0x1E,Read,ACK
0.905692812500000,17,0x18,0x05,Read,ACK
0.905715312500000,17,0x18,0x01,Read,ACK
0.905737812500000,17,0x18,0x39,Read,ACK
0.905760312500000,17,0x18,0xFC,Read,ACK
0.905782812500000,17,0x18,0x15,Read,ACK
0.905805312500000,17,0x18,0x1E,Read,ACK
0.905827812500000,17,0x18,0xE1,Read,ACK
0.905850375000000,17,0x18,0x00,Read,ACK
0.905872875000000,17,0x18,0x51,Read,ACK
0.905895375000000,17,0x18,0xFC,Read,ACK
0.905917875000000,17,0x18,0x2D,Read,ACK
0.905940375000000,17,0x18,0x1E,Read,NAK
0.906001250000000,18,0x18,0x3F,Write,ACK
0.906049375000000,19,0x18,0x05,Read,ACK
0.906071875000000,19,0x18,0x01,Read,ACK
0.906094375000000,19,0x18,0x29,Read,ACK
0.906116875000000,19,0x18,0xFC,Read,ACK
0.906139375000000,19,0x18,0xC1,Read,ACK
0.906161875000000,19,0x18,0x1E,Read,ACK
0.906184375000000,19,0x18,0x99,Read,ACK
0.906206875000000,19,0x18,0x00,Read,ACK
0.906229375000000,19,0x18,0x15,Read,ACK
0.906251875000000,19,0x18,0xFC,Read,ACK
0.906274437500000,19,0x18,0xC5,Read,ACK
0.906296937500000,19,0x18,0x1E,Read,ACK
0.906319437500000,19,0x18,0x11,Read,ACK
0.906341937500000,19,0x18,0x01,Read,ACK
0.906364437500000,19,0x18,0x41,Read,ACK
0.906386937500000,19,0x18,0xFC,Read,ACK
0.906409437500000,19,0x18,0x29,Read,ACK
0.906431937500000,19,0x18,0x1E,Read,ACK
0.906454437500000,19,0x18,0xF5,Read,ACK
0.906477000000000,19,0x18,0x00,Read,ACK
0.906499500000000,19,0x18,0x31,Read,ACK
0.906522000000000,19,0x18,0xFC,Read,ACK
0.906544500000000,19,0x18,0x1D,Read,ACK
0.906567000000000,19,0x18,0x1E,Read,ACK
0.906589500000000,19,0x18,0x0D,Read,ACK
0.906612000000000,19,0x18,0x01,Read,ACK
0.906634500000000,19,0x18,0x55,Read,ACK
0.906657000000000,19,0x18,0xFC,Read,ACK
0.906679562500000,19,0x18,0x99,Read,ACK
0.906702062500000,19,0x18,0x1E,Read,NAK
0.906762937500000,20,0x18,0x3F,Write,ACK
0.906811000000000,21,0x18,0xED,Read,ACK
0.906833500000000,21,0x18,0x00,Read,ACK
0.906856000000000,21,0x18,0x4D,Read,ACK
0.906878562500000,21,0x18,0xFC,Read,ACK
0.906901062500000,21,0x18,0x45,Read,ACK
0.906923562500000,21,0x18,0x1E,Read,ACK
0.906946062500000,21,0x18,0x11,Read,ACK
0.906968562500000,21,0x18,0x01,Read,ACK
0.906991062500000,21,0x18,0x41,Read,ACK
0.907013562500000,21,0x18,0xFC,Read,ACK
0.907036062500000,21,0x18,0xA1,Read,ACK
0.907058562500000,21,0x18,0x1E,Read,ACK
0.907081125000000,21,0x18,0x1D,Read,ACK
0.907103625000000,21,0x18,0x01,Read,ACK
0.907126125000000,21,0x18,0x31,Read,ACK
0.907148625000000,21,0x18,0xFC,Read,ACK
0.907171125000000,21,0x18,0x31,Read,ACK
0.907193625000000,21,0x18,0x1E,Read,ACK
0.907216125000000,21,0x18,0x05,Read,ACK
0.907238625000000,21,0x18,0x01,Read,ACK
0.907261125000000,21,0x18,0x4D,Read,ACK
0.907283625000000,21,0x18,0xFC,Read,ACK
0.907306187500000,21,0x18,0x9D,Read,ACK
0.907328687500000,21,0x18,0x1E,Read,ACK
0.907351187500000,21,0x18,0xFD,Read,ACK
0.907373687500000,21,0x18,0x00,Read,ACK
0.907396187500000,21,0x18,0x41,Read,ACK
0.907418687500000,21,0x18,0xFC,Read,ACK
0.907441187500000,21,0x18,0xFD,Read,ACK
0.907463687500000,21,0x18,0x1D,Read,NAK
0.907524625000000,22,0x18,0x3F,Write,ACK
0.907572687500000,23,0x18,0x89,Read,ACK
0.907595187500000,23,0x18,0x00,Read,ACK
0.907617687500000,23,0x18,0x65,Read,ACK
0.907640187500000,23,0x18,0xFC,Read,ACK
0.907662687500000,23,0x18,0xD9,Read,ACK
0.907685187500000,23,0x18,0x1E,Read,ACK
0.907707750000000,23,0x18,0x01,Read,ACK
0.907730250000000,23,0x18,0x01,Read,ACK
0.907752750000000,23,0x18,0x45,Read,ACK
0.907775250000000,23,0x18,0xFC,Read,ACK
0.907797750000000,23,0x18,0xBD,Read,ACK
0.907820250000000,23,0x18,0x1E,Read,ACK
0.907842750000000,23,0x18,0x11,Read,ACK
0.907865250000000,23,0x18,0x01,Read,ACK
0.907887750000000,23,0x18,0x4D,Read,ACK
0.907910312500000,23,0x18,0xFC,Read,ACK
0.907932812500000,23,0x18,0xE1,Read,ACK
0.907955312500000,23,0x18,0x1E,Read,ACK
0.907977812500000,23,0x18,0xFD,Read,ACK
0.908000312500000,23,0x18,0x00,Read,ACK
0.908022812500000,23,0x18,0x3D,Read,ACK
0.908045312500000,23,0x18,0xFC,Read,ACK
0.908067812500000,23,0x18,0x49,Read,ACK
0.908090312500000,23,0x18,0x1E,Read,ACK
0.908112875000000,23,0x18,0x19,Read,ACK
0.908135375000000,23,0x18,0x01,Read,ACK
0.908157875000000,23,0x18,0x39,Read,ACK
0.908180375000000,23,0x18,0xFC,Read,ACK
0.908202875000000,23,0x18,0xC9,Read,ACK
0.908225375000000,23,0x18,0x1E,Read,NAK
0.908286250000000,24,0x18,0x3F,Write,ACK
0.908334375000000,25,0x18,0x95,Read,ACK
0.908356875000000,25,0x18,0x00,Read,ACK
0.908379375000000,25,0x18,0x41,Read,ACK
0.908401875000000,25,0x18,0xFC,Read,ACK
0.908424375000000,25,0x18,0xB9,Read,ACK
0.908446875000000,25,0x18,0x1E,Read,ACK
0.908469375000000,25,0x18,0xF9,Read,ACK
0.908491875000000,25,0x18,0x00,Read,ACK
0.908514437500000,25,0x18,0x61,Read,ACK
0.908536937500000,25,0x18,0xFC,Read,ACK
0.908559437500000,25,0x18,0xB5,Read,ACK
0.908581937500000,25,0x18,0x1E,Read,ACK
0.908604437500000,25,0x18,0x05,Read,ACK
0.908626937500000,25,0x18,0x01,Read,ACK
0.908649437500000,25,0x18,0x6D,Read,ACK
0.908671937500000,25,0x18,0xFC,Read,ACK
0.908694437500000,25,0x18,0xA5,Read,ACK
0.908717000000000,25,0x18,0x1E,Read,ACK
0.908739500000000,25,0x18,0x2D,Read,ACK
0.908762000000000,25,0x18,0x01,Read,ACK
0.908784500000000,25,0x18,0x45,Read,ACK
0.908807000000000,25,0x18,0xFC,Read,ACK
0.908829500000000,25,0x18,0x41,Read,ACK
0.908852000000000,25,0x18,0x1E,Read,ACK
0.908874500000000,25,0x18,0xFD,Read,ACK
0.908897000000000,25,0x18,0x00,Read,ACK
0.908919500000000,25,0x18,0x5D,Read,ACK
0.908942000000000,25,0x18,0xFC,Read,ACK
0.908964562500000,25,0x18,0xC9,Read,ACK
0.908987062500000,25,0x18,0x1E,Read,NAK
0.909047937500000,26,0x18,0x3F,Write,ACK
0.909096000000000,27,0x18,0x11,Read,ACK
0.909118500000000,27,0x18,0x01,Read,ACK
0.909141062500000,27,0x18,0x5D,Read,ACK
0.909163562500000,27,0x18,0xFC,Read,ACK
0.909186062500000,27,0x18,0x01,Read,ACK
0.909208562500000,27,0x18,0x1E,Read,ACK
0.909231062500000,27,0x18,0xE9,Read,ACK
0.909253562500000,27,0x18,0x00,Read,ACK
0.909276062500000,27,0x18,0x41,Read,ACK
0.909298562500000,27,0x18,0xFC,Read,ACK
0.909321062500000,27,0x18,0x15,Read,ACK
0.909343625000000,27,0x18,0x1E,Read,ACK
0.909366125000000,27,0x18,0xFD,Read,ACK
0.909388625000000,27,0x18,0x00,Read,ACK
0.909411125000000,27,0x18,0x25,Read,ACK
0.909433625000000,27,0x18,0xFC,Read,ACK
0.909456125000000,27,0x18,0xB9,Read,ACK
0.909478625000000,27,0x18,0x1E,Read,ACK
0.909501125000000,27,0x18,0xF5,Read,ACK
0.909523625000000,27,0x18,0x00,Read,ACK
0.909546187500000,27,0x18,0x35,Read,ACK
0.909568687500000,27,0x18,0xFC,Read,ACK
0.909591187500000,27,0x18,0xB5,Read,ACK
0.909613687500000,27,0x18,0x1E,Read,ACK
0.909636187500000,27,0x18,0x01,Read,ACK
0.909658687500000,27,0x18,0x01,Read,ACK
0.909681187500000,27,0x18,0x35,Read,ACK
0.909703687500000,27,0x18,0xFC,Read,ACK
0.909726187500000,27,0x18,0xF9,Read,ACK
0.909748687500000,27,0x18,0x1E,Read,NAK
0.909810500000000,28,0x18,0x3E,Write,ACK
0.909833062500000,28,0x18,0x40,Write,ACK
1.705481812500000,29,0x18,0x0E,Write,ACK
1.705529875000000,30,0x18,0x1E,Read,NAK
1.705607375000000,31,0x18,0x3F,Write,ACK
1.705629875000000,31,0x18,0x8C,Write,ACK
1.705650437500000,31,0x18,0x88,Write,ACK
1.705672937500000,31,0x18,0x80,Write,ACK
1.705695437500000,31,0x18,0x90,Write,ACK
1.705717937500000,31,0x18,0xBF,Write,ACK
1.705740500000000,31,0x18,0x0B,Write,ACK
1.705763000000000,31,0x18,0x87,Write,NAK
1.705785500000000,31,0x18,0x0A,Write,ACK
1.705808000000000,31,0x18,0x80,Write,ACK
1.705830500000000,31,0x18,0x94,Write,ACK
1.705853000000000,31,0x18,0xBF,Write,ACK
1.705875500000000,31,0x18,0x2F,Write,ACK
1.705898000000000,31,0x18,0x87,Write,NAK
1.705920500000000,31,0x18,0x24,Write,ACK
1.705943000000000,31,0x18,0x80,Write,ACK
1.705965562500000,31,0x18,0x11,Write,ACK
1.705988062500000,31,0x18,0xBF,Write,ACK
1.706010562500000,31,0x18,0x2F,Write,ACK
1.706033062500000,31,0x18,0x87,Write,NAK
1.706055562500000,31,0x18,0x23,Write,ACK
1.706078062500000,31,0x18,0x80,Write,ACK
1.706100562500000,31,0x18,0x1B,Write,ACK
1.706123062500000,31,0x18,0xBF,Write,ACK
1.706145625000000,31,0x18,0x36,Write,ACK
1.706168125000000,31,0x18,0x87,Write,NAK
1.706190625000000,31,0x18,0x3F,Write,ACK
1.706213125000000,31,0x18,0x80,Write,ACK
1.706235625000000,31,0x18,0x17,Write,ACK
1.706258125000000,31,0x18,0xBF,Write,ACK
1.706280625000000,31,0x18,0x1B,Write,ACK
1.706303125000000,31,0x18,0x87,Write,NAK
1.706369062500000,32,0x18,0x3F,Write,ACK
1.706417125000000,33,0x18,0x1D,Read,ACK
1.706439625000000,33,0x18,0x01,Read,ACK
1.706462125000000,33,0x18,0x31,Read,ACK
1.706484625000000,33,0x18,0xFC,Read,ACK
1.706507125000000,33,0x18,0x65,Read,ACK
1.706529625000000,33,0x18,0x1E,Read,ACK
1.706552125000000,33,0x18,0xDD,Read,ACK
1.706574687500000,33,0x18,0x00,Read,ACK
1.706597187500000,33,0x18,0x45,Read,ACK
1.706619687500000,33,0x18,0xFC,Read,ACK
1.706642187500000,33,0x18,0xC5,Read,ACK
1.706664687500000,33,0x18,0x1E,Read,ACK
1.706687187500000,33,0x18,0xE9,Read,ACK
1.706709687500000,33,0x18,0x00,Read,ACK
1.706732187500000,33,0x18,0x49,Read,ACK
1.706754687500000,33,0x18,0xFC,Read,ACK
1.706777250000000,33,0x18,0xC5,Read,ACK
1.706799750000000,33,0x18,0x1E,Read,ACK
1.706822250000000,33,0x18,0xD9,Read,ACK
1.706844750000000,33,0x18,0x00,Read,ACK
1.706867250000000,33,0x18,0x4D,Read,ACK
1.706889750000000,33,0x18,0xFC,Read,ACK
1.706912250000000,33,0x18,0x2D,Read,ACK
1.706934750000000,33,0x18,0x1E,Read,ACK
1.706957250000000,33,0x18,0xD1,Read,ACK
1.706979812500000,33,0x18,0x00,Read,ACK
1.707002312500000,33,0x18,0x4D,Read,ACK
1.707024812500000,33,0x18,0xFC,Read,ACK
1.707047312500000,33,0x18,0xC5,Read,ACK
1.707069812500000,33,0x18,0x1E,Read,NAK
1.707130687500000,34,0x18,0x3F,Write,ACK
1.707178812500000,35,0x18,0x29,Read,ACK
1.707201312500000,35,0x18,0x01,Read,ACK
1.707223812500000,35,0x18,0x65,Read,ACK
1.707246312500000,35,0x18,0xFC,Read,ACK
1.707268812500000,35,0x18,0xC9,Read,ACK
1.707291312500000,35,0x18,0x1E,Read,ACK
1.707313812500000,35,0x18,0x39,Read,ACK
1.707336312500000,35,0x18,0x01,Read,ACK
1.707358812500000,35,0x18,0x61,Read,ACK
1.707381312500000,35,0x18,0xFC,Read,ACK
1.707403875000000,35,0x18,0xBD,Read,ACK
1.707426375000000,35,0x18,0x1E,Read,ACK
1.707448875000000,35,0x18,0x21,Read,ACK
1.707471375000000,35,0x18,0x01,Read,ACK
1.707493875000000,35,0x18,0x65,Read,ACK
1.707516375000000,35,0x18,0xFC,Read,ACK
1.707538875000000,35,0x18,0xA5,Read,ACK
1.707561375000000,35,0x18,0x1E,Read,ACK
1.707583875000000,35,0x18,0xC5,Read,ACK
1.707606437500000,35,0x18,0x00,Read,ACK
1.707628937500000,35,0x18,0x5D,Read,ACK
1.707651437500000,35,0x18,0xFC,Read,ACK
1.707673937500000,35,0x18,0x8D,Read,ACK
1.707696437500000,35,0x18,0x1E,Read,ACK
1.707718937500000,35,0x18,0x55,Read,ACK
1.707741437500000,35,0x18,0x01,Read,ACK
1.707763937500000,35,0x18,0x75,Read,ACK
1.707786437500000,35,0x18,0xFC,Read,ACK
1.707809000000000,35,0x18,0x85,Read,ACK
1.707831500000000,35,0x18,0x1E,Read,NAK
1.707892375000000,36,0x18,0x3F,Write,ACK
1.707940437500000,37,0x18,0x39,Read,ACK
1.707962937500000,37,0x18,0x01,Read,ACK
1.707985437500000,37,0x18,0x55,Read,ACK
1.708007937500000,37,0x18,0xFC,Read,ACK
1.708030500000000,37,0x18,0xDD,Read,ACK
1.708053000000000,37,0x18,0x1E,Read,ACK
1.708075500000000,37,0x18,0x89,Read,ACK
1.708098000000000,37,0x18,0x00,Read,ACK
1.708120500000000,37,0x18,0x59,Read,ACK
1.708143000000000,37,0x18,0xFC,Read,ACK
1.708165500000000,37,0x18,0x01,Read,ACK
1.708188000000000,37,0x18,0x1E,Read,ACK
1.708210562500000,37,0x18,0x1D,Read,ACK
1.708233062500000,37,0x18,0x01,Read,ACK
1.708255562500000,37,0x18,0x5D,Read,ACK
1.708278062500000,37,0x18,0xFC,Read,ACK
1.708300562500000,37,0x18,0xA1,Read,ACK
1.708323062500000,37,0x18,0x1E,Read,ACK
1.708345562500000,37,0x18,0xED,Read,ACK
1.708368062500000,37,0x18,0x00,Read,ACK
1.708390562500000,37,0x18,0x15,Read,ACK
1.708413062500000,37,0x18,0xFC,Read,ACK
1.708435625000000,37,0x18,0xA5,Read,ACK
1.708458125000000,37,0x18,0x1E,Read,ACK
1.708480625000000,37,0x18,0x05,Read,ACK
1.708503125000000,37,0x18,0x01,Read,ACK
1.708525625000000,37,0x18,0x39,Read,ACK
1.708548125000000,37,0x18,0xFC,Read,ACK
1.708570625000000,37,0x18,0xB1,Read,ACK
1.708593125000000,37,0x18,0x1E,Read,NAK
1.708654062500000,38,0x18,0x3F,Write,ACK
1.708702125000000,39,0x18,0x29,Read,ACK
1.708724625000000,39,0x18,0x01,Read,ACK
1.708747125000000,39,0x18,0x45,Read,ACK
1.708769625000000,39,0x18,0xFC,Read,ACK
1.708792125000000,39,0x18,0xA5,Read,ACK
1.708814625000000,39,0x18,0x1E,Read,ACK
1.708837125000000,39,0x18,0xED,Read,ACK
1.708859687500000,39,0x18,0x00,Read,ACK
1.708882187500000,39,0x18,0x1D,Read,ACK
1.708904687500000,39,0x18,0xFC,Read,ACK
1.708927187500000,39,0x18,0xB1,Read,ACK
1.708949687500000,39,0x18,0x1E,Read,ACK
1.708972187500000,39,0x18,0x39,Read,ACK
1.708994687500000,39,0x18,0x01,Read,ACK
1.709017187500000,39,0x18,0x99,Read,ACK
1.709039750000000,39,0x18,0xFC,Read,ACK
1.709062250000000,39,0x18,0x3D,Read,ACK
1.709084750000000,39,0x18,0x1E,Read,ACK
1.709107250000000,39,0x18,0x21,Read,ACK
1.709129750000000,39,0x18,0x01,Read,ACK
1.709152250000000,39,0x18,0x35,Read,ACK
1.709174750000000,39,0x18,0xFC,Read,ACK
1.709197250000000,39,0x18,0xA9,Read,ACK
1.709219750000000,39,0x18,0x1E,Read,ACK
1.709242312500000,39,0x18,0x1D,Read,ACK
1.709264812500000,39,0x18,0x01,Read,ACK
1.709287312500000,39,0x18,0x71,Read,ACK
1.709309812500000,39,0x18,0xFC,Read,ACK
1.709332312500000,39,0x18,0xAD,Read,ACK
1.709354812500000,39,0x18,0x1E,Read,NAK
1.709415687500000,40,0x18,0x3F,Write,ACK
1.709463812500000,41,0x18,0x95,Read,ACK
1.709486312500000,41,0x18,0x00,Read,ACK
1.709508812500000,41,0x18,0x71,Read,ACK
1.709531312500000,41,0x18,0xFC,Read,ACK
1.709553812500000,41,0x18,0x29,Read,ACK
1.709576312500000,41,0x18,0x1E,Read,ACK
1.709598812500000,41,0x18,0x99,Read,ACK
1.709621312500000,41,0x18,0x00,Read,ACK
1.709643812500000,41,0x18,0x25,Read,ACK
1.709666375000000,41,0x18,0xFC,Read,ACK
1.709688875000000,41,0x18,0x9D,Read,ACK
1.709711375000000,41,0x18,0x1E,Read,ACK
1.709733875000000,41,0x18,0xE9,Read,ACK
1.709756375000000,41,0x18,0x00,Read,ACK
1.709778875000000,41,0x18,0x45,Read,ACK
1.709801375000000,41,0x18,0xFC,Read,ACK
1.709823875000000,41,0x18,0xE9,Read,ACK
1.709846375000000,41,0x18,0x1D,Read,ACK
1.709868937500000,41,0x18,0x7D,Read,ACK
1.709891437500000,41,0x18,0x00,Read,ACK
1.709913937500000,41,0x18,0x25,Read,ACK
1.709936437500000,41,0x18,0xFC,Read,ACK
1.709958937500000,41,0x18,0x9D,Read,ACK
1.709981437500000,41,0x18,0x1E,Read,ACK
1.710003937500000,41,0x18,0x25,Read,ACK
1.710026437500000,41,0x18,0x01,Read,ACK
1.710048937500000,41,0x18,0x49,Read,ACK
1.710071500000000,41,0x18,0xFC,Read,ACK
1.710094000000000,41,0x18,0xBD,Read,ACK
1.710116500000000,41,0x18,0x1E,Read,NAK
1.710178250000000,42,0x18,0x3E,Write,ACK
1.710200812500000,42,0x18,0x40,Write,ACK
2.506524937500000,43,0x18,0x0E,Write,ACK
2.506573062500000,44,0x18,0x1E,Read,NAK
2.506650500000000,45,0x18,0x3F,Write,ACK
2.506698562500000,46,0x18,0x09,Read,ACK
2.506721062500000,46,0x18,0x01,Read,ACK
2.506743562500000,46,0x18,0x69,Read,ACK
2.506766062500000,46,0x18,0xFC,Read,ACK
2.506788625000000,46,0x18,0x11,Read,ACK
2.506811125000000,46,0x18,0x1E,Read,ACK
2.506833625000000,46,0x18,0xB1,Read,ACK
2.506856125000000,46,0x18,0x00,Read,ACK
2.506878625000000,46,0x18,0x5D,Read,ACK
2.506901125000000,46,0x18,0xFC,Read,ACK
2.506923625000000,46,0x18,0x01,Read,ACK
2.506946125000000,46,0x18,0x1E,Read,ACK
2.506968625000000,46,0x18,0xB5,Read,ACK
2.506991187500000,46,0x18,0x00,Read,ACK
2.507013687500000,46,0x18,0x51,Read,ACK
2.507036187500000,46,0x18,0xFC,Read,ACK
2.507058687500000,46,0x18,0x89,Read,ACK
2.507081187500000,46,0x18,0x1E,Read,ACK
2.507103687500000,46,0x18,0x2D,Read,ACK
2.507126187500000,46,0x18,0x01,Read,ACK
2.507148687500000,46,0x18,0x5D,Read,ACK
2.507171187500000,46,0x18,0xFC,Read,ACK
2.507193750000000,46,0x18,0xC5,Read,ACK
2.507216250000000,46,0x18,0x1E,Read,ACK
2.507238750000000,46,0x18,0xF9,Read,ACK
2.507261250000000,46,0x18,0x00,Read,ACK
2.507283750000000,46,0x18,0x41,Read,ACK
2.507306250000000,46,0x18,0xFC,Read,ACK
2.507328750000000,46,0x18,0x3D,Read,ACK
2.507351250000000,46,0x18,0x1E,Read,NAK
2.507412187500000,47,0x18,0x3F,Write,ACK
2.507460250000000,48,0x18,0xE9,Read,ACK
2.507482750000000,48,0x18,0x00,Read,ACK
2.507505250000000,48,0x18,0x59,Read,ACK
2.507527750000000,48,0x18,0xFC,Read,ACK
2.507550250000000,48,0x18,0xC9,Read,ACK
2.507572812500000,48,0x18,0x1E,Read,ACK
2.507595312500000,48,0x18,0x15,Read,ACK
2.507617812500000,48,0x18,0x01,Read,ACK
2.507640312500000,48,0x18,0x69,Read,ACK
2.507662812500000,48,0x18,0xFC,Read,ACK
2.507685312500000,48,0x18,0xA5,Read,ACK
2.507707812500000,48,0x18,0x1E,Read,ACK
2.507730312500000,48,0x18,0x75,Read,ACK
2.507752812500000,48,0x18,0x00,Read,ACK
2.507775312500000,48,0x18,0x69,Read,ACK
2.507797812500000,48,0x18,0xFC,Read,ACK
2.507820375000000,48,0x18,0x49,Read,ACK
2.507842875000000,48,0x18,0x1E,Read,ACK
2.507865375000000,48,0x18,0x29,Read,ACK
2.507887875000000,48,0x18,0x01,Read,ACK
2.507910375000000,48,0x18,0x6D,Read,ACK
2.507932875000000,48,0x18,0xFC,Read,ACK
2.507955375000000,48,0x18,0xB5,Read,ACK
2.507977875000000,48,0x18,0x1E,Read,ACK
2.508000437500000,48,0x18,0x0D,Read,ACK
2.508022937500000,48,0x18,0x01,Read,ACK
2.508045437500000,48,0x18,0x61,Read,ACK
2.508067937500000,48,0x18,0xFC,Read,ACK
2.508090437500000,48,0x18,0x9D,Read,ACK
2.508112937500000,48,0x18,0x1E,Read,NAK
2.508173812500000,49,0x18,0x3F,Write,ACK
2.508221937500000,50,0x18,0x39,Read,ACK
2.508244437500000,50,0x18,0x01,Read,ACK
2.508266937500000,50,0x18,0x49,Read,ACK
2.508289437500000,50,0x18,0xFC,Read,ACK
2.508311937500000,50,0x18,0x05,Read,ACK
2.508334437500000,50,0x18,0x1E,Read,ACK
2.508356937500000,50,0x18,0x05,Read,ACK
2.508379437500000,50,0x18,0x01,Read,ACK
2.508401937500000,50,0x18,0x5D,Read,ACK
2.508424500000000,50,0x18,0xFC,Read,ACK
2.508447000000000,50,0x18,0xE1,Read,ACK
2.508469500000000,50,0x18,0x1E,Read,ACK
2.508492000000000,50,0x18,0x21,Read,ACK
2.508514500000000,50,0x18,0x01,Read,ACK
2.508537000000000,50,0x18,0x4D,Read,ACK
2.508559500000000,50,0x18,0xFC,Read,ACK
2.508582000000000,50,0x18,0xD1,Read,ACK
2.508604500000000,50,0x18,0x1E,Read,ACK
2.508627062500000,50,0x18,0x09,Read,ACK
2.508649562500000,50,0x18,0x01,Read,ACK
2.508672062500000,50,0x18,0x55,Read,ACK
2.508694562500000,50,0x18,0xFC,Read,ACK
2.508717062500000,50,0x18,0xC5,Read,ACK
2.508739562500000,50,0x18,0x1E,Read,ACK
2.508762062500000,50,0x18,0x99,Read,ACK
2.508784562500000,50,0x18,0x00,Read,ACK
2.508807062500000,50,0x18,0x61,Read,ACK
2.508829625000000,50,0x18,0xFC,Read,ACK
2.508852125000000,50,0x18,0x1D,Read,ACK
2.508874625000000,50,0x18,0x1E,Read,NAK
2.508935500000000,51,0x18,0x3F,Write,ACK
2.508983562500000,52,0x18,0x09,Read,ACK
2.509006062500000,52,0x18,0x01,Read,ACK
2.509028625000000,52,0x18,0x65,Read,ACK
2.509051125000000,52,0x18,0xFC,Read,ACK
2.509073625000000,52,0x18,0xD9,Read,ACK
2.509096125000000,52,0x18,0x1E,Read,ACK
2.509118625000000,52,0x18,0x99,Read,ACK
2.509141125000000,52,0x18,0x00,Read,ACK
2.509163625000000,52,0x18,0x4D,Read,ACK
2.509186125000000,52,0x18,0xFC,Read,ACK
2.509208625000000,52,0x18,0x35,Read,ACK
2.509231187500000,52,0x18,0x1E,Read,ACK
2.509253687500000,52,0x18,0x19,Read,ACK
2.509276187500000,52,0x18,0x01,Read,ACK
2.509298687500000,52,0x18,0x5D,Read,ACK
2.509321187500000,52,0x18,0xFC,Read,ACK
2.509343687500000,52,0x18,0x8D,Read,ACK
2.509366187500000,52,0x18,0x1E,Read,ACK
2.509388687500000,52,0x18,0x15,Read,ACK
2.509411187500000,52,0x18,0x01,Read,ACK
2.509433750000000,52,0x18,0x75,Read,ACK
2.509456250000000,52,0x18,0xFC,Read,ACK
2.509478750000000,52,0x18,0xC9,Read,ACK
2.509501250000000,52,0x18,0x1E,Read,ACK
2.509523750000000,52,0x18,0x95,Read,ACK
2.509546250000000,52,0x18,0x00,Read,ACK
2.509568750000000,52,0x18,0x49,Read,ACK
2.509591250000000,52,0x18,0xFC,Read,ACK
2.509613750000000,52,0x18,0x11,Read,ACK
2.509636250000000,52,0x18,0x1E,Read,NAK
2.509697187500000,53,0x18,0x3F,Write,ACK
2.509745250000000,54,0x18,0x01,Read,ACK
2.509767750000000,54,0x18,0x01,Read,ACK
2.509790250000000,54,0x18,0x79,Read,ACK
2.509812750000000,54,0x18,0xFC,Read,ACK
2.509835250000000,54,0x18,0xC1,Read,ACK
2.509857812500000,54,0x18,0x1E,Read,ACK
2.509880312500000,54,0x18,0xF9,Read,ACK
2.509902812500000,54,0x18,0x00,Read,ACK
2.509925312500000,54,0x18,0x41,Read,ACK
2.509947812500000,54,0x18,0xFC,Read,ACK
2.509970312500000,54,0x18,0xBD,Read,ACK
2.509992812500000,54,0x18,0x1E,Read,ACK
2.510015312500000,54,0x18,0xF9,Read,ACK
2.510037812500000,54,0x18,0x00,Read,ACK
2.510060375000000,54,0x18,0x4D,Read,ACK
2.510082875000000,54,0x18,0xFC,Read,ACK
2.510105375000000,54,0x18,0x45,Read,ACK
2.510127875000000,54,0x18,0x1E,Read,ACK
2.510150375000000,54,0x18,0xB1,Read,ACK
2.510172875000000,54,0x18,0x00,Read,ACK
2.510195375000000,54,0x18,0x71,Read,ACK
2.510217875000000,54,0x18,0xFC,Read,ACK
2.510240375000000,54,0x18,0xDD,Read,ACK
2.510262937500000,54,0x18,0x1E,Read,ACK
2.510285437500000,54,0x18,0x15,Read,ACK
2.510307937500000,54,0x18,0x01,Read,ACK
2.510330437500000,54,0x18,0x55,Read,ACK
2.510352937500000,54,0x18,0xFC,Read,ACK
2.510375437500000,54,0x18,0xB9,Read,ACK
2.510397937500000,54,0x18,0x1E,Read,NAK
2.510458812500000,55,0x18,0x3F,Write,ACK
2.510506937500000,56,0x18,0x01,Read,ACK
2.510529437500000,56,0x18,0x01,Read,ACK
2.510551937500000,56,0x18,0x59,Read,ACK
2.510574437500000,56,0x18,0xFC,Read,ACK
2.510596937500000,56,0x18,0x1D,Read,ACK
2.510619437500000,56,0x18,0x1E,Read,ACK
2.510641937500000,56,0x18,0x09,Read,ACK
2.510664437500000,56,0x18,0x01,Read,ACK
2.510687000000000,56,0x18,0x3D,Read,ACK
2.510709500000000,56,0x18,0xFC,Read,ACK
2.510732000000000,56,0x18,0xC5,Read,ACK
2.510754500000000,56,0x18,0x1E,Read,ACK
2.510777000000000,56,0x18,0x01,Read,ACK
2.510799500000000,56,0x18,0x01,Read,ACK
2.510822000000000,56,0x18,0x4D,Read,ACK
2.510844500000000,56,0x18,0xFC,Read,ACK
2.510867000000000,56,0x18,0x41,Read,ACK
2.510889562500000,56,0x18,0x1E,Read,ACK
2.510912062500000,56,0x18,0xF1,Read,ACK
2.510934562500000,56,0x18,0x00,Read,ACK
2.510957062500000,56,0x18,0x71,Read,ACK
2.510979562500000,56,0x18,0xFC,Read,ACK
2.511002062500000,56,0x18,0x41,Read,ACK
2.511024562500000,56,0x18,0x1E,Read,ACK
2.511047062500000,56,0x18,0xF1,Read,ACK
2.511069562500000,56,0x18,0x00,Read,ACK
2.511092125000000,56,0x18,0x51,Read,ACK
2.511114625000000,56,0x18,0xFC,Read,ACK
2.511137125000000,56,0x18,0xBD,Read,ACK
2.511159625000000,56,0x18,0x1E,Read,NAK
2.511221375000000,57,0x18,0x3E,Write,ACK
2.511243937500000,57,0x18,0x40,Write,ACK
3.306317812500000,58,0x18,0x0E,Write,ACK
3.306365937500000,59,0x18,0x1E,Read,NAK
3.306443375000000,60,0x18,0x3F,Write,ACK
3.306491437500000,61,0x18,0x05,Read,ACK
3.306513937500000,61,0x18,0x01,Read,ACK
3.306536437500000,61,0x18,0x59,Read,ACK
3.306559000000000,61,0x18,0xFC,Read,ACK
3.306581500000000,61,0x18,0xC5,Read,ACK
3.306604000000000,61,0x18,0x1E,Read,ACK
3.306626500000000,61,0x18,0x05,Read,ACK
3.306649000000000,61,0x18,0x01,Read,ACK
3.306671500000000,61,0x18,0x5D,Read,ACK
3.306694000000000,61,0x18,0xFC,Read,ACK
3.306716500000000,61,0x18,0x2D,Read,ACK
3.306739000000000,61,0x18,0x1E,Read,ACK
3.306761562500000,61,0x18,0x05,Read,ACK
3.306784062500000,61,0x18,0x01,Read,ACK
3.306806562500000,61,0x18,0x49,Read,ACK
3.306829062500000,61,0x18,0xFC,Read,ACK
3.306851562500000,61,0x18,0xC9,Read,ACK
3.306874062500000,61,0x18,0x1E,Read,ACK
3.306896562500000,61,0x18,0x01,Read,ACK
3.306919062500000,61,0x18,0x01,Read,ACK
3.306941562500000,61,0x18,0x65,Read,ACK
3.306964062500000,61,0x18,0xFC,Read,ACK
3.306986625000000,61,0x18,0xD5,Read,ACK
3.307009125000000,61,0x18,0x1E,Read,ACK
3.307031625000000,61,0x18,0x15,Read,ACK
3.307054125000000,61,0x18,0x01,Read,ACK
3.307076625000000,61,0x18,0x45,Read,ACK
3.307099125000000,61,0x18,0xFC,Read,ACK
3.307121625000000,61,0x18,0x2D,Read,ACK
3.307144125000000,61,0x18,0x1E,Read,NAK
3.307205062500000,62,0x18,0x3F,Write,ACK
3.307253125000000,63,0x18,0x19,Read,ACK
3.307275625000000,63,0x18,0x01,Read,ACK
3.307298125000000,63,0x18,0x65,Read,ACK
3.307320625000000,63,0x18,0xFC,Read,ACK
3.307343125000000,63,0x18,0x31,Read,ACK
3.307365625000000,63,0x18,0x1E,Read,ACK
3.307388187500000,63,0x18,0x05,Read,ACK
3.307410687500000,63,0x18,0x01,Read,ACK
3.307433187500000,63,0x18,0x61,Read,ACK
3.307455687500000,63,0x18,0xFC,Read,ACK
3.307478187500000,63,0x18,0xBD,Read,ACK
3.307500687500000,63,0x18,0x1E,Read,ACK
3.307523187500000,63,0x18,0xA9,Read,ACK
3.307545687500000,63,0x18,0x00,Read,ACK
3.307568187500000,63,0x18,0x59,Read,ACK
3.307590750000000,63,0x18,0xFC,Read,ACK
3.307613250000000,63,0x18,0xC9,Read,ACK
3.307635750000000,63,0x18,0x1E,Read,ACK
3.307658250000000,63,0x18,0x05,Read,ACK
3.307680750000000,63,0x18,0x01,Read,ACK
3.307703250000000,63,0x18,0x4D,Read,ACK
3.307725750000000,63,0x18,0xFC,Read,ACK
3.307748250000000,63,0x18,0xA1,Read,ACK
3.307770750000000,63,0x18,0x1E,Read,ACK
3.307793312500000,63,0x18,0x1D,Read,ACK
3.307815812500000,63,0x18,0x01,Read,ACK
3.307838312500000,63,0x18,0x4D,Read,ACK
3.307860812500000,63,0x18,0xFC,Read,ACK
3.307883312500000,63,0x18,0xB5,Read,ACK
3.307905812500000,63,0x18,0x1E,Read,NAK
3.307966687500000,64,0x18,0x3F,Write,ACK
3.308014812500000,65,0x18,0x15,Read,ACK
3.308037312500000,65,0x18,0x01,Read,ACK
3.308059812500000,65,0x18,0x6D,Read,ACK
3.308082312500000,65,0x18,0xFC,Read,ACK
3.308104812500000,65,0x18,0x21,Read,ACK
3.308127312500000,65,0x18,0x1E,Read,ACK
3.308149812500000,65,0x18,0x29,Read,ACK
3.308172312500000,65,0x18,0x01,Read,ACK
3.308194875000000,65,0x18,0x59,Read,ACK
3.308217375000000,65,0x18,0xFC,Read,ACK
3.308239875000000,65,0x18,0xA5,Read,ACK
3.308262375000000,65,0x18,0x1E,Read,ACK
3.308284875000000,65,0x18,0x91,Read,ACK
3.308307375000000,65,0x18,0x00,Read,ACK
3.308329875000000,65,0x18,0x69,Read,ACK
3.308352375000000,65,0x18,0xFC,Read,ACK
3.308374875000000,65,0x18,0x91,Read,ACK
3.308397437500000,65,0x18,0x1E,Read,ACK
3.308419937500000,65,0x18,0xA5,Read,ACK
3.308442437500000,65,0x18,0x00,Read,ACK
3.308464937500000,65,0x18,0x55,Read,ACK
3.308487437500000,65,0x18,0xFC,Read,ACK
3.308509937500000,65,0x18,0x31,Read,ACK
3.308532437500000,65,0x18,0x1E,Read,ACK
3.308554937500000,65,0x18,0x15,Read,ACK
3.308577437500000,65,0x18,0x01,Read,ACK
3.308599937500000,65,0x18,0x39,Read,ACK
3.308622500000000,65,0x18,0xFC,Read,ACK
3.308645000000000,65,0x18,0xB9,Read,ACK
3.308667500000000,65,0x18,0x1E,Read,NAK
3.308728375000000,66,0x18,0x3F,Write,ACK
3.308776437500000,67,0x18,0x25,Read,ACK
3.308798937500000,67,0x18,0x01,Read,ACK
3.308821500000000,67,0x18,0x49,Read,ACK
3.308844000000000,67,0x18,0xFC,Read,ACK
3.308866500000000,67,0x18,0xB9,Read,ACK
3.308889000000000,67,0x18,0x1E,Read,ACK
3.308911500000000,67,0x18,0x15,Read,ACK
3.308934000000000,67,0x18,0x01,Read,ACK
3.308956500000000,67,0x18,0x51,Read,ACK
3.308979000000000,67,0x18,0xFC,Read,ACK
3.309001500000000,67,0x18,0xB1,Read,ACK
3.309024062500000,67,0x18,0x1E,Read,ACK
3.309046562500000,67,0x18,0x15,Read,ACK
3.309069062500000,67,0x18,0x01,Read,ACK
3.309091562500000,67,0x18,0x61,Read,ACK
3.309114062500000,67,0x18,0xFC,Read,ACK
3.309136562500000,67,0x18,0xA9,Read,ACK
3.309159062500000,67,0x18,0x1E,Read,ACK
3.309181562500000,67,0x18,0x11,Read,ACK
3.309204062500000,67,0x18,0x01,Read,ACK
3.309226625000000,67,0x18,0x65,Read,ACK
3.309249125000000,67,0x18,0xFC,Read,ACK
3.309271625000000,67,0x18,0x49,Read,ACK
3.309294125000000,67,0x18,0x1E,Read,ACK
3.309316625000000,67,0x18,0x09,Read,ACK
3.309339125000000,67,0x18,0x01,Read,ACK
3.309361625000000,67,0x18,0x59,Read,ACK
3.309384125000000,67,0x18,0xFC,Read,ACK
3.309406625000000,67,0x18,0xAD,Read,ACK
3.309429187500000,67,0x18,0x1E,Read,NAK
3.309490062500000,68,0x18,0x3F,Write,ACK
3.309538125000000,69,0x18,0x0D,Read,ACK
3.309560625000000,69,0x18,0x01,Read,ACK
3.309583125000000,69,0x18,0x71,Read,ACK
3.309605625000000,69,0x18,0xFC,Read,ACK
3.309628125000000,69,0x18,0xC1,Read,ACK
3.309650687500000,69,0x18,0x1E,Read,ACK
3.309673187500000,69,0x18,0x7D,Read,ACK
3.309695687500000,69,0x18,0x00,Read,ACK
3.309718187500000,69,0x18,0x49,Read,ACK
3.309740687500000,69,0x18,0xFC,Read,ACK
3.309763187500000,69,0x18,0x85,Read,ACK
3.309785687500000,69,0x18,0x1E,Read,ACK
3.309808187500000,69,0x18,0x15,Read,ACK
3.309830687500000,69,0x18,0x01,Read,ACK
3.309853250000000,69,0x18,0x71,Read,ACK
3.309875750000000,69,0x18,0xFC,Read,ACK
3.309898250000000,69,0x18,0x35,Read,ACK
3.309920750000000,69,0x18,0x1E,Read,ACK
3.309943250000000,69,0x18,0x09,Read,ACK
3.309965750000000,69,0x18,0x01,Read,ACK
3.309988250000000,69,0x18,0x45,Read,ACK
3.310010750000000,69,0x18,0xFC,Read,ACK
3.310033250000000,69,0x18,0x29,Read,ACK
3.310055812500000,69,0x18,0x1E,Read,ACK
3.310078312500000,69,0x18,0x09,Read,ACK
3.310100812500000,69,0x18,0x01,Read,ACK
3.310123312500000,69,0x18,0x59,Read,ACK
3.310145812500000,69,0x18,0xFC,Read,ACK
3.310168312500000,69,0x18,0x21,Read,ACK
3.310190812500000,69,0x18,0x1E,Read,NAK
3.310251687500000,70,0x18,0x3F,Write,ACK
3.310299812500000,71,0x18,0x85,Read,ACK
3.310322312500000,71,0x18,0x00,Read,ACK
3.310344812500000,71,0x18,0x55,Read,ACK
3.310367312500000,71,0x18,0xFC,Read,ACK
3.310389812500000,71,0x18,0xA5,Read,ACK
3.310412312500000,71,0x18,0x1E,Read,ACK
3.310434812500000,71,0x18,0x7D,Read,ACK
3.310457375000000,71,0x18,0x00,Read,ACK
3.310479875000000,71,0x18,0x51,Read,ACK
3.310502375000000,71,0x18,0xFC,Read,ACK
3.310524875000000,71,0x18,0xD9,Read,ACK
3.310547375000000,71,0x18,0x1E,Read,ACK
3.310569875000000,71,0x18,0x99,Read,ACK
3.310592375000000,71,0x18,0x00,Read,ACK
3.310614875000000,71,0x18,0x65,Read,ACK
3.310637375000000,71,0x18,0xFC,Read,ACK
3.310659875000000,71,0x18,0x29,Read,ACK
3.310682437500000,71,0x18,0x1E,Read,ACK
3.310704937500000,71,0x18,0x09,Read,ACK
3.310727437500000,71,0x18,0x01,Read,ACK
3.310749937500000,71,0x18,0x55,Read,ACK
3.310772437500000,71,0x18,0xFC,Read,ACK
3.310794937500000,71,0x18,0xC1,Read,ACK
3.310817437500000,71,0x18,0x1E,Read,ACK
3.310839937500000,71,0x18,0x0D,Read,ACK
3.310862437500000,71,0x18,0x01,Read,ACK
3.310885000000000,71,0x18,0x5D,Read,ACK
3.310907500000000,71,0x18,0xFC,Read,ACK
3.310930000000000,71,0x18,0xAD,Read,ACK
3.310952500000000,71,0x18,0x1E,Read,NAK
3.311014250000000,72,0x18,0x3E,Write,ACK
3.311036812500000,72,0x18,0x40,Write,ACK
4.106589312500000,73,0x18,0x0E,Write,ACK
4.106637375000000,74,0x18,0x1E,Read,NAK
4.106714875000000,75,0x18,0x3F,Write,ACK
4.106762937500000,76,0x18,0x25,Read,ACK
4.106785437500000,76,0x18,0x01,Read,ACK
4.106807937500000,76,0x18,0x75,Read,ACK
4.106830437500000,76,0x18,0xFC,Read,ACK
4.106852937500000,76,0x18,0xD5,Read,ACK
4.106875500000000,76,0x18,0x1E,Read,ACK
4.106898000000000,76,0x18,0x19,Read,ACK
4.106920500000000,76,0x18,0x01,Read,ACK
4.106943000000000,76,0x18,0x4D,Read,ACK
4.106965500000000,76,0x18,0xFC,Read,ACK
4.106988000000000,76,0x18,0xAD,Read,ACK
4.107010500000000,76,0x18,0x1E,Read,ACK
4.107033000000000,76,0x18,0x2D,Read,ACK
4.107055500000000,76,0x18,0x01,Read,ACK
4.107078062500000,76,0x18,0x65,Read,ACK
4.107100562500000,76,0x18,0xFC,Read,ACK
4.107123062500000,76,0x18,0xA5,Read,ACK
4.107145562500000,76,0x18,0x1E,Read,ACK
4.107168062500000,76,0x18,0x8D,Read,ACK
4.107190562500000,76,0x18,0x00,Read,ACK
4.107213062500000,76,0x18,0x45,Read,ACK
4.107235562500000,76,0x18,0xFC,Read,ACK
4.107258062500000,76,0x18,0x15,Read,ACK
4.107280625000000,76,0x18,0x1E,Read,ACK
4.107303125000000,76,0x18,0x25,Read,ACK
4.107325625000000,76,0x18,0x01,Read,ACK
4.107348125000000,76,0x18,0x4D,Read,ACK
4.107370625000000,76,0x18,0xFC,Read,ACK
4.107393125000000,76,0x18,0xBD,Read,ACK
4.107415625000000,76,0x18,0x1E,Read,NAK
4.107476562500000,77,0x18,0x3F,Write,ACK
4.107524625000000,78,0x18,0x95,Read,ACK
4.107547125000000,78,0x18,0x00,Read,ACK
4.107569625000000,78,0x18,0x55,Read,ACK
4.107592125000000,78,0x18,0xFC,Read,ACK
4.107614625000000,78,0x18,0x49,Read,ACK
4.107637125000000,78,0x18,0x1E,Read,ACK
4.107659625000000,78,0x18,0x25,Read,ACK
4.107682187500000,78,0x18,0x01,Read,ACK
4.107704687500000,78,0x18,0x75,Read,ACK
4.107727187500000,78,0x18,0xFC,Read,ACK
4.107749687500000,78,0x18,0x21,Read,ACK
4.107772187500000,78,0x18,0x1E,Read,ACK
4.107794687500000,78,0x18,0x09,Read,ACK
4.107817187500000,78,0x18,0x01,Read,ACK
4.107839687500000,78,0x18,0x61,Read,ACK
4.107862187500000,78,0x18,0xFC,Read,ACK
4.107884687500000,78,0x18,0xB5,Read,ACK
4.107907250000000,78,0x18,0x1E,Read,ACK
4.107929750000000,78,0x18,0x21,Read,ACK
4.107952250000000,78,0x18,0x01,Read,ACK
4.107974750000000,78,0x18,0x5D,Read,ACK
4.107997250000000,78,0x18,0xFC,Read,ACK
4.108019750000000,78,0x18,0x2D,Read,ACK
4.108042250000000,78,0x18,0x1E,Read,ACK
4.108064750000000,78,0x18,0x21,Read,ACK
4.108087250000000,78,0x18,0x01,Read,ACK
4.108109750000000,78,0x18,0x55,Read,ACK
4.108132312500000,78,0x18,0xFC,Read,ACK
4.108154812500000,78,0x18,0x9D,Read,ACK
4.108177312500000,78,0x18,0x1E,Read,NAK
4.108238187500000,79,0x18,0x3F,Write,ACK
4.108286250000000,80,0x18,0x0D,Read,ACK
4.108308812500000,80,0x18,0x01,Read,ACK
4.108331312500000,80,0x18,0x71,Read,ACK
4.108353812500000,80,0x18,0xFC,Read,ACK
4.108376312500000,80,0x18,0x51,Read,ACK
4.108398812500000,80,0x18,0x1E,Read,ACK
4.108421312500000,80,0x18,0x95,Read,ACK
4.108443812500000,80,0x18,0x00,Read,ACK
4.108466312500000,80,0x18,0x41,Read,ACK
4.108488812500000,80,0x18,0xFC,Read,ACK
4.108511312500000,80,0x18,0xD1,Read,ACK
4.108533875000000,80,0x18,0x1E,Read,ACK
4.108556375000000,80,0x18,0x09,Read,ACK
4.108578875000000,80,0x18,0x01,Read,ACK
4.108601375000000,80,0x18,0x4D,Read,ACK
4.108623875000000,80,0x18,0xFC,Read,ACK
4.108646375000000,80,0x18,0xCD,Read,ACK
4.108668875000000,80,0x18,0x1E,Read,ACK
4.108691375000000,80,0x18,0x09,Read,ACK
4.108713937500000,80,0x18,0x01,Read,ACK
4.108736437500000,80,0x18,0x51,Read,ACK
4.108758937500000,80,0x18,0xFC,Read,ACK
4.108781437500000,80,0x18,0xA5,Read,ACK
4.108803937500000,80,0x18,0x1E,Read,ACK
4.108826437500000,80,0x18,0x95,Read,ACK
4.108848937500000,80,0x18,0x00,Read,ACK
4.108871437500000,80,0x18,0x51,Read,ACK
4.108893937500000,80,0x18,0xFC,Read,ACK
4.108916437500000,80,0x18,0xD1,Read,ACK
4.108939000000000,80,0x18,0x1E,Read,NAK
4.108999875000000,81,0x18,0x3F,Write,ACK
4.109022375000000,81,0x18,0x8C,Write,ACK
4.109042937500000,81,0x18,0x82,Write,ACK
4.109065437500000,81,0x18,0x80,Write,ACK
4.109087937500000,81,0x18,0x9B,Write,ACK
4.109110437500000,81,0x18,0xBF,Write,ACK
4.109133000000000,81,0x18,0x22,Write,ACK
4.109155500000000,81,0x18,0x87,Write,NAK
4.109178000000000,81,0x18,0x08,Write,ACK
4.109200500000000,81,0x18,0x80,Write,ACK
4.109223000000000,81,0x18,0x98,Write,ACK
4.109245500000000,81,0x18,0xBF,Write,ACK
4.109268000000000,81,0x18,0x0B,Write,ACK
4.109290500000000,81,0x18,0x87,Write,NAK
4.109313000000000,81,0x18,0x03,Write,ACK
4.109335500000000,81,0x18,0x80,Write,ACK
4.109358062500000,81,0x18,0x90,Write,ACK
4.109380562500000,81,0x18,0xBF,Write,ACK
4.109403062500000,81,0x18,0x2C,Write,ACK
4.109425562500000,81,0x18,0x87,Write,NAK
4.109448062500000,81,0x18,0x06,Write,ACK
4.109470562500000,81,0x18,0x80,Write,ACK
4.109493062500000,81,0x18,0x97,Write,ACK
4.109515562500000,81,0x18,0xBF,Write,ACK
4.109538125000000,81,0x18,0x33,Write,ACK
4.109560625000000,81,0x18,0x87,Write,NAK
4.109583125000000,81,0x18,0x28,Write,ACK
4.109605625000000,81,0x18,0x80,Write,ACK
4.109628125000000,81,0x18,0x17,Write,ACK
4.109650625000000,81,0x18,0xBF,Write,ACK
4.109673125000000,81,0x18,0x25,Write,ACK
4.109695625000000,81,0x18,0x87,Write,NAK
4.109761562500000,82,0x18,0x3F,Write,ACK
4.109809625000000,83,0x18,0x99,Read,ACK
4.109832125000000,83,0x18,0x00,Read,ACK
4.109854625000000,83,0x18,0x59,Read,ACK
4.109877125000000,83,0x18,0xFC,Read,ACK
4.109899625000000,83,0x18,0x39,Read,ACK
4.109922125000000,83,0x18,0x1E,Read,ACK
4.109944625000000,83,0x18,0xED,Read,ACK
4.109967187500000,83,0x18,0x00,Read,ACK
4.109989687500000,83,0x18,0x85,Read,ACK
4.110012187500000,83,0x18,0xFC,Read,ACK
4.110034687500000,83,0x18,0x91,Read,ACK
4.110057187500000,83,0x18,0x1E,Read,ACK
4.110079687500000,83,0x18,0x05,Read,ACK
4.110102187500000,83,0x18,0x01,Read,ACK
4.110124687500000,83,0x18,0x3D,Read,ACK
4.110147187500000,83,0x18,0xFC,Read,ACK
4.110169750000000,83,0x18,0x1D,Read,ACK
4.110192250000000,83,0x18,0x1E,Read,ACK
4.110214750000000,83,0x18,0x85,Read,ACK
4.110237250000000,83,0x18,0x00,Read,ACK
4.110259750000000,83,0x18,0x61,Read,ACK
4.110282250000000,83,0x18,0xFC,Read,ACK
4.110304750000000,83,0x18,0xD1,Read,ACK
4.110327250000000,83,0x18,0x1E,Read,ACK
4.110349750000000,83,0x18,0x95,Read,ACK
4.110372312500000,83,0x18,0x00,Read,ACK
4.110394812500000,83,0x18,0x51,Read,ACK
4.110417312500000,83,0x18,0xFC,Read,ACK
4.110439812500000,83,0x18,0xC1,Read,ACK
4.110462312500000,83,0x18,0x1E,Read,NAK
4.110523187500000,84,0x18,0x3F,Write,ACK
4.110571312500000,85,0x18,0x1D,Read,ACK
4.110593812500000,85,0x18,0x01,Read,ACK
4.110616312500000,85,0x18,0x55,Read,ACK
4.110638812500000,85,0x18,0xFC,Read,ACK
4.110661312500000,85,0x18,0xE5,Read,ACK
4.110683812500000,85,0x18,0x1E,Read,ACK
4.110706312500000,85,0x18,0x8D,Read,ACK
4.110728812500000,85,0x18,0x00,Read,ACK
4.110751312500000,85,0x18,0x5D,Read,ACK
4.110773812500000,85,0x18,0xFC,Read,ACK
4.110796375000000,85,0x18,0x41,Read,ACK
4.110818875000000,85,0x18,0x1E,Read,ACK
4.110841375000000,85,0x18,0x15,Read,ACK
4.110863875000000,85,0x18,0x01,Read,ACK
4.110886375000000,85,0x18,0x51,Read,ACK
4.110908875000000,85,0x18,0xFC,Read,ACK
4.110931375000000,85,0x18,0xB1,Read,ACK
4.110953875000000,85,0x18,0x1E,Read,ACK
4.110976437500000,85,0x18,0x15,Read,ACK
4.110998937500000,85,0x18,0x01,Read,ACK
4.111021437500000,85,0x18,0x3D,Read,ACK
4.111043937500000,85,0x18,0xFC,Read,ACK
4.111066437500000,85,0x18,0x19,Read,ACK
4.111088937500000,85,0x18,0x1E,Read,ACK
4.111111437500000,85,0x18,0xF5,Read,ACK
4.111133937500000,85,0x18,0x00,Read,ACK
4.111156437500000,85,0x18,0x4D,Read,ACK
4.111178937500000,85,0x18,0xFC,Read,ACK
4.111201500000000,85,0x18,0x99,Read,ACK
4.111224000000000,85,0x18,0x1E,Read,NAK
4.111285750000000,86,0x18,0x3E,Write,ACK
4.111308312500000,86,0x18,0x40,Write,ACK
4.906711937500000,87,0x18,0x0E,Write,ACK
4.906760000000000,88,0x18,0x1F,Read,NAK
4.906837500000000,89,0x18,0x3F,Write,ACK
4.906885562500000,90,0x18,0x11,Read,ACK
4.906908062500000,90,0x18,0x01,Read,ACK
4.906930562500000,90,0x18,0x61,Read,ACK
4.906953062500000,90,0x18,0xFC,Read,ACK
4.906975562500000,90,0x18,0x51,Read,ACK
4.906998062500000,90,0x18,0x1E,Read,ACK
4.907020625000000,90,0x18,0x25,Read,ACK
4.907043125000000,90,0x18,0x01,Read,ACK
4.907065625000000,90,0x18,0x69,Read,ACK
4.907088125000000,90,0x18,0xFC,Read,ACK
4.907110625000000,90,0x18,0xBD,Read,ACK
4.907133125000000,90,0x18,0x1E,Read,ACK
4.907155625000000,90,0x18,0x0D,Read,ACK
4.907178125000000,90,0x18,0x01,Read,ACK
4.907200625000000,90,0x18,0x59,Read,ACK
4.907223125000000,90,0x18,0xFC,Read,ACK
4.907245687500000,90,0x18,0xA1,Read,ACK
4.907268187500000,90,0x18,0x1E,Read,ACK
4.907290687500000,90,0x18,0x15,Read,ACK
4.907313187500000,90,0x18,0x01,Read,ACK
4.907335687500000,90,0x18,0x25,Read,ACK
4.907358187500000,90,0x18,0xFC,Read,ACK
4.907380687500000,90,0x18,0x45,Read,ACK
4.907403187500000,90,0x18,0x1E,Read,ACK
4.907425687500000,90,0x18,0x01,Read,ACK
4.907448250000000,90,0x18,0x01,Read,ACK
4.907470750000000,90,0x18,0x55,Read,ACK
4.907493250000000,90,0x18,0xFC,Read,ACK
4.907515750000000,90,0x18,0xC9,Read,ACK
4.907538250000000,90,0x18,0x1E,Read,NAK
4.907599125000000,91,0x18,0x3F,Write,ACK
4.907647187500000,92,0x18,0x85,Read,ACK
4.907669750000000,92,0x18,0x00,Read,ACK
4.907692250000000,92,0x18,0x6D,Read,ACK
4.907714750000000,92,0x18,0xFC,Read,ACK
4.907737250000000,92,0x18,0xFD,Read,ACK
4.907759750000000,92,0x18,0x1D,Read,ACK
4.907782250000000,92,0x18,0x15,Read,ACK
4.907804750000000,92,0x18,0x01,Read,ACK
4.907827312500000,92,0x18,0x69,Read,ACK
4.907849750000000,92,0x18,0xFC,Read,ACK
4.907872312500000,92,0x18,0xC9,Read,ACK
4.907894812500000,92,0x18,0x1E,Read,ACK
4.907917312500000,92,0x18,0x01,Read,ACK
4.907939812500000,92,0x18,0x01,Read,ACK
4.907962312500000,92,0x18,0x41,Read,ACK
4.907984812500000,92,0x18,0xFC,Read,ACK
4.908007312500000,92,0x18,0x31,Read,ACK
4.908029812500000,92,0x18,0x1E,Read,ACK
4.908052375000000,92,0x18,0x11,Read,ACK
4.908074875000000,92,0x18,0x01,Read,ACK
4.908097375000000,92,0x18,0x3D,Read,ACK
4.908119875000000,92,0x18,0xFC,Read,ACK
4.908142375000000,92,0x18,0xC9,Read,ACK
4.908164875000000,92,0x18,0x1E,Read,ACK
4.908187375000000,92,0x18,0xA9,Read,ACK
4.908209875000000,92,0x18,0x00,Read,ACK
4.908232375000000,92,0x18,0x55,Read,ACK
4.908254875000000,92,0x18,0xFC,Read,ACK
4.908277437500000,92,0x18,0x29,Read,ACK
4.908299937500000,92,0x18,0x1E,Read,NAK
4.908360812500000,93,0x18,0x3F,Write,ACK
4.908408875000000,94,0x18,0xAD,Read,ACK
4.908431375000000,94,0x18,0x00,Read,ACK
4.908453875000000,94,0x18,0x59,Read,ACK
4.908476437500000,94,0x18,0xFC,Read,ACK
4.908498937500000,94,0x18,0x25,Read,ACK
4.908521437500000,94,0x18,0x1E,Read,ACK
4.908543937500000,94,0x18,0x99,Read,ACK
4.908566437500000,94,0x18,0x00,Read,ACK
4.908588937500000,94,0x18,0x51,Read,ACK
4.908611437500000,94,0x18,0xFC,Read,ACK
4.908633937500000,94,0x18,0xCD,Read,ACK
4.908656437500000,94,0x18,0x1E,Read,ACK
4.908679000000000,94,0x18,0xF1,Read,ACK
4.908701500000000,94,0x18,0x00,Read,ACK
4.908724000000000,94,0x18,0x59,Read,ACK
4.908746500000000,94,0x18,0xFC,Read,ACK
4.908769000000000,94,0x18,0xC1,Read,ACK
4.908791500000000,94,0x18,0x1E,Read,ACK
4.908814000000000,94,0x18,0x01,Read,ACK
4.908836500000000,94,0x18,0x01,Read,ACK
4.908859000000000,94,0x18,0x59,Read,ACK
4.908881500000000,94,0x18,0xFC,Read,ACK
4.908904062500000,94,0x18,0xAD,Read,ACK
4.908926562500000,94,0x18,0x1E,Read,ACK
4.908949062500000,94,0x18,0xE5,Read,ACK
4.908971562500000,94,0x18,0x00,Read,ACK
4.908994062500000,94,0x18,0x55,Read,ACK
4.909016562500000,94,0x18,0xFC,Read,ACK
4.909039062500000,94,0x18,0x9D,Read,ACK
4.909061562500000,94,0x18,0x1E,Read,NAK
4.909122500000000,95,0x18,0x3F,Write,ACK
4.909170562500000,96,0x18,0x15,Read,ACK
4.909193062500000,96,0x18,0x01,Read,ACK
4.909215562500000,96,0x18,0x69,Read,ACK
4.909238062500000,96,0x18,0xFC,Read,ACK
4.909260562500000,96,0x18,0x91,Read,ACK
4.909283125000000,96,0x18,0x1E,Read,ACK
4.909305625000000,96,0x18,0x05,Read,ACK
4.909328125000000,96,0x18,0x01,Read,ACK
4.909350625000000,96,0x18,0x49,Read,ACK
4.909373125000000,96,0x18,0xFC,Read,ACK
4.909395625000000,96,0x18,0xC1,Read,ACK
4.909418125000000,96,0x18,0x1E,Read,ACK
4.909440625000000,96,0x18,0x19,Read,ACK
4.909463125000000,96,0x18,0x01,Read,ACK
4.909485625000000,96,0x18,0x3D,Read,ACK
4.909508187500000,96,0x18,0xFC,Read,ACK
4.909530687500000,96,0x18,0x8D,Read,ACK
4.909553187500000,96,0x18,0x1E,Read,ACK
4.909575687500000,96,0x18,0x91,Read,ACK
4.909598187500000,96,0x18,0x00,Read,ACK
4.909620687500000,96,0x18,0x49,Read,ACK
4.909643187500000,96,0x18,0xFC,Read,ACK
4.909665687500000,96,0x18,0xC9,Read,ACK
4.909688187500000,96,0x18,0x1E,Read,ACK
4.909710750000000,96,0x18,0x85,Read,ACK
4.909733250000000,96,0x18,0x00,Read,ACK
4.909755750000000,96,0x18,0x51,Read,ACK
4.909778250000000,96,0x18,0xFC,Read,ACK
4.909800750000000,96,0x18,0xA5,Read,ACK
4.909823250000000,96,0x18,0x1E,Read,NAK
4.909884125000000,97,0x18,0x3F,Write,ACK
4.909932250000000,98,0x18,0x19,Read,ACK
4.909954750000000,98,0x18,0x01,Read,ACK
4.909977250000000,98,0x18,0x7D,Read,ACK
4.909999750000000,98,0x18,0xFC,Read,ACK
4.910022250000000,98,0x18,0xB1,Read,ACK
4.910044750000000,98,0x18,0x1E,Read,ACK
4.910067250000000,98,0x18,0xCD,Read,ACK
4.910089812500000,98,0x18,0x00,Read,ACK
4.910112312500000,98,0x18,0x41,Read,ACK
4.910134812500000,98,0x18,0xFC,Read,ACK
4.910157312500000,98,0x18,0x45,Read,ACK
4.910179812500000,98,0x18,0x1E,Read,ACK
4.910202312500000,98,0x18,0x2D,Read,ACK
4.910224812500000,98,0x18,0x01,Read,ACK
4.910247312500000,98,0x18,0x59,Read,ACK
4.910269812500000,98,0x18,0xFC,Read,ACK
4.910292312500000,98,0x18,0x35,Read,ACK
4.910314875000000,98,0x18,0x1E,Read,ACK
4.910337375000000,98,0x18,0xFD,Read,ACK
4.910359875000000,98,0x18,0x00,Read,ACK
4.910382375000000,98,0x18,0x5D,Read,ACK
4.910404875000000,98,0x18,0xFC,Read,ACK
4.910427375000000,98,0x18,0x35,Read,ACK
4.910449875000000,98,0x18,0x1E,Read,ACK
4.910472375000000,98,0x18,0x81,Read,ACK
4.910494875000000,98,0x18,0x00,Read,ACK
4.910517437500000,98,0x18,0x65,Read,ACK
4.910539937500000,98,0x18,0xFC,Read,ACK
4.910562437500000,98,0x18,0x1D,Read,ACK
4.910584937500000,98,0x18,0x1E,Read,NAK
4.910645812500000,99,0x18,0x3F,Write,ACK
4.910693875000000,100,0x18,0x31,Read,ACK
4.910716375000000,100,0x18,0x01,Read,ACK
4.910738937500000,100,0x18,0x61,Read,ACK
4.910761437500000,100,0x18,0xFC,Read,ACK
4.910783937500000,100,0x18,0xE1,Read,ACK
4.910806437500000,100,0x18,0x1E,Read,ACK
4.910828937500000,100,0x18,0xF1,Read,ACK
4.910851437500000,100,0x18,0x00,Read,ACK
4.910873937500000,100,0x18,0x69,Read,ACK
4.910896437500000,100,0x18,0xFC,Read,ACK
4.910918937500000,100,0x18,0x49,Read,ACK
4.910941500000000,100,0x18,0x1E,Read,ACK
4.910964000000000,100,0x18,0x9D,Read,ACK
4.910986500000000,100,0x18,0x00,Read,ACK
4.911009000000000,100,0x18,0x79,Read,ACK
4.911031500000000,100,0x18,0xFC,Read,ACK
4.911054000000000,100,0x18,0xAD,Read,ACK
4.911076500000000,100,0x18,0x1E,Read,ACK
4.911099000000000,100,0x18,0x15,Read,ACK
4.911121500000000,100,0x18,0x01,Read,ACK
4.911144062500000,100,0x18,0x6D,Read,ACK
4.911166562500000,100,0x18,0xFC,Read,ACK
4.911189062500000,100,0x18,0x09,Read,ACK
4.911211562500000,100,0x18,0x1E,Read,ACK
4.911234062500000,100,0x18,0xF5,Read,ACK
4.911256562500000,100,0x18,0x00,Read,ACK
4.911279062500000,100,0x18,0x39,Read,ACK
4.911301562500000,100,0x18,0xFC,Read,ACK
4.911324062500000,100,0x18,0xBD,Read,ACK
4.911346625000000,100,0x18,0x1E,Read,NAK
4.911407750000000,101,0x18,0x3F,Write,ACK
4.911455812500000,102,0x18,0x85,Read,ACK
4.911478312500000,102,0x18,0x00,Read,ACK
4.911500812500000,102,0x18,0x59,Read,ACK
4.911523312500000,102,0x18,0xFC,Read,ACK
4.911545812500000,102,0x18,0x3D,Read,ACK
4.911568375000000,102,0x18,0x1E,Read,NAK
4.911621312500000,103,0x18,0x3E,Write,ACK
4.911643875000000,103,0x18,0x40,Write,ACK
5.707111125000000,104,0x18,0x0E,Write,ACK
5.707159187500000,105,0x18,0x1E,Read,NAK
5.707236625000000,106,0x18,0x3F,Write,ACK
5.707284750000000,107,0x18,0x15,Read,ACK
5.707307250000000,107,0x18,0x01,Read,ACK
5.707329750000000,107,0x18,0x61,Read,ACK
5.707352250000000,107,0x18,0xFC,Read,ACK
5.707374750000000,107,0x18,0xBD,Read,ACK
5.707397250000000,107,0x18,0x1E,Read,ACK
5.707419750000000,107,0x18,0x01,Read,ACK
5.707442250000000,107,0x18,0x01,Read,ACK
5.707464750000000,107,0x18,0x4D,Read,ACK
5.707487250000000,107,0x18,0xFC,Read,ACK
5.707509812500000,107,0x18,0xD1,Read,ACK
5.707532312500000,107,0x18,0x1E,Read,ACK
5.707554812500000,107,0x18,0xE5,Read,ACK
5.707577312500000,107,0x18,0x00,Read,ACK
5.707599812500000,107,0x18,0x6D,Read,ACK
5.707622312500000,107,0x18,0xFC,Read,ACK
5.707644812500000,107,0x18,0xC9,Read,ACK
5.707667312500000,107,0x18,0x1E,Read,ACK
5.707689875000000,107,0x18,0x0D,Read,ACK
5.707712375000000,107,0x18,0x01,Read,ACK
5.707734875000000,107,0x18,0x3D,Read,ACK
5.707757375000000,107,0x18,0xFC,Read,ACK
5.707779875000000,107,0x18,0x21,Read,ACK
5.707802375000000,107,0x18,0x1E,Read,ACK
5.707824875000000,107,0x18,0x15,Read,ACK
5.707847375000000,107,0x18,0x01,Read,ACK
5.707869875000000,107,0x18,0x6D,Read,ACK
5.707892375000000,107,0x18,0xFC,Read,ACK
5.707914937500000,107,0x18,0x15,Read,ACK
5.707937437500000,107,0x18,0x1E,Read,NAK
5.707998312500000,108,0x18,0x3F,Write,ACK
5.708046375000000,109,0x18,0xFD,Read,ACK
5.708068875000000,109,0x18,0x00,Read,ACK
5.708091375000000,109,0x18,0x35,Read,ACK
5.708113875000000,109,0x18,0xFC,Read,ACK
5.708136437500000,109,0x18,0x49,Read,ACK
5.708158937500000,109,0x18,0x1E,Read,ACK
5.708181437500000,109,0x18,0xA5,Read,ACK
5.708203937500000,109,0x18,0x00,Read,ACK
5.708226437500000,109,0x18,0x59,Read,ACK
5.708248937500000,109,0x18,0xFC,Read,ACK
5.708271437500000,109,0x18,0x4D,Read,ACK
5.708293937500000,109,0x18,0x1E,Read,ACK
5.708316500000000,109,0x18,0x09,Read,ACK
5.708339000000000,109,0x18,0x01,Read,ACK
5.708361500000000,109,0x18,0x75,Read,ACK
5.708384000000000,109,0x18,0xFC,Read,ACK
5.708406500000000,109,0x18,0x81,Read,ACK
5.708429000000000,109,0x18,0x1E,Read,ACK
5.708451500000000,109,0x18,0x89,Read,ACK
5.708474000000000,109,0x18,0x00,Read,ACK
5.708496500000000,109,0x18,0x59,Read,ACK
5.708519000000000,109,0x18,0xFC,Read,ACK
5.708541562500000,109,0x18,0xB5,Read,ACK
5.708564062500000,109,0x18,0x1E,Read,ACK
5.708586562500000,109,0x18,0x05,Read,ACK
5.708609062500000,109,0x18,0x01,Read,ACK
5.708631562500000,109,0x18,0x6D,Read,ACK
5.708654062500000,109,0x18,0xFC,Read,ACK
5.708676562500000,109,0x18,0x49,Read,ACK
5.708699062500000,109,0x18,0x1E,Read,NAK
5.708760000000000,110,0x18,0x3F,Write,ACK
5.708808062500000,111,0x18,0x95,Read,ACK
5.708830562500000,111,0x18,0x00,Read,ACK
5.708853062500000,111,0x18,0x51,Read,ACK
5.708875562500000,111,0x18,0xFC,Read,ACK
5.708898062500000,111,0x18,0x91,Read,ACK
5.708920562500000,111,0x18,0x1E,Read,ACK
5.708943125000000,111,0x18,0xA1,Read,ACK
5.708965625000000,111,0x18,0x00,Read,ACK
5.708988125000000,111,0x18,0x3D,Read,ACK
5.709010625000000,111,0x18,0xFC,Read,ACK
5.709033125000000,111,0x18,0xA5,Read,ACK
5.709055625000000,111,0x18,0x1E,Read,ACK
5.709078125000000,111,0x18,0x0D,Read,ACK
5.709100625000000,111,0x18,0x01,Read,ACK
5.709123125000000,111,0x18,0x51,Read,ACK
5.709145687500000,111,0x18,0xFC,Read,ACK
5.709168187500000,111,0x18,0xB5,Read,ACK
5.709190687500000,111,0x18,0x1E,Read,ACK
5.709213187500000,111,0x18,0xA1,Read,ACK
5.709235687500000,111,0x18,0x00,Read,ACK
5.709258187500000,111,0x18,0x71,Read,ACK
5.709280687500000,111,0x18,0xFC,Read,ACK
5.709303187500000,111,0x18,0x35,Read,ACK
5.709325687500000,111,0x18,0x1E,Read,ACK
5.709348187500000,111,0x18,0xF1,Read,ACK
5.709370750000000,111,0x18,0x00,Read,ACK
5.709393250000000,111,0x18,0x4D,Read,ACK
5.709415750000000,111,0x18,0xFC,Read,ACK
5.709438250000000,111,0x18,0xA1,Read,ACK
5.709460750000000,111,0x18,0x1E,Read,NAK
5.709521625000000,112,0x18,0x3F,Write,ACK
5.709569750000000,113,0x18,0x0D,Read,ACK
5.709592250000000,113,0x18,0x01,Read,ACK
5.709614750000000,113,0x18,0x5D,Read,ACK
5.709637250000000,113,0x18,0xFC,Read,ACK
5.709659750000000,113,0x18,0x45,Read,ACK
5.709682250000000,113,0x18,0x1E,Read,ACK
5.709704750000000,113,0x18,0x09,Read,ACK
5.709727250000000,113,0x18,0x01,Read,ACK
5.709749812500000,113,0x18,0x5D,Read,ACK
5.709772312500000,113,0x18,0xFC,Read,ACK
5.709794812500000,113,0x18,0xB5,Read,ACK
5.709817312500000,113,0x18,0x1E,Read,ACK
5.709839812500000,113,0x18,0x89,Read,ACK
5.709862312500000,113,0x18,0x00,Read,ACK
5.709884812500000,113,0x18,0x61,Read,ACK
5.709907312500000,113,0x18,0xFC,Read,ACK
5.709929812500000,113,0x18,0xB9,Read,ACK
5.709952375000000,113,0x18,0x1E,Read,ACK
5.709974875000000,113,0x18,0x15,Read,ACK
5.709997375000000,113,0x18,0x01,Read,ACK
5.710019875000000,113,0x18,0x41,Read,ACK
5.710042375000000,113,0x18,0xFC,Read,ACK
5.710064875000000,113,0x18,0xC5,Read,ACK
5.710087375000000,113,0x18,0x1E,Read,ACK
5.710109875000000,113,0x18,0x0D,Read,ACK
5.710132375000000,113,0x18,0x01,Read,ACK
5.710154875000000,113,0x18,0x75,Read,ACK
5.710177437500000,113,0x18,0xFC,Read,ACK
5.710199937500000,113,0x18,0x45,Read,ACK
5.710222437500000,113,0x18,0x1E,Read,NAK
5.710283312500000,114,0x18,0x3F,Write,ACK
5.710331375000000,115,0x18,0x01,Read,ACK
5.710353875000000,115,0x18,0x01,Read,ACK
5.710376437500000,115,0x18,0x5D,Read,ACK
5.710398937500000,115,0x18,0xFC,Read,ACK
5.710421437500000,115,0x18,0x59,Read,ACK
5.710443937500000,115,0x18,0x1E,Read,ACK
5.710466437500000,115,0x18,0x1D,Read,ACK
5.710488937500000,115,0x18,0x01,Read,ACK
5.710511437500000,115,0x18,0x51,Read,ACK
5.710533937500000,115,0x18,0xFC,Read,ACK
5.710556437500000,115,0x18,0xAD,Read,ACK
5.710579000000000,115,0x18,0x1E,Read,ACK
5.710601500000000,115,0x18,0x09,Read,ACK
5.710624000000000,115,0x18,0x01,Read,ACK
5.710646500000000,115,0x18,0x4D,Read,ACK
5.710669000000000,115,0x18,0xFC,Read,ACK
5.710691500000000,115,0x18,0x3D,Read,ACK
5.710714000000000,115,0x18,0x1E,Read,ACK
5.710736500000000,115,0x18,0x11,Read,ACK
5.710759000000000,115,0x18,0x01,Read,ACK
5.710781562500000,115,0x18,0x3D,Read,ACK
5.710804062500000,115,0x18,0xFC,Read,ACK
5.710826562500000,115,0x18,0x45,Read,ACK
5.710849062500000,115,0x18,0x1E,Read,ACK
5.710871562500000,115,0x18,0x05,Read,ACK
5.710894062500000,115,0x18,0x01,Read,ACK
5.710916562500000,115,0x18,0x61,Read,ACK
5.710939062500000,115,0x18,0xFC,Read,ACK
5.710961562500000,115,0x18,0xD1,Read,ACK
5.710984125000000,115,0x18,0x1E,Read,NAK
5.711045000000000,116,0x18,0x3F,Write,ACK
5.711093062500000,117,0x18,0x09,Read,ACK
5.711115562500000,117,0x18,0x01,Read,ACK
5.711138062500000,117,0x18,0x65,Read,ACK
5.711160562500000,117,0x18,0xFC,Read,ACK
5.711183062500000,117,0x18,0x89,Read,ACK
5.711205625000000,117,0x18,0x1E,Read,ACK
5.711228125000000,117,0x18,0x15,Read,ACK
5.711250625000000,117,0x18,0x01,Read,ACK
5.711273125000000,117,0x18,0x55,Read,ACK
5.711295625000000,117,0x18,0xFC,Read,ACK
5.711318125000000,117,0x18,0x35,Read,ACK
5.711340625000000,117,0x18,0x1E,Read,ACK
5.711363125000000,117,0x18,0x0D,Read,ACK
5.711385625000000,117,0x18,0x01,Read,ACK
5.711408187500000,117,0x18,0x49,Read,ACK
5.711430687500000,117,0x18,0xFC,Read,ACK
5.711453187500000,117,0x18,0xA5,Read,ACK
5.711475687500000,117,0x18,0x1E,Read,ACK
5.711498187500000,117,0x18,0xF9,Read,ACK
5.711520687500000,117,0x18,0x00,Read,ACK
5.711543187500000,117,0x18,0x41,Read,ACK
5.711565687500000,117,0x18,0xFC,Read,ACK
5.711588187500000,117,0x18,0xA5,Read,ACK
5.711610750000000,117,0x18,0x1E,Read,ACK
5.711633250000000,117,0x18,0xA5,Read,ACK
5.711655750000000,117,0x18,0x00,Read,ACK
5.711678250000000,117,0x18,0x59,Read,ACK
5.711700750000000,117,0x18,0xFC,Read,ACK
5.711723250000000,117,0x18,0x9D,Read,ACK
5.711745750000000,117,0x18,0x1E,Read,NAK
5.711807500000000,118,0x18,0x3E,Write,ACK
5.711830125000000,118,0x18,0x40,Write,ACK
6.507531687500000,119,0x18,0x0E,Write,ACK
6.507579750000000,120,0x18,0x1E,Read,NAK
6.507657187500000,121,0x18,0x3F,Write,ACK
6.507705312500000,122,0x18,0x79,Read,ACK
6.507727812500000,122,0x18,0x00,Read,ACK
6.507750312500000,122,0x18,0x55,Read,ACK
6.507772812500000,122,0x18,0xFC,Read,ACK
6.507795312500000,122,0x18,0x39,Read,ACK
6.507817812500000,122,0x18,0x1E,Read,ACK
6.507840312500000,122,0x18,0x15,Read,ACK
6.507862812500000,122,0x18,0x01,Read,ACK
6.507885312500000,122,0x18,0x59,Read,ACK
6.507907812500000,122,0x18,0xFC,Read,ACK
6.507930375000000,122,0x18,0xBD,Read,ACK
6.507952875000000,122,0x18,0x1E,Read,ACK
6.507975375000000,122,0x18,0x19,Read,ACK
6.507997875000000,122,0x18,0x01,Read,ACK
6.508020375000000,122,0x18,0x4D,Read,ACK
6.508042875000000,122,0x18,0xFC,Read,ACK
6.508065375000000,122,0x18,0x31,Read,ACK
6.508087875000000,122,0x18,0x1E,Read,ACK
6.508110375000000,122,0x18,0x09,Read,ACK
6.508132937500000,122,0x18,0x01,Read,ACK
6.508155437500000,122,0x18,0x51,Read,ACK
6.508177937500000,122,0x18,0xFC,Read,ACK
6.508200437500000,122,0x18,0xB1,Read,ACK
6.508222937500000,122,0x18,0x1E,Read,ACK
6.508245437500000,122,0x18,0x15,Read,ACK
6.508267937500000,122,0x18,0x01,Read,ACK
6.508290437500000,122,0x18,0x2D,Read,ACK
6.508312937500000,122,0x18,0xFC,Read,ACK
6.508335500000000,122,0x18,0x25,Read,ACK
6.508358000000000,122,0x18,0x1E,Read,NAK
6.508418875000000,123,0x18,0x3F,Write,ACK
6.508466937500000,124,0x18,0x01,Read,ACK
6.508489437500000,124,0x18,0x01,Read,ACK
6.508511937500000,124,0x18,0x6D,Read,ACK
6.508534500000000,124,0x18,0xFC,Read,ACK
6.508557000000000,124,0x18,0x35,Read,ACK
6.508579500000000,124,0x18,0x1E,Read,ACK
6.508602000000000,124,0x18,0x11,Read,ACK
6.508624500000000,124,0x18,0x01,Read,ACK
6.508647000000000,124,0x18,0x71,Read,ACK
6.508669500000000,124,0x18,0xFC,Read,ACK
6.508692000000000,124,0x18,0x31,Read,ACK
6.508714500000000,124,0x18,0x1E,Read,ACK
6.508737062500000,124,0x18,0x39,Read,ACK
6.508759562500000,124,0x18,0x01,Read,ACK
6.508782062500000,124,0x18,0x51,Read,ACK
6.508804562500000,124,0x18,0xFC,Read,ACK
6.508827062500000,124,0x18,0x09,Read,ACK
6.508849562500000,124,0x18,0x1E,Read,ACK
6.508872062500000,124,0x18,0xF1,Read,ACK
6.508894562500000,124,0x18,0x00,Read,ACK
6.508917062500000,124,0x18,0x6D,Read,ACK
6.508939562500000,124,0x18,0xFC,Read,ACK
6.508962125000000,124,0x18,0x15,Read,ACK
6.508984625000000,124,0x18,0x1E,Read,ACK
6.509007125000000,124,0x18,0x91,Read,ACK
6.509029625000000,124,0x18,0x00,Read,ACK
6.509052125000000,124,0x18,0x4D,Read,ACK
6.509074625000000,124,0x18,0xFC,Read,ACK
6.509097125000000,124,0x18,0x21,Read,ACK
6.509119625000000,124,0x18,0x1E,Read,NAK
6.509180562500000,125,0x18,0x3F,Write,ACK
6.509228625000000,126,0x18,0x8D,Read,ACK
6.509251125000000,126,0x18,0x00,Read,ACK
6.509273625000000,126,0x18,0x55,Read,ACK
6.509296125000000,126,0x18,0xFC,Read,ACK
6.509318625000000,126,0x18,0xC9,Read,ACK
6.509341125000000,126,0x18,0x1E,Read,ACK
6.509363687500000,126,0x18,0x69,Read,ACK
6.509386187500000,126,0x18,0x00,Read,ACK
6.509408687500000,126,0x18,0x5D,Read,ACK
6.509431187500000,126,0x18,0xFC,Read,ACK
6.509453687500000,126,0x18,0xB1,Read,ACK
6.509476187500000,126,0x18,0x1E,Read,ACK
6.509498687500000,126,0x18,0x95,Read,ACK
6.509521187500000,126,0x18,0x00,Read,ACK
6.509543687500000,126,0x18,0x89,Read,ACK
6.509566250000000,126,0x18,0xFC,Read,ACK
6.509588750000000,126,0x18,0x0D,Read,ACK
6.509611250000000,126,0x18,0x1E,Read,ACK
6.509633750000000,126,0x18,0x11,Read,ACK
6.509656250000000,126,0x18,0x01,Read,ACK
6.509678750000000,126,0x18,0x71,Read,ACK
6.509701250000000,126,0x18,0xFC,Read,ACK
6.509723750000000,126,0x18,0xC5,Read,ACK
6.509746250000000,126,0x18,0x1E,Read,ACK
6.509768812500000,126,0x18,0x29,Read,ACK
6.509791312500000,126,0x18,0x01,Read,ACK
6.509813812500000,126,0x18,0x59,Read,ACK
6.509836312500000,126,0x18,0xFC,Read,ACK
6.509858812500000,126,0x18,0xCD,Read,ACK
6.509881312500000,126,0x18,0x1E,Read,NAK
6.509942187500000,127,0x18,0x3F,Write,ACK
6.509990312500000,128,0x18,0xA9,Read,ACK
6.510012812500000,128,0x18,0x00,Read,ACK
6.510035312500000,128,0x18,0x69,Read,ACK
6.510057812500000,128,0x18,0xFC,Read,ACK
6.510080312500000,128,0x18,0xC9,Read,ACK
6.510102812500000,128,0x18,0x1E,Read,ACK
6.510125312500000,128,0x18,0x1D,Read,ACK
6.510147812500000,128,0x18,0x01,Read,ACK
6.510170375000000,128,0x18,0x55,Read,ACK
6.510192875000000,128,0x18,0xFC,Read,ACK
6.510215375000000,128,0x18,0x9D,Read,ACK
6.510237875000000,128,0x18,0x1E,Read,ACK
6.510260375000000,128,0x18,0x0D,Read,ACK
6.510282875000000,128,0x18,0x01,Read,ACK
6.510305375000000,128,0x18,0x49,Read,ACK
6.510327875000000,128,0x18,0xFC,Read,ACK
6.510350375000000,128,0x18,0x9D,Read,ACK
6.510372875000000,128,0x18,0x1E,Read,ACK
6.510395437500000,128,0x18,0x15,Read,ACK
6.510417937500000,128,0x18,0x01,Read,ACK
6.510440437500000,128,0x18,0x4D,Read,ACK
6.510462937500000,128,0x18,0xFC,Read,ACK
6.510485437500000,128,0x18,0xC5,Read,ACK
6.510507937500000,128,0x18,0x1E,Read,ACK
6.510530437500000,128,0x18,0xA9,Read,ACK
6.510552937500000,128,0x18,0x00,Read,ACK
6.510575437500000,128,0x18,0x5D,Read,ACK
6.510598000000000,128,0x18,0xFC,Read,ACK
6.510620500000000,128,0x18,0xC1,Read,ACK
6.510643000000000,128,0x18,0x1E,Read,NAK
6.510703875000000,129,0x18,0x3F,Write,ACK
6.510751937500000,130,0x18,0x05,Read,ACK
6.510774437500000,130,0x18,0x01,Read,ACK
6.510797000000000,130,0x18,0x6D,Read,ACK
6.510819500000000,130,0x18,0xFC,Read,ACK
6.510842000000000,130,0x18,0xCD,Read,ACK
6.510864500000000,130,0x18,0x1E,Read,ACK
6.510887000000000,130,0x18,0x21,Read,ACK
6.510909500000000,130,0x18,0x01,Read,ACK
6.510932000000000,130,0x18,0x49,Read,ACK
6.510954500000000,130,0x18,0xFC,Read,ACK
6.510977000000000,130,0x18,0x39,Read,ACK
6.510999562500000,130,0x18,0x1E,Read,ACK
6.511022062500000,130,0x18,0xA5,Read,ACK
6.511044562500000,130,0x18,0x00,Read,ACK
6.511067062500000,130,0x18,0x5D,Read,ACK
6.511089562500000,130,0x18,0xFC,Read,ACK
6.511112062500000,130,0x18,0xA9,Read,ACK
6.511134562500000,130,0x18,0x1E,Read,ACK
6.511157062500000,130,0x18,0x29,Read,ACK
6.511179562500000,130,0x18,0x01,Read,ACK
6.511202125000000,130,0x18,0x55,Read,ACK
6.511224625000000,130,0x18,0xFC,Read,ACK
6.511247125000000,130,0x18,0xAD,Read,ACK
6.511269625000000,130,0x18,0x1E,Read,ACK
6.511292125000000,130,0x18,0x11,Read,ACK
6.511314625000000,130,0x18,0x01,Read,ACK
6.511337125000000,130,0x18,0x65,Read,ACK
6.511359625000000,130,0x18,0xFC,Read,ACK
6.511382125000000,130,0x18,0x35,Read,ACK
6.511404625000000,130,0x18,0x1E,Read,NAK
6.511465562500000,131,0x18,0x3F,Write,ACK
6.511513625000000,132,0x18,0x0D,Read,ACK
6.511536125000000,132,0x18,0x01,Read,ACK
6.511558625000000,132,0x18,0x65,Read,ACK
6.511581125000000,132,0x18,0xFC,Read,ACK
6.511603625000000,132,0x18,0xB9,Read,ACK
6.511626187500000,132,0x18,0x1E,Read,ACK
6.511648687500000,132,0x18,0x11,Read,ACK
6.511671187500000,132,0x18,0x01,Read,ACK
6.511693687500000,132,0x18,0x4D,Read,ACK
6.511716187500000,132,0x18,0xFC,Read,ACK
6.511738687500000,132,0x18,0xC9,Read,ACK
6.511761187500000,132,0x18,0x1E,Read,ACK
6.511783687500000,132,0x18,0x81,Read,ACK
6.511806187500000,132,0x18,0x00,Read,ACK
6.511828750000000,132,0x18,0x59,Read,ACK
6.511851250000000,132,0x18,0xFC,Read,ACK
6.511873750000000,132,0x18,0xA5,Read,ACK
6.511896250000000,132,0x18,0x1E,Read,ACK
6.511918750000000,132,0x18,0x09,Read,ACK
6.511941250000000,132,0x18,0x01,Read,ACK
6.511963750000000,132,0x18,0x45,Read,ACK
6.511986250000000,132,0x18,0xFC,Read,ACK
6.512008750000000,132,0x18,0x29,Read,ACK
6.512031312500000,132,0x18,0x1E,Read,ACK
6.512053812500000,132,0x18,0x15,Read,ACK
6.512076312500000,132,0x18,0x01,Read,ACK
6.512098812500000,132,0x18,0x55,Read,ACK
6.512121312500000,132,0x18,0xFC,Read,ACK
6.512143812500000,132,0x18,0x25,Read,ACK
6.512166312500000,132,0x18,0x1E,Read,NAK
6.512228062500000,133,0x18,0x3E,Write,ACK
6.512250687500000,133,0x18,0x40,Write,ACK
7.307797062500000,134,0x18,0x0E,Write,ACK
7.307845125000000,135,0x18,0x1E,Read,NAK
7.307922562500000,136,0x18,0x3F,Write,ACK
7.307970625000000,137,0x18,0x09,Read,ACK
7.307993187500000,137,0x18,0x01,Read,ACK
7.308015687500000,137,0x18,0x4D,Read,ACK
7.308038187500000,137,0x18,0xFC,Read,ACK
7.308060687500000,137,0x18,0xA1,Read,ACK
7.308083187500000,137,0x18,0x1E,Read,ACK
7.308105687500000,137,0x18,0x11,Read,ACK
7.308128187500000,137,0x18,0x01,Read,ACK
7.308150687500000,137,0x18,0x51,Read,ACK
7.308173187500000,137,0x18,0xFC,Read,ACK
7.308195687500000,137,0x18,0xB9,Read,ACK
7.308218250000000,137,0x18,0x1E,Read,ACK
7.308240750000000,137,0x18,0x19,Read,ACK
7.308263250000000,137,0x18,0x01,Read,ACK
7.308285750000000,137,0x18,0x45,Read,ACK
7.308308250000000,137,0x18,0xFC,Read,ACK
7.308330750000000,137,0x18,0xA9,Read,ACK
7.308353250000000,137,0x18,0x1E,Read,ACK
7.308375750000000,137,0x18,0x0D,Read,ACK
7.308398250000000,137,0x18,0x01,Read,ACK
7.308420812500000,137,0x18,0x61,Read,ACK
7.308443312500000,137,0x18,0xFC,Read,ACK
7.308465812500000,137,0x18,0xB1,Read,ACK
7.308488312500000,137,0x18,0x1E,Read,ACK
7.308510812500000,137,0x18,0xFD,Read,ACK
7.308533312500000,137,0x18,0x00,Read,ACK
7.308555812500000,137,0x18,0x55,Read,ACK
7.308578312500000,137,0x18,0xFC,Read,ACK
7.308600812500000,137,0x18,0xC9,Read,ACK
7.308623375000000,137,0x18,0x1E,Read,NAK
7.308684250000000,138,0x18,0x3F,Write,ACK
7.308706750000000,138,0x18,0x8C,Write,ACK
7.308727312500000,138,0x18,0xBF,Write,ACK
7.308749812500000,138,0x18,0x80,Write,ACK
7.308772312500000,138,0x18,0x16,Write,ACK
7.308794812500000,138,0x18,0xBF,Write,ACK
7.308817375000000,138,0x18,0x2C,Write,ACK
7.308839875000000,138,0x18,0x87,Write,NAK
7.308862375000000,138,0x18,0x26,Write,ACK
7.308884875000000,138,0x18,0x80,Write,ACK
7.308907375000000,138,0x18,0x13,Write,ACK
7.308929875000000,138,0x18,0xBF,Write,ACK
7.308952375000000,138,0x18,0x12,Write,ACK
7.308974875000000,138,0x18,0x87,Write,NAK
7.308997375000000,138,0x18,0x03,Write,ACK
7.309019875000000,138,0x18,0x80,Write,ACK
7.309042437500000,138,0x18,0x97,Write,ACK
7.309064937500000,138,0x18,0xBF,Write,ACK
7.309087437500000,138,0x18,0x2B,Write,ACK
7.309109937500000,138,0x18,0x87,Write,NAK
7.309132437500000,138,0x18,0x03,Write,ACK
7.309154937500000,138,0x18,0x80,Write,ACK
7.309177437500000,138,0x18,0x95,Write,ACK
7.309199937500000,138,0x18,0xBF,Write,ACK
7.309222437500000,138,0x18,0x27,Write,ACK
7.309245000000000,138,0x18,0x87,Write,NAK
7.309267500000000,138,0x18,0x06,Write,ACK
7.309290000000000,138,0x18,0x80,Write,ACK
7.309312500000000,138,0x18,0x91,Write,ACK
7.309335000000000,138,0x18,0xBF,Write,ACK
7.309357500000000,138,0x18,0x31,Write,ACK
7.309380000000000,138,0x18,0x87,Write,NAK
7.309445937500000,139,0x18,0x3F,Write,ACK
7.309494000000000,140,0x18,0x29,Read,ACK
7.309516500000000,140,0x18,0x01,Read,ACK
7.309539000000000,140,0x18,0x3D,Read,ACK
7.309561500000000,140,0x18,0xFC,Read,ACK
7.309584000000000,140,0x18,0xA1,Read,ACK
7.309606500000000,140,0x18,0x1E,Read,ACK
7.309629000000000,140,0x18,0x19,Read,ACK
7.309651562500000,140,0x18,0x01,Read,ACK
7.309674062500000,140,0x18,0x61,Read,ACK
7.309696562500000,140,0x18,0xFC,Read,ACK
7.309719062500000,140,0x18,0xC5,Read,ACK
7.309741562500000,140,0x18,0x1E,Read,ACK
7.309764062500000,140,0x18,0x95,Read,ACK
7.309786562500000,140,0x18,0x00,Read,ACK
7.309809062500000,140,0x18,0x3D,Read,ACK
7.309831562500000,140,0x18,0xFC,Read,ACK
7.309854062500000,140,0x18,0xBD,Read,ACK
7.309876625000000,140,0x18,0x1E,Read,ACK
7.309899125000000,140,0x18,0x0D,Read,ACK
7.309921625000000,140,0x18,0x01,Read,ACK
7.309944125000000,140,0x18,0x7D,Read,ACK
7.309966625000000,140,0x18,0xFC,Read,ACK
7.309989125000000,140,0x18,0x35,Read,ACK
7.310011625000000,140,0x18,0x1E,Read,ACK
7.310034125000000,140,0x18,0x71,Read,ACK
7.310056687500000,140,0x18,0x00,Read,ACK
7.310079187500000,140,0x18,0x51,Read,ACK
7.310101687500000,140,0x18,0xFC,Read,ACK
7.310124187500000,140,0x18,0xC5,Read,ACK
7.310146687500000,140,0x18,0x1E,Read,NAK
7.310207562500000,141,0x18,0x3F,Write,ACK
7.310255625000000,142,0x18,0x11,Read,ACK
7.310278187500000,142,0x18,0x01,Read,ACK
7.310300687500000,142,0x18,0x59,Read,ACK
7.310323187500000,142,0x18,0xFC,Read,ACK
7.310345687500000,142,0x18,0xB5,Read,ACK
7.310368187500000,142,0x18,0x1E,Read,ACK
7.310390687500000,142,0x18,0xA5,Read,ACK
7.310413187500000,142,0x18,0x00,Read,ACK
7.310435687500000,142,0x18,0x55,Read,ACK
7.310458187500000,142,0x18,0xFC,Read,ACK
7.310480750000000,142,0x18,0x9D,Read,ACK
7.310503250000000,142,0x18,0x1E,Read,ACK
7.310525750000000,142,0x18,0x01,Read,ACK
7.310548250000000,142,0x18,0x01,Read,ACK
7.310570750000000,142,0x18,0x31,Read,ACK
7.310593250000000,142,0x18,0xFC,Read,ACK
7.310615750000000,142,0x18,0xA1,Read,ACK
7.310638250000000,142,0x18,0x1E,Read,ACK
7.310660750000000,142,0x18,0xE9,Read,ACK
7.310683312500000,142,0x18,0x00,Read,ACK
7.310705812500000,142,0x18,0x81,Read,ACK
7.310728312500000,142,0x18,0xFC,Read,ACK
7.310750812500000,142,0x18,0xA9,Read,ACK
7.310773312500000,142,0x18,0x1E,Read,ACK
7.310795812500000,142,0x18,0x29,Read,ACK
7.310818312500000,142,0x18,0x01,Read,ACK
7.310840812500000,142,0x18,0x51,Read,ACK
7.310863312500000,142,0x18,0xFC,Read,ACK
7.310885812500000,142,0x18,0xBD,Read,ACK
7.310908375000000,142,0x18,0x1E,Read,NAK
7.310969250000000,143,0x18,0x3F,Write,ACK
7.310991750000000,143,0x18,0x8C,Write,ACK
7.311012312500000,143,0x18,0x82,Write,ACK
7.311034812500000,143,0x18,0x80,Write,ACK
7.311057312500000,143,0x18,0x94,Write,ACK
7.311079812500000,143,0x18,0xBF,Write,ACK
7.311102375000000,143,0x18,0x11,Write,ACK
7.311124875000000,143,0x18,0x87,Write,NAK
7.311147375000000,143,0x18,0x06,Write,ACK
7.311169875000000,143,0x18,0x80,Write,ACK
7.311192375000000,143,0x18,0x94,Write,ACK
7.311214875000000,143,0x18,0xBF,Write,ACK
7.311237375000000,143,0x18,0x28,Write,ACK
7.311259875000000,143,0x18,0x87,Write,NAK
7.311282375000000,143,0x18,0x0B,Write,ACK
7.311304937500000,143,0x18,0x80,Write,ACK
7.311327437500000,143,0x18,0x9D,Write,ACK
7.311349937500000,143,0x18,0xBF,Write,ACK
7.311372437500000,143,0x18,0x08,Write,ACK
7.311394937500000,143,0x18,0x87,Write,NAK
7.311417437500000,143,0x18,0x0A,Write,ACK
7.311439937500000,143,0x18,0x80,Write,ACK
7.311462437500000,143,0x18,0x97,Write,ACK
7.311484937500000,143,0x18,0xBF,Write,ACK
7.311507500000000,143,0x18,0x09,Write,ACK
7.311530000000000,143,0x18,0x87,Write,NAK
7.311552500000000,143,0x18,0x03,Write,ACK
7.311575000000000,143,0x18,0x80,Write,ACK
7.311597500000000,143,0x18,0x9C,Write,ACK
7.311620000000000,143,0x18,0xBF,Write,ACK
7.311642500000000,143,0x18,0x11,Write,ACK
7.311665000000000,143,0x18,0x87,Write,NAK
7.311730937500000,144,0x18,0x3F,Write,ACK
7.311779000000000,145,0x18,0x0D,Read,ACK
7.311801500000000,145,0x18,0x01,Read,ACK
7.311824000000000,145,0x18,0x5D,Read,ACK
7.311846500000000,145,0x18,0xFC,Read,ACK
7.311869000000000,145,0x18,0xC9,Read,ACK
7.311891500000000,145,0x18,0x1E,Read,ACK
7.311914000000000,145,0x18,0xF5,Read,ACK
7.311936562500000,145,0x18,0x00,Read,ACK
7.311959062500000,145,0x18,0x51,Read,ACK
7.311981562500000,145,0x18,0xFC,Read,ACK
7.312004062500000,145,0x18,0xA5,Read,ACK
7.312026562500000,145,0x18,0x1E,Read,ACK
7.312049062500000,145,0x18,0x25,Read,ACK
7.312071562500000,145,0x18,0x01,Read,ACK
7.312094062500000,145,0x18,0x3D,Read,ACK
7.312116562500000,145,0x18,0xFC,Read,ACK
7.312139125000000,145,0x18,0x1D,Read,ACK
7.312161625000000,145,0x18,0x1E,Read,ACK
7.312184125000000,145,0x18,0x05,Read,ACK
7.312206625000000,145,0x18,0x01,Read,ACK
7.312229125000000,145,0x18,0x5D,Read,ACK
7.312251625000000,145,0x18,0xFC,Read,ACK
7.312274125000000,145,0x18,0x2D,Read,ACK
7.312296625000000,145,0x18,0x1E,Read,ACK
7.312319187500000,145,0x18,0x05,Read,ACK
7.312341687500000,145,0x18,0x01,Read,ACK
7.312364187500000,145,0x18,0x65,Read,ACK
7.312386687500000,145,0x18,0xFC,Read,ACK
7.312409187500000,145,0x18,0x8D,Read,ACK
7.312431687500000,145,0x18,0x1E,Read,NAK
7.312493437500000,146,0x18,0x3E,Write,ACK
7.312516000000000,146,0x18,0x40,Write,ACK
8.108053812500000,147,0x18,0x0E,Write,ACK
8.108101874999999,148,0x18,0x1F,Read,NAK
8.108179312500001,149,0x18,0x3F,Write,ACK
8.108227437500000,150,0x18,0x05,Read,ACK
8.108249937500000,150,0x18,0x01,Read,ACK
8.108272437500000,150,0x18,0x85,Read,ACK
8.108294937500000,150,0x18,0xFC,Read,ACK
8.108317437500000,150,0x18,0x31,Read,ACK
8.108339937500000,150,0x18,0x1E,Read,ACK
8.108362437500000,150,0x18,0x85,Read,ACK
8.108384937500000,150,0x18,0x00,Read,ACK
8.108407437500000,150,0x18,0x6D,Read,ACK
8.108430000000000,150,0x18,0xFC,Read,ACK
8.108452500000000,150,0x18,0x2D,Read,ACK
8.108475000000000,150,0x18,0x1E,Read,ACK
8.108497500000000,150,0x18,0xA1,Read,ACK
8.108520000000000,150,0x18,0x00,Read,ACK
8.108542500000000,150,0x18,0x75,Read,ACK
8.108565000000000,150,0x18,0xFC,Read,ACK
8.108587500000001,150,0x18,0x9D,Read,ACK
8.108610000000001,150,0x18,0x1E,Read,ACK
8.108632562500000,150,0x18,0xF9,Read,ACK
8.108655062500000,150,0x18,0x00,Read,ACK
8.108677562500000,150,0x18,0x45,Read,ACK
8.108700062500001,150,0x18,0xFC,Read,ACK
8.108722562500001,150,0x18,0xBD,Read,ACK
8.108745062500001,150,0x18,0x1E,Read,ACK
8.108767562500001,150,0x18,0x99,Read,ACK
8.108790062500001,150,0x18,0x00,Read,ACK
8.108812562500001,150,0x18,0x41,Read,ACK
8.108835062500001,150,0x18,0xFC,Read,ACK
8.108857625000001,150,0x18,0xCD,Read,ACK
8.108880125000001,150,0x18,0x1E,Read,NAK
8.108941000000000,151,0x18,0x3F,Write,ACK
8.108989062499999,152,0x18,0x9D,Read,ACK
8.109011562499999,152,0x18,0x00,Read,ACK
8.109034125000001,152,0x18,0x45,Read,ACK
8.109056624999999,152,0x18,0xFC,Read,ACK
8.109079124999999,152,0x18,0xCD,Read,ACK
8.109101624999999,152,0x18,0x1E,Read,ACK
8.109124124999999,152,0x18,0x15,Read,ACK
8.109146624999999,152,0x18,0x01,Read,ACK
8.109169124999999,152,0x18,0x6D,Read,ACK
8.109191624999999,152,0x18,0xFC,Read,ACK
8.109214124999999,152,0x18,0x39,Read,ACK
8.109236687499999,152,0x18,0x1E,Read,ACK
8.109259187499999,152,0x18,0xFD,Read,ACK
8.109281687499999,152,0x18,0x00,Read,ACK
8.109304187499999,152,0x18,0x3D,Read,ACK
8.109326687499999,152,0x18,0xFC,Read,ACK
8.109349187499999,152,0x18,0xCD,Read,ACK
8.109371687499999,152,0x18,0x1E,Read,ACK
8.109394187500000,152,0x18,0x11,Read,ACK
8.109416687500000,152,0x18,0x01,Read,ACK
8.109439187500000,152,0x18,0x51,Read,ACK
8.109461749999999,152,0x18,0xFC,Read,ACK
8.109484250000000,152,0x18,0xD9,Read,ACK
8.109506750000000,152,0x18,0x1E,Read,ACK
8.109529250000000,152,0x18,0x09,Read,ACK
8.109551750000000,152,0x18,0x01,Read,ACK
8.109574250000000,152,0x18,0x59,Read,ACK
8.109596750000000,152,0x18,0xFC,Read,ACK
8.109619250000000,152,0x18,0xC5,Read,ACK
8.109641750000000,152,0x18,0x1E,Read,NAK
8.109702687500000,153,0x18,0x3F,Write,ACK
8.109750750000000,154,0x18,0x11,Read,ACK
8.109773250000000,154,0x18,0x01,Read,ACK
8.109795750000000,154,0x18,0x41,Read,ACK
8.109818250000000,154,0x18,0xFC,Read,ACK
8.109840750000000,154,0x18,0xB9,Read,ACK
8.109863312500000,154,0x18,0x1E,Read,ACK
8.109885812500000,154,0x18,0xED,Read,ACK
8.109908312500000,154,0x18,0x00,Read,ACK
8.109930812500000,154,0x18,0x65,Read,ACK
8.109953312500000,154,0x18,0xFC,Read,ACK
8.109975812500000,154,0x18,0x35,Read,ACK
8.109998312500000,154,0x18,0x1E,Read,ACK
8.110020812500000,154,0x18,0x31,Read,ACK
8.110043312500000,154,0x18,0x01,Read,ACK
8.110065812500000,154,0x18,0x5D,Read,ACK
8.110088375000000,154,0x18,0xFC,Read,ACK
8.110110875000000,154,0x18,0xB5,Read,ACK
8.110133375000000,154,0x18,0x1E,Read,ACK
8.110155875000000,154,0x18,0x35,Read,ACK
8.110178375000000,154,0x18,0x01,Read,ACK
8.110200875000000,154,0x18,0x45,Read,ACK
8.110223375000000,154,0x18,0xFC,Read,ACK
8.110245875000000,154,0x18,0x15,Read,ACK
8.110268437500000,154,0x18,0x1E,Read,ACK
8.110290937500000,154,0x18,0x15,Read,ACK
8.110313437500000,154,0x18,0x01,Read,ACK
8.110335937500000,154,0x18,0x49,Read,ACK
8.110358437500000,154,0x18,0xFC,Read,ACK
8.110380937500000,154,0x18,0x41,Read,ACK
8.110403437500000,154,0x18,0x1E,Read,NAK
8.110464312500000,155,0x18,0x3F,Write,ACK
8.110512437500001,156,0x18,0x09,Read,ACK
8.110534937500001,156,0x18,0x01,Read,ACK
8.110557437500001,156,0x18,0x51,Read,ACK
8.110579937500001,156,0x18,0xFC,Read,ACK
8.110602437500001,156,0x18,0xB5,Read,ACK
8.110624937500001,156,0x18,0x1E,Read,ACK
8.110647437500001,156,0x18,0xA1,Read,ACK
8.110669937500001,156,0x18,0x00,Read,ACK
8.110692500000001,156,0x18,0x51,Read,ACK
8.110715000000001,156,0x18,0xFC,Read,ACK
8.110737500000001,156,0x18,0x41,Read,ACK
8.110760000000001,156,0x18,0x1E,Read,ACK
8.110782499999999,156,0x18,0xFD,Read,ACK
8.110804999999999,156,0x18,0x00,Read,ACK
8.110827499999999,156,0x18,0x5D,Read,ACK
8.110849999999999,156,0x18,0xFC,Read,ACK
8.110872499999999,156,0x18,0xAD,Read,ACK
8.110895062499999,156,0x18,0x1E,Read,ACK
8.110917562499999,156,0x18,0x0D,Read,ACK
8.110940062499999,156,0x18,0x01,Read,ACK
8.110962562499999,156,0x18,0x55,Read,ACK
8.110985062499999,156,0x18,0xFC,Read,ACK
8.111007562499999,156,0x18,0x95,Read,ACK
8.111030062499999,156,0x18,0x1E,Read,ACK
8.111052562499999,156,0x18,0x8D,Read,ACK
8.111075062499999,156,0x18,0x00,Read,ACK
8.111097624999999,156,0x18,0x3D,Read,ACK
8.111120124999999,156,0x18,0xFC,Read,ACK
8.111142624999999,156,0x18,0x9D,Read,ACK
8.111165124999999,156,0x18,0x1E,Read,NAK
8.111223499999999,157,0x0C,0x1F,Write,NAK
8.111274062500000,158,0x18,0x85,Read,ACK
8.111296625000000,158,0x18,0x00,Read,ACK
8.111319125000000,158,0x18,0x45,Read,ACK
8.111341625000000,158,0x18,0xFC,Read,ACK
8.111364125000000,158,0x18,0xC1,Read,ACK
8.111386625000000,158,0x18,0x1E,Read,ACK
8.111409125000000,158,0x18,0x21,Read,ACK
8.111431625000000,158,0x18,0x01,Read,ACK
8.111454125000000,158,0x18,0x5D,Read,ACK
8.111476625000000,158,0x18,0xFC,Read,ACK
8.111499125000000,158,0x18,0xC1,Read,ACK
8.111521687500000,158,0x18,0x1E,Read,ACK
8.111544187500000,158,0x18,0x0D,Read,ACK
8.111566687500000,158,0x18,0x01,Read,ACK
8.111589187500000,158,0x18,0x51,Read,ACK
8.111611687500000,158,0x18,0xFC,Read,ACK
8.111634187500000,158,0x18,0xC5,Read,ACK
8.111656687500000,158,0x18,0x1E,Read,ACK
8.111679187500000,158,0x18,0x19,Read,ACK
8.111701687500000,158,0x18,0x01,Read,ACK
8.111724250000000,158,0x18,0x55,Read,ACK
8.111746750000000,158,0x18,0xFC,Read,ACK
8.111769250000000,158,0x18,0xA5,Read,ACK
8.111791750000000,158,0x18,0x1E,Read,ACK
8.111814250000000,158,0x18,0x09,Read,ACK
8.111836750000000,158,0x18,0x01,Read,ACK
8.111859250000000,158,0x18,0x39,Read,ACK
8.111881750000000,158,0x18,0xFC,Read,ACK
8.111904250000000,158,0x18,0x9D,Read,ACK
8.111926812500000,158,0x18,0x1E,Read,NAK
8.111987687499999,159,0x18,0x3F,Write,ACK
8.112010187499999,159,0x18,0x8C,Write,ACK
8.112030750000001,159,0x18,0x84,Write,ACK
8.112053250000001,159,0x18,0x80,Write,ACK
8.112075750000001,159,0x18,0x91,Write,ACK
8.112098250000001,159,0x18,0xBF,Write,ACK
8.112120812500001,159,0x18,0x29,Write,ACK
8.112143312500001,159,0x18,0x87,Write,NAK
8.112165812500001,159,0x18,0x07,Write,ACK
8.112188312500001,159,0x18,0x80,Write,ACK
8.112210812500001,159,0x18,0x91,Write,ACK
8.112233312500001,159,0x18,0xBF,Write,ACK
8.112255812500001,159,0x18,0x0D,Write,ACK
8.112278312500001,159,0x18,0x87,Write,NAK
8.112300812499999,159,0x18,0x08,Write,ACK
8.112323312499999,159,0x18,0x80,Write,ACK
8.112345875000001,159,0x18,0x94,Write,ACK
8.112368375000001,159,0x18,0xBF,Write,ACK
8.112390874999999,159,0x18,0x0C,Write,ACK
8.112413374999999,159,0x18,0x87,Write,NAK
8.112435874999999,159,0x18,0x04,Write,ACK
8.112458374999999,159,0x18,0x80,Write,ACK
8.112480874999999,159,0x18,0x8D,Write,ACK
8.112503374999999,159,0x18,0xBF,Write,ACK
8.112525874999999,159,0x18,0x2E,Write,ACK
8.112548437499999,159,0x18,0x87,Write,NAK
8.112570937499999,159,0x18,0x00,Write,ACK
8.112593437499999,159,0x18,0x80,Write,ACK
8.112615937499999,159,0x18,0x93,Write,ACK
8.112638437499999,159,0x18,0xBF,Write,ACK
8.112660937499999,159,0x18,0x2E,Write,ACK
8.112683437499999,159,0x18,0x87,Write,NAK
8.112749624999999,160,0x18,0x3F,Write,ACK
8.112797687500001,161,0x18,0x05,Read,ACK
8.112820187500001,161,0x18,0x01,Read,ACK
8.112842687500001,161,0x18,0x41,Read,ACK
8.112865187500001,161,0x18,0xFC,Read,ACK
8.112887687500001,161,0x18,0x3D,Read,ACK
8.112910187500001,161,0x18,0x1E,Read,NAK
8.112963187500000,162,0x18,0x3E,Write,ACK
8.112985750000000,162,0x18,0x40,Write,ACK
8.908236937500000,163,0x18,0x0E,Write,ACK
8.908285062499999,164,0x18,0x1E,Read,NAK
8.908362500000001,165,0x18,0x3F,Write,ACK
8.908385000000001,165,0x18,0x8C,Write,ACK
8.908405562500000,165,0x18,0x82,Write,ACK
8.908428062500001,165,0x18,0x80,Write,ACK
8.908450562500001,165,0x18,0x94,Write,ACK
8.908473062500001,165,0x18,0xBF,Write,ACK
8.908495625000000,165,0x18,0x33,Write,ACK
8.908518125000001,165,0x18,0x87,Write,NAK
8.908540625000001,165,0x18,0x02,Write,ACK
8.908563125000001,165,0x18,0x80,Write,ACK
8.908585625000001,165,0x18,0x9B,Write,ACK
8.908608125000001,165,0x18,0xBF,Write,ACK
8.908630625000001,165,0x18,0x09,Write,ACK
8.908653125000001,165,0x18,0x87,Write,NAK
8.908675625000001,165,0x18,0x04,Write,ACK
8.908698187500001,165,0x18,0x80,Write,ACK
8.908720687500001,165,0x18,0x97,Write,ACK
8.908743187500001,165,0x18,0xBF,Write,ACK
8.908765687500001,165,0x18,0x2D,Write,ACK
8.908788187500001,165,0x18,0x87,Write,NAK
8.908810687500001,165,0x18,0x01,Write,ACK
8.908833187500001,165,0x18,0x80,Write,ACK
8.908855687499999,165,0x18,0x8E,Write,ACK
8.908878187499999,165,0x18,0xBF,Write,ACK
8.908900750000001,165,0x18,0x2D,Write,ACK
8.908923250000001,165,0x18,0x87,Write,NAK
8.908945750000001,165,0x18,0x03,Write,ACK
8.908968249999999,165,0x18,0x80,Write,ACK
8.908990749999999,165,0x18,0x8F,Write,ACK
8.909013249999999,165,0x18,0xBF,Write,ACK
8.909035749999999,165,0x18,0x2F,Write,ACK
8.909058249999999,165,0x18,0x87,Write,NAK
8.909124187500000,166,0x18,0x3F,Write,ACK
8.909172249999999,167,0x18,0xF5,Read,ACK
8.909194749999999,167,0x18,0x00,Read,ACK
8.909217249999999,167,0x18,0x8D,Read,ACK
8.909239749999999,167,0x18,0xFC,Read,ACK
8.909262249999999,167,0x18,0xB5,Read,ACK
8.909284749999999,167,0x18,0x1E,Read,ACK
8.909307312499999,167,0x18,0x05,Read,ACK
8.909329812499999,167,0x18,0x01,Read,ACK
8.909352312499999,167,0x18,0x55,Read,ACK
8.909374812499999,167,0x18,0xFC,Read,ACK
8.909397312499999,167,0x18,0xC5,Read,ACK
8.909419812499999,167,0x18,0x1E,Read,ACK
8.909442312500000,167,0x18,0x2D,Read,ACK
8.909464812500000,167,0x18,0x01,Read,ACK
8.909487312500000,167,0x18,0x65,Read,ACK
8.909509812500000,167,0x18,0xFC,Read,ACK
8.909532375000000,167,0x18,0x2D,Read,ACK
8.909554875000000,167,0x18,0x1E,Read,ACK
8.909577375000000,167,0x18,0x15,Read,ACK
8.909599875000000,167,0x18,0x01,Read,ACK
8.909622375000000,167,0x18,0x51,Read,ACK
8.909644875000000,167,0x18,0xFC,Read,ACK
8.909667375000000,167,0x18,0x3D,Read,ACK
8.909689875000000,167,0x18,0x1E,Read,ACK
8.909712437500000,167,0x18,0x09,Read,ACK
8.909734937500000,167,0x18,0x01,Read,ACK
8.909757437500000,167,0x18,0x55,Read,ACK
8.909779937500000,167,0x18,0xFC,Read,ACK
8.909802437500000,167,0x18,0x39,Read,ACK
8.909824937500000,167,0x18,0x1E,Read,NAK
8.909885812500001,168,0x18,0x3F,Write,ACK
8.909933937500000,169,0x18,0x15,Read,ACK
8.909956437500000,169,0x18,0x01,Read,ACK
8.909978937500000,169,0x18,0x55,Read,ACK
8.910001437500000,169,0x18,0xFC,Read,ACK
8.910023937500000,169,0x18,0xA9,Read,ACK
8.910046437500000,169,0x18,0x1E,Read,ACK
8.910068937500000,169,0x18,0x15,Read,ACK
8.910091437500000,169,0x18,0x01,Read,ACK
8.910113937500000,169,0x18,0x6D,Read,ACK
8.910136437500000,169,0x18,0xFC,Read,ACK
8.910159000000000,169,0x18,0xB9,Read,ACK
8.910181500000000,169,0x18,0x1E,Read,ACK
8.910204000000000,169,0x18,0x75,Read,ACK
8.910226500000000,169,0x18,0x00,Read,ACK
8.910249000000000,169,0x18,0x5D,Read,ACK
8.910271500000000,169,0x18,0xFC,Read,ACK
8.910294000000000,169,0x18,0xF9,Read,ACK
8.910316500000000,169,0x18,0x1D,Read,ACK
8.910339000000000,169,0x18,0xB1,Read,ACK
8.910361562500000,169,0x18,0x00,Read,ACK
8.910384062500000,169,0x18,0x31,Read,ACK
8.910406562500000,169,0x18,0xFC,Read,ACK
8.910429062500000,169,0x18,0xA9,Read,ACK
8.910451562500000,169,0x18,0x1E,Read,ACK
8.910474062500001,169,0x18,0x15,Read,ACK
8.910496562500001,169,0x18,0x01,Read,ACK
8.910519062500001,169,0x18,0x51,Read,ACK
8.910541562500001,169,0x18,0xFC,Read,ACK
8.910564125000001,169,0x18,0xC5,Read,ACK
8.910586625000001,169,0x18,0x1E,Read,NAK
8.910647500000000,170,0x18,0x3F,Write,ACK
8.910695562500001,171,0x18,0x0D,Read,ACK
8.910718062500001,171,0x18,0x01,Read,ACK
8.910740625000001,171,0x18,0x55,Read,ACK
8.910763125000001,171,0x18,0xFC,Read,ACK
8.910785625000001,171,0x18,0xB1,Read,ACK
8.910808125000001,171,0x18,0x1E,Read,ACK
8.910830624999999,171,0x18,0x09,Read,ACK
8.910853124999999,171,0x18,0x01,Read,ACK
8.910875624999999,171,0x18,0x49,Read,ACK
8.910898124999999,171,0x18,0xFC,Read,ACK
8.910920624999999,171,0x18,0x99,Read,ACK
8.910943124999999,171,0x18,0x1E,Read,ACK
8.910965687499999,171,0x18,0xA5,Read,ACK
8.910988187499999,171,0x18,0x00,Read,ACK
8.911010687499999,171,0x18,0x4D,Read,ACK
8.911033187499999,171,0x18,0xFC,Read,ACK
8.911055687499999,171,0x18,0xBD,Read,ACK
8.911078187499999,171,0x18,0x1E,Read,ACK
8.911100687499999,171,0x18,0x09,Read,ACK
8.911123187499999,171,0x18,0x01,Read,ACK
8.911145687499999,171,0x18,0x39,Read,ACK
8.911168249999999,171,0x18,0xFC,Read,ACK
8.911190749999999,171,0x18,0xC5,Read,ACK
8.911213249999999,171,0x18,0x1E,Read,ACK
8.911235749999999,171,0x18,0x25,Read,ACK
8.911258249999999,171,0x18,0x01,Read,ACK
8.911280750000000,171,0x18,0x5D,Read,ACK
8.911303250000000,171,0x18,0xFC,Read,ACK
8.911325750000000,171,0x18,0xC5,Read,ACK
8.911348250000000,171,0x18,0x1E,Read,NAK
8.911409187500000,172,0x18,0x3F,Write,ACK
8.911457250000000,173,0x18,0xF1,Read,ACK
8.911479750000000,173,0x18,0x00,Read,ACK
8.911502250000000,173,0x18,0x51,Read,ACK
8.911524750000000,173,0x18,0xFC,Read,ACK
8.911547250000000,173,0x18,0xD5,Read,ACK
8.911569812500000,173,0x18,0x1E,Read,ACK
8.911592312500000,173,0x18,0xF5,Read,ACK
8.911614812500000,173,0x18,0x00,Read,ACK
8.911637312500000,173,0x18,0x41,Read,ACK
8.911659812500000,173,0x18,0xFC,Read,ACK
8.911682312500000,173,0x18,0xB1,Read,ACK
8.911704812500000,173,0x18,0x1E,Read,ACK
8.911727312500000,173,0x18,0x11,Read,ACK
8.911749812500000,173,0x18,0x01,Read,ACK
8.911772375000000,173,0x18,0x5D,Read,ACK
8.911794875000000,173,0x18,0xFC,Read,ACK
8.911817375000000,173,0x18,0x2D,Read,ACK
8.911839875000000,173,0x18,0x1E,Read,ACK
8.911862375000000,173,0x18,0x7D,Read,ACK
8.911884875000000,173,0x18,0x00,Read,ACK
8.911907375000000,173,0x18,0x59,Read,ACK
8.911929875000000,173,0x18,0xFC,Read,ACK
8.911952375000000,173,0x18,0xB1,Read,ACK
8.911974875000000,173,0x18,0x1E,Read,ACK
8.911997437500000,173,0x18,0x19,Read,ACK
8.912019937500000,173,0x18,0x01,Read,ACK
8.912042437500000,173,0x18,0x45,Read,ACK
8.912064937500000,173,0x18,0xFC,Read,ACK
8.912087437500000,173,0x18,0x2D,Read,ACK
8.912109937500000,173,0x18,0x1E,Read,NAK
8.912170812499999,174,0x18,0x3F,Write,ACK
8.912218937500000,175,0x18,0x95,Read,ACK
8.912241437500001,175,0x18,0x00,Read,ACK
8.912263937500001,175,0x18,0x41,Read,ACK
8.912286437500001,175,0x18,0xFC,Read,ACK
8.912308937500001,175,0x18,0xCD,Read,ACK
8.912331437500001,175,0x18,0x1E,Read,ACK
8.912353937500001,175,0x18,0xD9,Read,ACK
8.912376437500001,175,0x18,0x00,Read,ACK
8.912399000000001,175,0x18,0x41,Read,ACK
8.912421500000001,175,0x18,0xFC,Read,ACK
8.912444000000001,175,0x18,0x1D,Read,ACK
8.912466500000001,175,0x18,0x1E,Read,ACK
8.912489000000001,175,0x18,0x9D,Read,ACK
8.912511500000001,175,0x18,0x00,Read,ACK
8.912534000000001,175,0x18,0x41,Read,ACK
8.912556500000001,175,0x18,0xFC,Read,ACK
8.912578999999999,175,0x18,0xB9,Read,ACK
8.912601562500001,175,0x18,0x1E,Read,ACK
8.912624062500001,175,0x18,0x8D,Read,ACK
8.912646562500001,175,0x18,0x00,Read,ACK
8.912669062499999,175,0x18,0x6D,Read,ACK
8.912691562499999,175,0x18,0xFC,Read,ACK
8.912714062499999,175,0x18,0xBD,Read,ACK
8.912736562499999,175,0x18,0x1E,Read,ACK
8.912759062499999,175,0x18,0xF5,Read,ACK
8.912781562499999,175,0x18,0x00,Read,ACK
8.912804124999999,175,0x18,0x4D,Read,ACK
8.912826624999999,175,0x18,0xFC,Read,ACK
8.912849124999999,175,0x18,0xB5,Read,ACK
8.912871624999999,175,0x18,0x1E,Read,NAK
8.912930875000001,176,0x0C,0x1F,Write,ACK
8.912953375000001,176,0x0C,0x20,Write,ACK
9.708561062499999,177,0x18,0x0E,Write,ACK
9.708609187500000,178,0x18,0x1E,Read,NAK
9.708686625000000,179,0x18,0x3F,Write,ACK
9.708709125000000,179,0x18,0x8C,Write,ACK
9.708729687500000,179,0x18,0x82,Write,ACK
9.708752187500000,179,0x18,0x80,Write,ACK
9.708774687500000,179,0x18,0x97,Write,ACK
9.708797187500000,179,0x18,0xBF,Write,ACK
9.708819750000000,179,0x18,0x2C,Write,ACK
9.708842250000000,179,0x18,0x87,Write,NAK
9.708864750000000,179,0x18,0x0B,Write,ACK
9.708887250000000,179,0x18,0x80,Write,ACK
9.708909750000000,179,0x18,0x92,Write,ACK
9.708932250000000,179,0x18,0xBF,Write,ACK
9.708954750000000,179,0x18,0x25,Write,ACK
9.708977250000000,179,0x18,0x87,Write,NAK
9.708999750000000,179,0x18,0x3F,Write,ACK
9.709022312500000,179,0x18,0x80,Write,ACK
9.709044812500000,179,0x18,0x18,Write,ACK
9.709067312500000,179,0x18,0xBF,Write,ACK
9.709089812500000,179,0x18,0x31,Write,ACK
9.709112312500000,179,0x18,0x87,Write,NAK
9.709134812500000,179,0x18,0x05,Write,ACK
9.709157312500000,179,0x18,0x80,Write,ACK
9.709179812500000,179,0x18,0x99,Write,ACK
9.709202312500000,179,0x18,0xBF,Write,ACK
9.709224875000000,179,0x18,0x35,Write,ACK
9.709247375000000,179,0x18,0x87,Write,NAK
9.709269875000000,179,0x18,0x22,Write,ACK
9.709292375000000,179,0x18,0x80,Write,ACK
9.709314875000000,179,0x18,0x0D,Write,ACK
9.709337375000000,179,0x18,0xBF,Write,ACK
9.709359875000001,179,0x18,0x30,Write,ACK
9.709382375000001,179,0x18,0x87,Write,NAK
9.709448312499999,180,0x18,0x3F,Write,ACK
9.709496375000001,181,0x18,0x95,Read,ACK
9.709518875000001,181,0x18,0x00,Read,ACK
9.709541375000001,181,0x18,0x49,Read,ACK
9.709563875000001,181,0x18,0xFC,Read,ACK
9.709586375000001,181,0x18,0xD1,Read,ACK
9.709608875000001,181,0x18,0x1E,Read,ACK
9.709631375000001,181,0x18,0xFD,Read,ACK
9.709653937500001,181,0x18,0x00,Read,ACK
9.709676437500001,181,0x18,0x61,Read,ACK
9.709698937500001,181,0x18,0xFC,Read,ACK
9.709721437500001,181,0x18,0xDD,Read,ACK
9.709743937500001,181,0x18,0x1E,Read,ACK
9.709766437500001,181,0x18,0x19,Read,ACK
9.709788937500001,181,0x18,0x01,Read,ACK
9.709811437500001,181,0x18,0x59,Read,ACK
9.709833937499999,181,0x18,0xFC,Read,ACK
9.709856500000001,181,0x18,0x19,Read,ACK
9.709879000000001,181,0x18,0x1E,Read,ACK
9.709901500000001,181,0x18,0x15,Read,ACK
9.709924000000001,181,0x18,0x01,Read,ACK
9.709946499999999,181,0x18,0x5D,Read,ACK
9.709968999999999,181,0x18,0xFC,Read,ACK
9.709991499999999,181,0x18,0xAD,Read,ACK
9.710013999999999,181,0x18,0x1E,Read,ACK
9.710036562499999,181,0x18,0x09,Read,ACK
9.710059062499999,181,0x18,0x01,Read,ACK
9.710081562499999,181,0x18,0x25,Read,ACK
9.710104062499999,181,0x18,0xFC,Read,ACK
9.710126562499999,181,0x18,0x25,Read,ACK
9.710149062499999,181,0x18,0x1E,Read,NAK
9.710209937500000,182,0x18,0x3F,Write,ACK
9.710258062499999,183,0x18,0xF1,Read,ACK
9.710280562499999,183,0x18,0x00,Read,ACK
9.710303062500000,183,0x18,0x55,Read,ACK
9.710325562500000,183,0x18,0xFC,Read,ACK
9.710348062500000,183,0x18,0xD5,Read,ACK
9.710370562500000,183,0x18,0x1E,Read,ACK
9.710393062500000,183,0x18,0x11,Read,ACK
9.710415562500000,183,0x18,0x01,Read,ACK
9.710438062500000,183,0x18,0x39,Read,ACK
9.710460625000000,183,0x18,0xFC,Read,ACK
9.710483125000000,183,0x18,0xB9,Read,ACK
9.710505625000000,183,0x18,0x1E,Read,ACK
9.710528125000000,183,0x18,0xA5,Read,ACK
9.710550625000000,183,0x18,0x00,Read,ACK
9.710573125000000,183,0x18,0x55,Read,ACK
9.710595625000000,183,0x18,0xFC,Read,ACK
9.710618125000000,183,0x18,0xC1,Read,ACK
9.710640687500000,183,0x18,0x1E,Read,ACK
9.710663187500000,183,0x18,0x0D,Read,ACK
9.710685687500000,183,0x18,0x01,Read,ACK
9.710708187500000,183,0x18,0x69,Read,ACK
9.710730687500000,183,0x18,0xFC,Read,ACK
9.710753187500000,183,0x18,0xAD,Read,ACK
9.710775687500000,183,0x18,0x1E,Read,ACK
9.710798187500000,183,0x18,0x11,Read,ACK
9.710820687500000,183,0x18,0x01,Read,ACK
9.710843187500000,183,0x18,0x51,Read,ACK
9.710865687500000,183,0x18,0xFC,Read,ACK
9.710888250000000,183,0x18,0xA9,Read,ACK
9.710910750000000,183,0x18,0x1E,Read,NAK
9.710971625000001,184,0x18,0x3F,Write,ACK
9.711019687500000,185,0x18,0x0D,Read,ACK
9.711042187500000,185,0x18,0x01,Read,ACK
9.711064750000000,185,0x18,0x4D,Read,ACK
9.711087250000000,185,0x18,0xFC,Read,ACK
9.711109750000000,185,0x18,0xCD,Read,ACK
9.711132250000000,185,0x18,0x1E,Read,ACK
9.711154750000000,185,0x18,0x0D,Read,ACK
9.711177250000000,185,0x18,0x01,Read,ACK
9.711199750000000,185,0x18,0x6D,Read,ACK
9.711222250000000,185,0x18,0xFC,Read,ACK
9.711244750000001,185,0x18,0xC9,Read,ACK
9.711267312500000,185,0x18,0x1E,Read,ACK
9.711289812500000,185,0x18,0x0D,Read,ACK
9.711312312500000,185,0x18,0x01,Read,ACK
9.711334812500001,185,0x18,0x3D,Read,ACK
9.711357312500001,185,0x18,0xFC,Read,ACK
9.711379812500001,185,0x18,0xBD,Read,ACK
9.711402312500001,185,0x18,0x1E,Read,ACK
9.711424812500001,185,0x18,0x91,Read,ACK
9.711447312500001,185,0x18,0x00,Read,ACK
9.711469812500001,185,0x18,0x45,Read,ACK
9.711492375000001,185,0x18,0xFC,Read,ACK
9.711514875000001,185,0x18,0x35,Read,ACK
9.711537375000001,185,0x18,0x1E,Read,ACK
9.711559875000001,185,0x18,0x09,Read,ACK
9.711582375000001,185,0x18,0x01,Read,ACK
9.711604875000001,185,0x18,0x49,Read,ACK
9.711627375000001,185,0x18,0xFC,Read,ACK
9.711649875000001,185,0x18,0x0D,Read,ACK
9.711672374999999,185,0x18,0x1E,Read,NAK
9.711733312500000,186,0x18,0x3F,Write,ACK
9.711781374999999,187,0x18,0xA9,Read,ACK
9.711803874999999,187,0x18,0x00,Read,ACK
9.711826374999999,187,0x18,0x35,Read,ACK
9.711848874999999,187,0x18,0xFC,Read,ACK
9.711871374999999,187,0x18,0xC1,Read,ACK
9.711893937499999,187,0x18,0x1E,Read,ACK
9.711916437499999,187,0x18,0x05,Read,ACK
9.711938937499999,187,0x18,0x01,Read,ACK
9.711961437499999,187,0x18,0x51,Read,ACK
9.711983937499999,187,0x18,0xFC,Read,ACK
9.712006437499999,187,0x18,0x05,Read,ACK
9.712028937500000,187,0x18,0x1E,Read,ACK
9.712051437500000,187,0x18,0xF5,Read,ACK
9.712073937500000,187,0x18,0x00,Read,ACK
9.712096437500000,187,0x18,0x81,Read,ACK
9.712119000000000,187,0x18,0xFC,Read,ACK
9.712141500000000,187,0x18,0xA9,Read,ACK
9.712164000000000,187,0x18,0x1E,Read,ACK
9.712186500000000,187,0x18,0x25,Read,ACK
9.712209000000000,187,0x18,0x01,Read,ACK
9.712231500000000,187,0x18,0x65,Read,ACK
9.712254000000000,187,0x18,0xFC,Read,ACK
9.712276500000000,187,0x18,0xF1,Read,ACK
9.712299062500000,187,0x18,0x1E,Read,ACK
9.712321562500000,187,0x18,0xED,Read,ACK
9.712344062500000,187,0x18,0x00,Read,ACK
9.712366562500000,187,0x18,0x59,Read,ACK
9.712389062500000,187,0x18,0xFC,Read,ACK
9.712411562500000,187,0x18,0x29,Read,ACK
9.712434062500000,187,0x18,0x1E,Read,NAK
9.712494937500001,188,0x18,0x3F,Write,ACK
9.712543062500000,189,0x18,0x11,Read,ACK
9.712565562500000,189,0x18,0x01,Read,ACK
9.712588062500000,189,0x18,0x61,Read,ACK
9.712610562500000,189,0x18,0xFC,Read,ACK
9.712633062500000,189,0x18,0x45,Read,ACK
9.712655562500000,189,0x18,0x1E,Read,ACK
9.712678062500000,189,0x18,0x91,Read,ACK
9.712700562500000,189,0x18,0x00,Read,ACK
9.712723062500000,189,0x18,0x4D,Read,ACK
9.712745625000000,189,0x18,0xFC,Read,ACK
9.712768125000000,189,0x18,0x09,Read,ACK
9.712790625000000,189,0x18,0x1E,Read,ACK
9.712813125000000,189,0x18,0xFD,Read,ACK
9.712835625000000,189,0x18,0x00,Read,ACK
9.712858125000000,189,0x18,0x69,Read,ACK
9.712880625000000,189,0x18,0xFC,Read,ACK
9.712903125000000,189,0x18,0x19,Read,ACK
9.712925687500000,189,0x18,0x1E,Read,ACK
9.712948187500000,189,0x18,0x1D,Read,ACK
9.712970687500000,189,0x18,0x01,Read,ACK
9.712993187500000,189,0x18,0x55,Read,ACK
9.713015687500000,189,0x18,0xFC,Read,ACK
9.713038187500000,189,0x18,0x31,Read,ACK
9.713060687500001,189,0x18,0x1E,Read,ACK
9.713083187500001,189,0x18,0x25,Read,ACK
9.713105687500001,189,0x18,0x01,Read,ACK
9.713128250000000,189,0x18,0x59,Read,ACK
9.713150750000000,189,0x18,0xFC,Read,ACK
9.713173250000001,189,0x18,0x09,Read,ACK
9.713195750000001,189,0x18,0x1E,Read,NAK
9.713255000000000,190,0x0C,0x1F,Write,ACK
9.713277500000000,190,0x0C,0x20,Write,ACK
